!Agilent Technologies,E8364A,US41440144,A.06.04.32
!Agilent E8364A: A.06.04.32
!Date: Monday, February 05, 2018 12:06:32
!Correction: S11(Full 2 Port(1,2)) S21(Full 2 Port(1,2)) S12(Full 2 Port(1,2)) S22(Full 2 Port(1,2)) 
!S2P File: Measurements: S11, S21, S12, S22:
# Hz S  dB   R 50
2000000000 -1.704055e+001 4.312671e+001 -2.024667e+001 -1.215828e+002 -2.002623e+001 -1.221959e+002 -1.893713e+001 3.247537e+001
2005000000 -1.700822e+001 4.271024e+001 -2.019676e+001 -1.224233e+002 -2.002394e+001 -1.225872e+002 -1.880569e+001 3.141892e+001
2010000000 -1.704543e+001 4.224743e+001 -2.010057e+001 -1.227957e+002 -2.006441e+001 -1.231433e+002 -1.885334e+001 2.968912e+001
2015000000 -1.698016e+001 4.140259e+001 -2.003623e+001 -1.240751e+002 -2.009278e+001 -1.233815e+002 -1.880631e+001 2.854693e+001
2020000000 -1.694372e+001 4.048697e+001 -2.009371e+001 -1.239014e+002 -2.008289e+001 -1.244052e+002 -1.881971e+001 2.730886e+001
2025000000 -1.693949e+001 3.986976e+001 -2.010810e+001 -1.255538e+002 -1.999433e+001 -1.252820e+002 -1.876167e+001 2.549002e+001
2030000000 -1.695050e+001 3.930467e+001 -2.013698e+001 -1.251474e+002 -2.001334e+001 -1.251582e+002 -1.874820e+001 2.437027e+001
2035000000 -1.694259e+001 3.872760e+001 -2.007566e+001 -1.254535e+002 -1.991760e+001 -1.265545e+002 -1.867503e+001 2.279388e+001
2040000000 -1.686049e+001 3.724385e+001 -2.006206e+001 -1.267983e+002 -1.997229e+001 -1.266220e+002 -1.862107e+001 2.214266e+001
2045000000 -1.689079e+001 3.648178e+001 -2.009452e+001 -1.271690e+002 -2.006251e+001 -1.258844e+002 -1.865808e+001 2.070350e+001
2050000000 -1.698580e+001 3.591711e+001 -2.015408e+001 -1.274072e+002 -1.994134e+001 -1.273587e+002 -1.859802e+001 1.925088e+001
2055000000 -1.694953e+001 3.491943e+001 -1.998311e+001 -1.275961e+002 -2.002644e+001 -1.279256e+002 -1.858044e+001 1.808105e+001
2060000000 -1.704802e+001 3.419366e+001 -2.014878e+001 -1.283582e+002 -1.990252e+001 -1.276389e+002 -1.848253e+001 1.671009e+001
2065000000 -1.696922e+001 3.377188e+001 -1.992652e+001 -1.288880e+002 -1.983340e+001 -1.279931e+002 -1.850817e+001 1.585752e+001
2070000000 -1.695534e+001 3.348783e+001 -1.997066e+001 -1.291816e+002 -1.984658e+001 -1.290336e+002 -1.851291e+001 1.437528e+001
2075000000 -1.701702e+001 3.236614e+001 -1.993344e+001 -1.295979e+002 -1.979220e+001 -1.293278e+002 -1.837771e+001 1.261537e+001
2080000000 -1.698233e+001 3.216331e+001 -1.991360e+001 -1.300139e+002 -1.975889e+001 -1.302062e+002 -1.836596e+001 1.198568e+001
2085000000 -1.695545e+001 3.121126e+001 -1.996496e+001 -1.303414e+002 -1.966796e+001 -1.307494e+002 -1.833447e+001 1.109429e+001
2090000000 -1.693206e+001 3.062514e+001 -1.981763e+001 -1.310968e+002 -1.975278e+001 -1.316895e+002 -1.831219e+001 9.284274e+000
2095000000 -1.691138e+001 3.026807e+001 -1.982276e+001 -1.311379e+002 -1.970696e+001 -1.321114e+002 -1.834216e+001 8.076936e+000
2100000000 -1.694634e+001 2.996380e+001 -1.983741e+001 -1.321295e+002 -1.965038e+001 -1.324784e+002 -1.829002e+001 7.662857e+000
2105000000 -1.685824e+001 2.901956e+001 -1.977278e+001 -1.325422e+002 -1.975668e+001 -1.335874e+002 -1.826408e+001 5.608211e+000
2110000000 -1.689715e+001 2.818742e+001 -1.983856e+001 -1.333527e+002 -1.979072e+001 -1.340974e+002 -1.811906e+001 4.672423e+000
2115000000 -1.684790e+001 2.729277e+001 -1.980804e+001 -1.342115e+002 -1.958898e+001 -1.344565e+002 -1.809744e+001 3.705573e+000
2120000000 -1.678499e+001 2.692596e+001 -1.968744e+001 -1.343177e+002 -1.970190e+001 -1.351686e+002 -1.812585e+001 2.544210e+000
2125000000 -1.681224e+001 2.618428e+001 -1.977379e+001 -1.348916e+002 -1.975287e+001 -1.359194e+002 -1.800419e+001 1.832133e+000
2130000000 -1.680845e+001 2.576635e+001 -1.974306e+001 -1.353805e+002 -1.968150e+001 -1.360485e+002 -1.806350e+001 8.072259e-002
2135000000 -1.672185e+001 2.509054e+001 -1.972534e+001 -1.360403e+002 -1.966645e+001 -1.366410e+002 -1.806192e+001 -1.232641e+000
2140000000 -1.672299e+001 2.443983e+001 -1.970757e+001 -1.363424e+002 -1.967476e+001 -1.363746e+002 -1.796157e+001 -2.106412e+000
2145000000 -1.670978e+001 2.260672e+001 -1.968013e+001 -1.373532e+002 -1.963147e+001 -1.372905e+002 -1.799391e+001 -3.043993e+000
2150000000 -1.672720e+001 2.270633e+001 -1.970708e+001 -1.377657e+002 -1.960666e+001 -1.373504e+002 -1.790165e+001 -3.874454e+000
2155000000 -1.669493e+001 2.224565e+001 -1.976167e+001 -1.376840e+002 -1.963717e+001 -1.376577e+002 -1.796903e+001 -5.779917e+000
2160000000 -1.662327e+001 2.270273e+001 -1.972435e+001 -1.385503e+002 -1.944845e+001 -1.377323e+002 -1.786623e+001 -6.702357e+000
2165000000 -1.656796e+001 2.086744e+001 -1.955374e+001 -1.390625e+002 -1.957291e+001 -1.380255e+002 -1.789996e+001 -7.747250e+000
2170000000 -1.656644e+001 2.065949e+001 -1.967243e+001 -1.394092e+002 -1.951984e+001 -1.390116e+002 -1.784228e+001 -8.471394e+000
2175000000 -1.659134e+001 1.978411e+001 -1.961342e+001 -1.401175e+002 -1.943005e+001 -1.400475e+002 -1.775414e+001 -9.578086e+000
2180000000 -1.662005e+001 1.914274e+001 -1.955754e+001 -1.405052e+002 -1.938322e+001 -1.405952e+002 -1.778506e+001 -1.119789e+001
2185000000 -1.663410e+001 1.834010e+001 -1.953943e+001 -1.414064e+002 -1.934694e+001 -1.413031e+002 -1.767606e+001 -1.229797e+001
2190000000 -1.651711e+001 1.791696e+001 -1.953238e+001 -1.421430e+002 -1.938651e+001 -1.417961e+002 -1.773051e+001 -1.336149e+001
2195000000 -1.653588e+001 1.685955e+001 -1.943486e+001 -1.428056e+002 -1.932783e+001 -1.431509e+002 -1.768317e+001 -1.491723e+001
2200000000 -1.652237e+001 1.612428e+001 -1.943187e+001 -1.430834e+002 -1.936236e+001 -1.432338e+002 -1.765198e+001 -1.515661e+001
2205000000 -1.657268e+001 1.541904e+001 -1.950241e+001 -1.431619e+002 -1.928448e+001 -1.435344e+002 -1.754955e+001 -1.654641e+001
2210000000 -1.651341e+001 1.508278e+001 -1.946334e+001 -1.442006e+002 -1.940558e+001 -1.442528e+002 -1.756171e+001 -1.757349e+001
2215000000 -1.643295e+001 1.420211e+001 -1.946872e+001 -1.449994e+002 -1.943004e+001 -1.447073e+002 -1.748673e+001 -1.915453e+001
2220000000 -1.647948e+001 1.336805e+001 -1.940196e+001 -1.452677e+002 -1.935838e+001 -1.450305e+002 -1.749977e+001 -2.039498e+001
2225000000 -1.644555e+001 1.283276e+001 -1.938815e+001 -1.458848e+002 -1.936175e+001 -1.449186e+002 -1.749911e+001 -2.119330e+001
2230000000 -1.639628e+001 1.214132e+001 -1.934896e+001 -1.460314e+002 -1.927481e+001 -1.458752e+002 -1.748452e+001 -2.189052e+001
2235000000 -1.641266e+001 1.158484e+001 -1.939626e+001 -1.466603e+002 -1.934295e+001 -1.464902e+002 -1.742669e+001 -2.320189e+001
2240000000 -1.648323e+001 1.106588e+001 -1.941694e+001 -1.468263e+002 -1.925835e+001 -1.466733e+002 -1.743929e+001 -2.395325e+001
2245000000 -1.638608e+001 1.020972e+001 -1.936765e+001 -1.471933e+002 -1.927365e+001 -1.469757e+002 -1.738817e+001 -2.534508e+001
2250000000 -1.639249e+001 9.407354e+000 -1.939495e+001 -1.480411e+002 -1.921671e+001 -1.478973e+002 -1.740937e+001 -2.673712e+001
2255000000 -1.639983e+001 9.186568e+000 -1.932294e+001 -1.488667e+002 -1.921521e+001 -1.488558e+002 -1.724388e+001 -2.761147e+001
2260000000 -1.637208e+001 8.081589e+000 -1.930178e+001 -1.487094e+002 -1.920243e+001 -1.497099e+002 -1.726448e+001 -2.872386e+001
2265000000 -1.643070e+001 7.012875e+000 -1.935513e+001 -1.499472e+002 -1.912509e+001 -1.492277e+002 -1.727661e+001 -2.995937e+001
2270000000 -1.634702e+001 6.445195e+000 -1.923187e+001 -1.505572e+002 -1.918808e+001 -1.505088e+002 -1.723280e+001 -3.120000e+001
2275000000 -1.631195e+001 5.887407e+000 -1.929459e+001 -1.504004e+002 -1.909374e+001 -1.512361e+002 -1.722999e+001 -3.218592e+001
2280000000 -1.632292e+001 5.608176e+000 -1.925031e+001 -1.507289e+002 -1.912551e+001 -1.518988e+002 -1.718491e+001 -3.270529e+001
2285000000 -1.628332e+001 4.440274e+000 -1.925102e+001 -1.518239e+002 -1.914970e+001 -1.525549e+002 -1.715510e+001 -3.425684e+001
2290000000 -1.627367e+001 4.188222e+000 -1.930625e+001 -1.522038e+002 -1.911238e+001 -1.529541e+002 -1.710503e+001 -3.572629e+001
2295000000 -1.623794e+001 2.726813e+000 -1.922527e+001 -1.524678e+002 -1.905805e+001 -1.536967e+002 -1.710511e+001 -3.641816e+001
2300000000 -1.613969e+001 2.406353e+000 -1.918043e+001 -1.529789e+002 -1.913018e+001 -1.534623e+002 -1.706216e+001 -3.739614e+001
2305000000 -1.624461e+001 1.647917e+000 -1.922795e+001 -1.540461e+002 -1.918945e+001 -1.544684e+002 -1.700188e+001 -3.867028e+001
2310000000 -1.620674e+001 9.823589e-001 -1.915837e+001 -1.542664e+002 -1.906350e+001 -1.542157e+002 -1.696076e+001 -3.964453e+001
2315000000 -1.619933e+001 5.395678e-001 -1.916339e+001 -1.543147e+002 -1.905295e+001 -1.546306e+002 -1.696165e+001 -4.051303e+001
2320000000 -1.618999e+001 -5.197335e-001 -1.909015e+001 -1.550523e+002 -1.903420e+001 -1.554686e+002 -1.692575e+001 -4.228441e+001
2325000000 -1.613452e+001 -9.652795e-001 -1.917704e+001 -1.556811e+002 -1.906783e+001 -1.553474e+002 -1.684188e+001 -4.296831e+001
2330000000 -1.607409e+001 -1.843325e+000 -1.896396e+001 -1.560125e+002 -1.892324e+001 -1.561664e+002 -1.690747e+001 -4.409089e+001
2335000000 -1.609146e+001 -2.701331e+000 -1.903433e+001 -1.568144e+002 -1.894696e+001 -1.564017e+002 -1.690838e+001 -4.506582e+001
2340000000 -1.610612e+001 -2.658262e+000 -1.897686e+001 -1.573005e+002 -1.892133e+001 -1.572404e+002 -1.678169e+001 -4.600566e+001
2345000000 -1.609122e+001 -3.424803e+000 -1.900946e+001 -1.583454e+002 -1.893021e+001 -1.581471e+002 -1.676575e+001 -4.694664e+001
2350000000 -1.607006e+001 -4.207523e+000 -1.904305e+001 -1.589102e+002 -1.884348e+001 -1.589644e+002 -1.676225e+001 -4.864504e+001
2355000000 -1.602364e+001 -5.597884e+000 -1.896136e+001 -1.595627e+002 -1.893023e+001 -1.591337e+002 -1.672807e+001 -4.933809e+001
2360000000 -1.598951e+001 -5.967816e+000 -1.897165e+001 -1.600070e+002 -1.885345e+001 -1.604962e+002 -1.671704e+001 -5.040106e+001
2365000000 -1.598365e+001 -6.702543e+000 -1.893986e+001 -1.605156e+002 -1.891719e+001 -1.611141e+002 -1.673806e+001 -5.163302e+001
2370000000 -1.596424e+001 -6.964028e+000 -1.903733e+001 -1.605327e+002 -1.892406e+001 -1.608617e+002 -1.668981e+001 -5.254457e+001
2375000000 -1.591337e+001 -7.784513e+000 -1.903226e+001 -1.618284e+002 -1.886155e+001 -1.612335e+002 -1.660952e+001 -5.369052e+001
2380000000 -1.596327e+001 -8.513712e+000 -1.897564e+001 -1.620432e+002 -1.894184e+001 -1.621834e+002 -1.660343e+001 -5.488430e+001
2385000000 -1.599312e+001 -8.996254e+000 -1.899894e+001 -1.619132e+002 -1.886153e+001 -1.622288e+002 -1.661902e+001 -5.603444e+001
2390000000 -1.592317e+001 -9.880607e+000 -1.895407e+001 -1.628387e+002 -1.886771e+001 -1.627347e+002 -1.664735e+001 -5.680015e+001
2395000000 -1.591676e+001 -1.038674e+001 -1.895152e+001 -1.637737e+002 -1.882721e+001 -1.630612e+002 -1.664355e+001 -5.798887e+001
2400000000 -1.591928e+001 -1.129489e+001 -1.895476e+001 -1.633753e+002 -1.871978e+001 -1.632970e+002 -1.651517e+001 -5.879031e+001
2405000000 -1.589016e+001 -1.206236e+001 -1.890422e+001 -1.638981e+002 -1.869417e+001 -1.633405e+002 -1.653247e+001 -5.994339e+001
2410000000 -1.587614e+001 -1.264321e+001 -1.877439e+001 -1.645435e+002 -1.865885e+001 -1.643566e+002 -1.645961e+001 -6.130337e+001
2415000000 -1.585189e+001 -1.323072e+001 -1.881712e+001 -1.653082e+002 -1.867140e+001 -1.652514e+002 -1.645305e+001 -6.256488e+001
2420000000 -1.579085e+001 -1.426790e+001 -1.873862e+001 -1.656568e+002 -1.866460e+001 -1.658945e+002 -1.638475e+001 -6.314453e+001
2425000000 -1.582471e+001 -1.495939e+001 -1.867161e+001 -1.668242e+002 -1.858164e+001 -1.663274e+002 -1.647742e+001 -6.419473e+001
2430000000 -1.587594e+001 -1.509048e+001 -1.877913e+001 -1.668776e+002 -1.846875e+001 -1.669529e+002 -1.647281e+001 -6.552866e+001
2435000000 -1.579641e+001 -1.550932e+001 -1.877887e+001 -1.673958e+002 -1.862774e+001 -1.682271e+002 -1.634615e+001 -6.624706e+001
2440000000 -1.581628e+001 -1.661646e+001 -1.874814e+001 -1.677269e+002 -1.855915e+001 -1.687300e+002 -1.637373e+001 -6.751596e+001
2445000000 -1.572292e+001 -1.755637e+001 -1.873501e+001 -1.695724e+002 -1.855750e+001 -1.685477e+002 -1.633206e+001 -6.879414e+001
2450000000 -1.579759e+001 -1.799046e+001 -1.879105e+001 -1.695414e+002 -1.862325e+001 -1.695151e+002 -1.636649e+001 -6.979788e+001
2455000000 -1.574392e+001 -1.876652e+001 -1.872223e+001 -1.699563e+002 -1.868174e+001 -1.698170e+002 -1.638318e+001 -7.057845e+001
2460000000 -1.573380e+001 -1.958777e+001 -1.871589e+001 -1.706007e+002 -1.863738e+001 -1.707703e+002 -1.628569e+001 -7.172047e+001
2465000000 -1.564312e+001 -2.059294e+001 -1.875110e+001 -1.708890e+002 -1.868704e+001 -1.708253e+002 -1.631223e+001 -7.304128e+001
2470000000 -1.568729e+001 -2.093004e+001 -1.874014e+001 -1.715637e+002 -1.869983e+001 -1.717297e+002 -1.623688e+001 -7.389301e+001
2475000000 -1.568762e+001 -2.194356e+001 -1.869009e+001 -1.713096e+002 -1.862229e+001 -1.716165e+002 -1.616750e+001 -7.515520e+001
2480000000 -1.565351e+001 -2.227315e+001 -1.866069e+001 -1.716146e+002 -1.868777e+001 -1.717022e+002 -1.625277e+001 -7.652072e+001
2485000000 -1.557574e+001 -2.340682e+001 -1.864484e+001 -1.718411e+002 -1.865559e+001 -1.720623e+002 -1.611646e+001 -7.741311e+001
2490000000 -1.566358e+001 -2.359222e+001 -1.865824e+001 -1.729849e+002 -1.854124e+001 -1.722065e+002 -1.612822e+001 -7.867425e+001
2495000000 -1.557134e+001 -2.411991e+001 -1.856005e+001 -1.728611e+002 -1.854496e+001 -1.726645e+002 -1.613766e+001 -7.937132e+001
2500000000 -1.560405e+001 -2.503703e+001 -1.851324e+001 -1.733090e+002 -1.846831e+001 -1.738834e+002 -1.613548e+001 -8.050082e+001
2505000000 -1.555144e+001 -2.585132e+001 -1.849122e+001 -1.750191e+002 -1.846411e+001 -1.742556e+002 -1.611066e+001 -8.152376e+001
2510000000 -1.551406e+001 -2.668582e+001 -1.844787e+001 -1.759521e+002 -1.835127e+001 -1.745739e+002 -1.604860e+001 -8.325869e+001
2515000000 -1.552793e+001 -2.755696e+001 -1.841189e+001 -1.761613e+002 -1.831190e+001 -1.755315e+002 -1.606491e+001 -8.362748e+001
2520000000 -1.548869e+001 -2.850914e+001 -1.848059e+001 -1.765934e+002 -1.834108e+001 -1.762237e+002 -1.598392e+001 -8.430566e+001
2525000000 -1.549858e+001 -2.878780e+001 -1.844346e+001 -1.777139e+002 -1.830676e+001 -1.776169e+002 -1.600674e+001 -8.616425e+001
2530000000 -1.546672e+001 -2.940274e+001 -1.846987e+001 -1.778897e+002 -1.833949e+001 -1.775940e+002 -1.600125e+001 -8.676614e+001
2535000000 -1.541020e+001 -3.010911e+001 -1.851439e+001 -1.779249e+002 -1.839508e+001 -1.789929e+002 -1.596909e+001 -8.795024e+001
2540000000 -1.537456e+001 -3.100467e+001 -1.846248e+001 -1.784093e+002 -1.825968e+001 -1.789815e+002 -1.591934e+001 -8.888018e+001
2545000000 -1.534572e+001 -3.225770e+001 -1.849565e+001 -1.798909e+002 -1.845266e+001 -1.794236e+002 -1.595955e+001 -9.013529e+001
2550000000 -1.535399e+001 -3.265852e+001 -1.857007e+001 -1.798157e+002 -1.842930e+001 1.797818e+002 -1.584977e+001 -9.134396e+001
2555000000 -1.539640e+001 -3.352778e+001 -1.847616e+001 1.797928e+002 -1.849224e+001 1.798428e+002 -1.596235e+001 -9.220068e+001
2560000000 -1.538459e+001 -3.435748e+001 -1.849586e+001 1.793261e+002 -1.843263e+001 1.791453e+002 -1.593319e+001 -9.391775e+001
2565000000 -1.541638e+001 -3.494412e+001 -1.847555e+001 1.789682e+002 -1.841437e+001 1.786887e+002 -1.587240e+001 -9.480825e+001
2570000000 -1.540436e+001 -3.589975e+001 -1.849840e+001 1.783837e+002 -1.848009e+001 1.781841e+002 -1.591086e+001 -9.560533e+001
2575000000 -1.542199e+001 -3.662061e+001 -1.837104e+001 1.780996e+002 -1.830750e+001 1.789328e+002 -1.580694e+001 -9.651865e+001
2580000000 -1.533712e+001 -3.659696e+001 -1.840851e+001 1.776358e+002 -1.828334e+001 1.784397e+002 -1.573156e+001 -9.758611e+001
2585000000 -1.538089e+001 -3.788966e+001 -1.842882e+001 1.773977e+002 -1.825625e+001 1.774845e+002 -1.582130e+001 -9.882983e+001
2590000000 -1.535253e+001 -3.856661e+001 -1.837128e+001 1.763096e+002 -1.835173e+001 1.772351e+002 -1.579465e+001 -9.987704e+001
2595000000 -1.538749e+001 -3.900370e+001 -1.834698e+001 1.764009e+002 -1.826858e+001 1.766281e+002 -1.582844e+001 -1.007557e+002
2600000000 -1.540084e+001 -3.991178e+001 -1.836176e+001 1.753215e+002 -1.823181e+001 1.756143e+002 -1.572377e+001 -1.018296e+002
2605000000 -1.535052e+001 -4.038766e+001 -1.832046e+001 1.751195e+002 -1.813490e+001 1.750887e+002 -1.572618e+001 -1.032406e+002
2610000000 -1.537761e+001 -4.102709e+001 -1.826581e+001 1.749500e+002 -1.812377e+001 1.743418e+002 -1.575069e+001 -1.042776e+002
2615000000 -1.538844e+001 -4.187669e+001 -1.833132e+001 1.738444e+002 -1.823576e+001 1.738874e+002 -1.573955e+001 -1.050231e+002
2620000000 -1.535125e+001 -4.246025e+001 -1.834022e+001 1.730683e+002 -1.824715e+001 1.733025e+002 -1.570831e+001 -1.066615e+002
2625000000 -1.528685e+001 -4.309326e+001 -1.830700e+001 1.729208e+002 -1.813437e+001 1.726749e+002 -1.563252e+001 -1.074207e+002
2630000000 -1.530818e+001 -4.382217e+001 -1.830046e+001 1.731868e+002 -1.825649e+001 1.731361e+002 -1.568459e+001 -1.085814e+002
2635000000 -1.533464e+001 -4.451300e+001 -1.830921e+001 1.721204e+002 -1.823041e+001 1.719095e+002 -1.561318e+001 -1.096171e+002
2640000000 -1.529245e+001 -4.538888e+001 -1.823650e+001 1.719090e+002 -1.821466e+001 1.717997e+002 -1.565139e+001 -1.107012e+002
2645000000 -1.522021e+001 -4.593709e+001 -1.828929e+001 1.720135e+002 -1.821291e+001 1.713028e+002 -1.560620e+001 -1.120308e+002
2650000000 -1.522148e+001 -4.627262e+001 -1.818252e+001 1.714982e+002 -1.821877e+001 1.710773e+002 -1.563783e+001 -1.130273e+002
2655000000 -1.521331e+001 -4.741554e+001 -1.820126e+001 1.704627e+002 -1.814787e+001 1.706876e+002 -1.564322e+001 -1.137988e+002
2660000000 -1.521589e+001 -4.796675e+001 -1.805420e+001 1.699669e+002 -1.802956e+001 1.696968e+002 -1.555829e+001 -1.150960e+002
2665000000 -1.514182e+001 -4.911499e+001 -1.808818e+001 1.693886e+002 -1.802136e+001 1.695826e+002 -1.552971e+001 -1.163879e+002
2670000000 -1.516965e+001 -4.949746e+001 -1.799461e+001 1.684802e+002 -1.807740e+001 1.687306e+002 -1.557393e+001 -1.176537e+002
2675000000 -1.515887e+001 -4.997642e+001 -1.799971e+001 1.682203e+002 -1.795549e+001 1.682197e+002 -1.553731e+001 -1.180961e+002
2680000000 -1.515589e+001 -5.082613e+001 -1.792466e+001 1.670355e+002 -1.793409e+001 1.674475e+002 -1.543934e+001 -1.195329e+002
2685000000 -1.511969e+001 -5.148631e+001 -1.796280e+001 1.663682e+002 -1.788674e+001 1.668187e+002 -1.545000e+001 -1.206061e+002
2690000000 -1.508246e+001 -5.218818e+001 -1.806063e+001 1.658662e+002 -1.787616e+001 1.663219e+002 -1.546631e+001 -1.214982e+002
2695000000 -1.511458e+001 -5.281482e+001 -1.804392e+001 1.651752e+002 -1.791416e+001 1.654840e+002 -1.545530e+001 -1.229422e+002
2700000000 -1.512285e+001 -5.363942e+001 -1.808852e+001 1.647728e+002 -1.791897e+001 1.645346e+002 -1.544039e+001 -1.238682e+002
2705000000 -1.498949e+001 -5.416367e+001 -1.803455e+001 1.645210e+002 -1.793260e+001 1.638865e+002 -1.537853e+001 -1.247831e+002
2710000000 -1.508352e+001 -5.514086e+001 -1.806359e+001 1.640175e+002 -1.800373e+001 1.640268e+002 -1.538409e+001 -1.258692e+002
2715000000 -1.503844e+001 -5.562692e+001 -1.802711e+001 1.639824e+002 -1.800049e+001 1.640128e+002 -1.538796e+001 -1.269769e+002
2720000000 -1.502756e+001 -5.685819e+001 -1.810239e+001 1.629321e+002 -1.790887e+001 1.629543e+002 -1.542194e+001 -1.283561e+002
2725000000 -1.504209e+001 -5.705848e+001 -1.798338e+001 1.631280e+002 -1.792832e+001 1.624120e+002 -1.534953e+001 -1.294014e+002
2730000000 -1.500271e+001 -5.756980e+001 -1.794989e+001 1.626912e+002 -1.796390e+001 1.627593e+002 -1.530534e+001 -1.306273e+002
2735000000 -1.496404e+001 -5.836208e+001 -1.792093e+001 1.624232e+002 -1.787516e+001 1.622687e+002 -1.530983e+001 -1.315536e+002
2740000000 -1.498205e+001 -5.887930e+001 -1.781498e+001 1.620494e+002 -1.777176e+001 1.616734e+002 -1.527173e+001 -1.325929e+002
2745000000 -1.495321e+001 -5.964478e+001 -1.784756e+001 1.613825e+002 -1.778164e+001 1.606332e+002 -1.525048e+001 -1.336051e+002
