!Agilent Technologies,E8364A,US41440144,A.06.04.32
!Agilent E8364A: A.06.04.32
!Date: Monday, February 05, 2018 12:04:14
!Correction: S11(Full 2 Port(1,2)) S21(Full 2 Port(1,2)) S12(Full 2 Port(1,2)) S22(Full 2 Port(1,2)) 
!S2P File: Measurements: S11, S21, S12, S22:
# Hz S  dB   R 50
2000000000 -1.713000e+001 4.607959e+001 -6.665552e-001 -1.494337e+002 -4.241678e-001 -1.495664e+002 -1.643193e+001 9.701735e+001
2005000000 -1.707634e+001 4.490107e+001 -6.284828e-001 -1.497280e+002 -4.032204e-001 -1.499223e+002 -1.642650e+001 9.669077e+001
2010000000 -1.702554e+001 4.453165e+001 -6.185494e-001 -1.502155e+002 -4.607360e-001 -1.504785e+002 -1.644097e+001 9.604166e+001
2015000000 -1.700348e+001 4.363423e+001 -5.990864e-001 -1.506797e+002 -4.045827e-001 -1.510356e+002 -1.632625e+001 9.526293e+001
2020000000 -1.694151e+001 4.225203e+001 -5.753853e-001 -1.508570e+002 -4.156488e-001 -1.511489e+002 -1.632991e+001 9.550631e+001
2025000000 -1.687500e+001 4.159700e+001 -5.986118e-001 -1.514651e+002 -4.411760e-001 -1.518655e+002 -1.636869e+001 9.449291e+001
2030000000 -1.692764e+001 4.092253e+001 -6.244012e-001 -1.516135e+002 -4.502769e-001 -1.522777e+002 -1.628851e+001 9.382520e+001
2035000000 -1.683817e+001 4.015906e+001 -5.650483e-001 -1.523085e+002 -4.336180e-001 -1.523425e+002 -1.633539e+001 9.346950e+001
2040000000 -1.686953e+001 3.956182e+001 -5.741543e-001 -1.528022e+002 -5.130882e-001 -1.529728e+002 -1.629162e+001 9.266603e+001
2045000000 -1.691412e+001 3.826395e+001 -6.003997e-001 -1.532727e+002 -5.474950e-001 -1.527987e+002 -1.637422e+001 9.298101e+001
2050000000 -1.692668e+001 3.799098e+001 -6.405694e-001 -1.534179e+002 -4.965037e-001 -1.530435e+002 -1.628605e+001 9.187526e+001
2055000000 -1.693437e+001 3.705217e+001 -6.567536e-001 -1.539587e+002 -5.175592e-001 -1.538592e+002 -1.635793e+001 9.080988e+001
2060000000 -1.702434e+001 3.597310e+001 -6.964796e-001 -1.543788e+002 -4.956112e-001 -1.536627e+002 -1.637625e+001 9.095998e+001
2065000000 -1.698497e+001 3.623030e+001 -6.882235e-001 -1.544657e+002 -4.968956e-001 -1.542936e+002 -1.641254e+001 9.030586e+001
2070000000 -1.704064e+001 3.539566e+001 -6.957600e-001 -1.548429e+002 -4.477671e-001 -1.545458e+002 -1.635330e+001 9.074640e+001
2075000000 -1.704669e+001 3.513059e+001 -7.444794e-001 -1.551310e+002 -4.515689e-001 -1.542841e+002 -1.642097e+001 9.088747e+001
2080000000 -1.701189e+001 3.435955e+001 -7.022678e-001 -1.550870e+002 -3.732172e-001 -1.551195e+002 -1.634160e+001 9.052240e+001
2085000000 -1.697454e+001 3.408265e+001 -7.089051e-001 -1.553676e+002 -3.848558e-001 -1.559806e+002 -1.636429e+001 9.012881e+001
2090000000 -1.692996e+001 3.367461e+001 -6.797996e-001 -1.557534e+002 -3.628511e-001 -1.566669e+002 -1.639058e+001 9.021943e+001
2095000000 -1.694141e+001 3.277045e+001 -6.830978e-001 -1.556824e+002 -3.647052e-001 -1.566571e+002 -1.630063e+001 9.067251e+001
2100000000 -1.680110e+001 3.217908e+001 -6.252266e-001 -1.562047e+002 -3.447704e-001 -1.574648e+002 -1.618601e+001 9.008928e+001
2105000000 -1.680363e+001 3.156598e+001 -6.168808e-001 -1.564087e+002 -4.334562e-001 -1.580654e+002 -1.620495e+001 8.937473e+001
2110000000 -1.681525e+001 3.072141e+001 -6.033230e-001 -1.571528e+002 -5.010790e-001 -1.584929e+002 -1.621240e+001 8.914951e+001
2115000000 -1.671096e+001 3.009176e+001 -5.555393e-001 -1.576391e+002 -4.458134e-001 -1.589815e+002 -1.613358e+001 8.826594e+001
2120000000 -1.683096e+001 2.911943e+001 -5.865642e-001 -1.578337e+002 -4.458074e-001 -1.592701e+002 -1.606200e+001 8.819389e+001
2125000000 -1.673075e+001 2.839033e+001 -5.208093e-001 -1.586772e+002 -5.290013e-001 -1.599766e+002 -1.617547e+001 8.740424e+001
2130000000 -1.667332e+001 2.817829e+001 -5.313429e-001 -1.589501e+002 -5.160569e-001 -1.600098e+002 -1.607736e+001 8.694789e+001
2135000000 -1.671148e+001 2.669714e+001 -6.008958e-001 -1.597357e+002 -5.326742e-001 -1.599159e+002 -1.606625e+001 8.724275e+001
2140000000 -1.666492e+001 2.679604e+001 -5.966328e-001 -1.600665e+002 -5.908055e-001 -1.600638e+002 -1.608942e+001 8.681374e+001
2145000000 -1.667040e+001 2.606701e+001 -5.859526e-001 -1.604536e+002 -5.952592e-001 -1.603997e+002 -1.600586e+001 8.632179e+001
2150000000 -1.668032e+001 2.542528e+001 -6.575368e-001 -1.610336e+002 -5.851645e-001 -1.605862e+002 -1.598174e+001 8.544255e+001
2155000000 -1.661044e+001 2.445402e+001 -6.902830e-001 -1.611701e+002 -5.740021e-001 -1.607448e+002 -1.600534e+001 8.520674e+001
2160000000 -1.659529e+001 2.365950e+001 -7.196504e-001 -1.615486e+002 -5.464020e-001 -1.610910e+002 -1.606524e+001 8.442940e+001
2165000000 -1.662274e+001 2.286416e+001 -6.784079e-001 -1.619180e+002 -5.243355e-001 -1.612181e+002 -1.598954e+001 8.485657e+001
2170000000 -1.652918e+001 2.246561e+001 -6.841719e-001 -1.617775e+002 -4.709223e-001 -1.617221e+002 -1.600550e+001 8.442876e+001
2175000000 -1.650311e+001 2.225878e+001 -7.006398e-001 -1.620644e+002 -4.396487e-001 -1.624017e+002 -1.601020e+001 8.442001e+001
2180000000 -1.655169e+001 2.206027e+001 -7.056468e-001 -1.619612e+002 -3.997383e-001 -1.626796e+002 -1.598834e+001 8.417722e+001
2185000000 -1.648152e+001 2.069098e+001 -6.192069e-001 -1.625275e+002 -4.107264e-001 -1.633454e+002 -1.597941e+001 8.424693e+001
2190000000 -1.638267e+001 1.967839e+001 -6.342541e-001 -1.631173e+002 -4.033441e-001 -1.639529e+002 -1.594451e+001 8.368169e+001
2195000000 -1.643767e+001 1.915869e+001 -5.784588e-001 -1.634082e+002 -4.675952e-001 -1.644148e+002 -1.592990e+001 8.347675e+001
2200000000 -1.644639e+001 1.858060e+001 -5.922904e-001 -1.635039e+002 -4.661452e-001 -1.648427e+002 -1.590099e+001 8.338689e+001
2205000000 -1.643062e+001 1.801174e+001 -5.839789e-001 -1.642351e+002 -4.509787e-001 -1.651729e+002 -1.587800e+001 8.328283e+001
2210000000 -1.646279e+001 1.664178e+001 -5.843970e-001 -1.649809e+002 -4.823058e-001 -1.656118e+002 -1.580223e+001 8.276406e+001
2215000000 -1.642319e+001 1.624762e+001 -5.628838e-001 -1.654394e+002 -4.971294e-001 -1.656714e+002 -1.580062e+001 8.265372e+001
2220000000 -1.643613e+001 1.578947e+001 -5.527654e-001 -1.658391e+002 -5.180113e-001 -1.661305e+002 -1.581271e+001 8.204504e+001
2225000000 -1.637286e+001 1.502727e+001 -5.742499e-001 -1.661508e+002 -5.502716e-001 -1.662427e+002 -1.574048e+001 8.145706e+001
2230000000 -1.640330e+001 1.462140e+001 -6.219538e-001 -1.666633e+002 -5.426669e-001 -1.666666e+002 -1.572866e+001 8.104018e+001
2235000000 -1.634007e+001 1.354340e+001 -6.244423e-001 -1.670208e+002 -5.483200e-001 -1.669598e+002 -1.571044e+001 8.147492e+001
2240000000 -1.634567e+001 1.328710e+001 -6.969094e-001 -1.673904e+002 -5.746947e-001 -1.671698e+002 -1.570529e+001 8.074821e+001
2245000000 -1.633447e+001 1.229739e+001 -6.933195e-001 -1.675999e+002 -5.135970e-001 -1.672019e+002 -1.573448e+001 8.009083e+001
2250000000 -1.633603e+001 1.223621e+001 -6.692324e-001 -1.677828e+002 -4.986922e-001 -1.676933e+002 -1.569121e+001 8.032194e+001
2255000000 -1.627074e+001 1.133848e+001 -6.845509e-001 -1.680944e+002 -4.708667e-001 -1.685202e+002 -1.569113e+001 7.981658e+001
2260000000 -1.621990e+001 1.032193e+001 -6.901776e-001 -1.682986e+002 -4.932564e-001 -1.689782e+002 -1.562314e+001 7.936160e+001
2265000000 -1.620830e+001 9.916217e+000 -6.777233e-001 -1.687137e+002 -4.413220e-001 -1.692922e+002 -1.558616e+001 7.877153e+001
2270000000 -1.621884e+001 9.066511e+000 -6.586909e-001 -1.690914e+002 -4.978819e-001 -1.697424e+002 -1.563285e+001 7.888797e+001
2275000000 -1.616165e+001 7.666401e+000 -6.961214e-001 -1.697174e+002 -4.735734e-001 -1.702496e+002 -1.561513e+001 7.839412e+001
2280000000 -1.614309e+001 7.411994e+000 -6.332523e-001 -1.695859e+002 -5.104994e-001 -1.711684e+002 -1.553058e+001 7.804259e+001
2285000000 -1.610734e+001 6.797695e+000 -5.920367e-001 -1.702529e+002 -4.807767e-001 -1.713486e+002 -1.557664e+001 7.768589e+001
2290000000 -1.610086e+001 6.132448e+000 -6.122769e-001 -1.705307e+002 -5.426458e-001 -1.713699e+002 -1.552342e+001 7.772423e+001
2295000000 -1.613442e+001 5.143749e+000 -6.115396e-001 -1.712493e+002 -5.382983e-001 -1.720599e+002 -1.551965e+001 7.727073e+001
2300000000 -1.613520e+001 4.115854e+000 -6.054704e-001 -1.716543e+002 -6.115920e-001 -1.721796e+002 -1.557242e+001 7.744654e+001
2305000000 -1.612960e+001 3.903535e+000 -6.077700e-001 -1.722666e+002 -6.081685e-001 -1.722964e+002 -1.552232e+001 7.722595e+001
2310000000 -1.604638e+001 3.495211e+000 -6.307363e-001 -1.724772e+002 -5.552456e-001 -1.724371e+002 -1.548003e+001 7.633179e+001
2315000000 -1.613748e+001 1.931917e+000 -6.985330e-001 -1.725502e+002 -5.700819e-001 -1.727523e+002 -1.544874e+001 7.599756e+001
2320000000 -1.606766e+001 2.168093e+000 -6.959134e-001 -1.731082e+002 -5.917481e-001 -1.730827e+002 -1.546546e+001 7.595473e+001
2325000000 -1.606007e+001 9.535828e-001 -6.997017e-001 -1.736223e+002 -5.436968e-001 -1.733553e+002 -1.540573e+001 7.571329e+001
2330000000 -1.600446e+001 6.741353e-001 -6.604578e-001 -1.735537e+002 -5.192605e-001 -1.738757e+002 -1.544818e+001 7.560139e+001
2335000000 -1.602692e+001 -3.996756e-001 -7.195643e-001 -1.739174e+002 -5.126836e-001 -1.742408e+002 -1.535611e+001 7.502654e+001
2340000000 -1.596414e+001 -5.565857e-001 -6.819499e-001 -1.741070e+002 -5.041527e-001 -1.748662e+002 -1.531420e+001 7.482254e+001
2345000000 -1.591430e+001 -1.415735e+000 -7.226092e-001 -1.744277e+002 -5.048976e-001 -1.752033e+002 -1.529105e+001 7.451275e+001
2350000000 -1.589050e+001 -2.687221e+000 -6.702518e-001 -1.746776e+002 -5.122205e-001 -1.755167e+002 -1.536755e+001 7.397888e+001
2355000000 -1.579799e+001 -3.223896e+000 -6.178148e-001 -1.751228e+002 -5.354240e-001 -1.760199e+002 -1.533867e+001 7.379048e+001
2360000000 -1.583419e+001 -4.115394e+000 -5.681395e-001 -1.757635e+002 -4.741161e-001 -1.766844e+002 -1.527019e+001 7.330704e+001
2365000000 -1.582823e+001 -4.598203e+000 -5.931708e-001 -1.760013e+002 -5.440168e-001 -1.770255e+002 -1.522439e+001 7.279173e+001
2370000000 -1.580303e+001 -5.414266e+000 -5.710773e-001 -1.765027e+002 -5.677382e-001 -1.773002e+002 -1.522866e+001 7.281290e+001
2375000000 -1.583364e+001 -5.835584e+000 -5.926592e-001 -1.771376e+002 -6.118557e-001 -1.775328e+002 -1.524720e+001 7.200957e+001
2380000000 -1.581590e+001 -6.736833e+000 -5.243048e-001 -1.776434e+002 -6.282456e-001 -1.779081e+002 -1.522235e+001 7.170952e+001
2385000000 -1.578713e+001 -7.392540e+000 -5.770841e-001 -1.780990e+002 -5.648729e-001 -1.780627e+002 -1.524713e+001 7.165134e+001
2390000000 -1.584715e+001 -8.198673e+000 -5.973859e-001 -1.786331e+002 -6.159107e-001 -1.782696e+002 -1.516932e+001 7.182999e+001
2395000000 -1.573183e+001 -8.913268e+000 -6.335896e-001 -1.794070e+002 -6.135485e-001 -1.783458e+002 -1.520582e+001 7.153426e+001
2400000000 -1.578376e+001 -9.381804e+000 -6.428182e-001 -1.793734e+002 -5.915572e-001 -1.786504e+002 -1.518162e+001 7.087847e+001
2405000000 -1.573535e+001 -1.023304e+001 -6.730679e-001 -1.796954e+002 -5.249770e-001 -1.788440e+002 -1.519219e+001 7.072040e+001
2410000000 -1.576987e+001 -1.082146e+001 -7.150142e-001 1.798779e+002 -5.081050e-001 -1.792921e+002 -1.515069e+001 7.068002e+001
2415000000 -1.574575e+001 -1.150045e+001 -7.207071e-001 1.795338e+002 -4.940885e-001 -1.799198e+002 -1.509670e+001 7.038825e+001
2420000000 -1.562148e+001 -1.185909e+001 -6.937518e-001 1.795901e+002 -4.442929e-001 1.795264e+002 -1.511702e+001 7.020057e+001
2425000000 -1.571658e+001 -1.270785e+001 -7.399564e-001 1.794953e+002 -4.358484e-001 1.790067e+002 -1.513739e+001 6.966549e+001
2430000000 -1.568817e+001 -1.297473e+001 -6.929039e-001 1.790076e+002 -4.037684e-001 1.785865e+002 -1.500103e+001 6.947823e+001
2435000000 -1.560604e+001 -1.385294e+001 -6.899292e-001 1.791043e+002 -4.832467e-001 1.779709e+002 -1.502396e+001 6.957082e+001
2440000000 -1.561404e+001 -1.511873e+001 -6.663488e-001 1.787152e+002 -4.634774e-001 1.773430e+002 -1.498033e+001 6.897057e+001
2445000000 -1.554017e+001 -1.557206e+001 -6.488860e-001 1.781637e+002 -4.872652e-001 1.767769e+002 -1.496190e+001 6.798167e+001
2450000000 -1.560734e+001 -1.669450e+001 -6.338242e-001 1.779502e+002 -5.551401e-001 1.765501e+002 -1.496351e+001 6.823204e+001
2455000000 -1.559358e+001 -1.740910e+001 -5.687110e-001 1.773960e+002 -6.103438e-001 1.757816e+002 -1.498889e+001 6.735790e+001
2460000000 -1.556297e+001 -1.780545e+001 -5.536093e-001 1.767532e+002 -6.459630e-001 1.760111e+002 -1.495935e+001 6.746593e+001
2465000000 -1.551934e+001 -1.907516e+001 -6.233169e-001 1.759791e+002 -6.541368e-001 1.755928e+002 -1.499572e+001 6.728223e+001
2470000000 -1.547715e+001 -1.922886e+001 -5.754644e-001 1.756271e+002 -7.344845e-001 1.752400e+002 -1.496473e+001 6.670786e+001
2475000000 -1.554633e+001 -2.001957e+001 -6.117541e-001 1.753744e+002 -6.753815e-001 1.748871e+002 -1.490966e+001 6.594993e+001
2480000000 -1.546585e+001 -2.039919e+001 -6.036723e-001 1.749480e+002 -6.636112e-001 1.751844e+002 -1.493349e+001 6.622225e+001
2485000000 -1.542277e+001 -2.153870e+001 -6.153721e-001 1.744235e+002 -6.622369e-001 1.750731e+002 -1.489479e+001 6.550692e+001
2490000000 -1.537495e+001 -2.229372e+001 -6.713989e-001 1.737050e+002 -6.601462e-001 1.748058e+002 -1.497107e+001 6.522135e+001
2495000000 -1.544009e+001 -2.256917e+001 -6.884114e-001 1.736541e+002 -6.213105e-001 1.748087e+002 -1.484001e+001 6.497303e+001
2500000000 -1.539389e+001 -2.357025e+001 -7.223855e-001 1.736931e+002 -5.152101e-001 1.740640e+002 -1.481785e+001 6.484013e+001
2505000000 -1.543877e+001 -2.402049e+001 -7.470975e-001 1.727974e+002 -5.289937e-001 1.737541e+002 -1.484558e+001 6.448779e+001
2510000000 -1.535975e+001 -2.532205e+001 -7.495615e-001 1.725482e+002 -4.442879e-001 1.733127e+002 -1.484134e+001 6.415346e+001
2515000000 -1.529587e+001 -2.577997e+001 -7.106782e-001 1.725924e+002 -4.758294e-001 1.726739e+002 -1.480752e+001 6.435738e+001
2520000000 -1.524713e+001 -2.625354e+001 -6.844194e-001 1.724769e+002 -4.595758e-001 1.720381e+002 -1.475600e+001 6.445673e+001
2525000000 -1.523276e+001 -2.691988e+001 -6.588152e-001 1.723136e+002 -4.504722e-001 1.714788e+002 -1.473673e+001 6.368020e+001
2530000000 -1.523206e+001 -2.738690e+001 -6.642572e-001 1.719236e+002 -4.851067e-001 1.710337e+002 -1.472746e+001 6.360221e+001
2535000000 -1.521220e+001 -2.869611e+001 -6.484751e-001 1.714660e+002 -5.267568e-001 1.701788e+002 -1.466539e+001 6.295232e+001
2540000000 -1.514613e+001 -2.979156e+001 -6.310599e-001 1.709691e+002 -5.816134e-001 1.699962e+002 -1.467956e+001 6.236472e+001
2545000000 -1.523637e+001 -3.066010e+001 -6.513538e-001 1.703725e+002 -6.077623e-001 1.695011e+002 -1.473173e+001 6.219566e+001
2550000000 -1.522886e+001 -3.139646e+001 -6.425149e-001 1.698973e+002 -6.482908e-001 1.690445e+002 -1.469946e+001 6.166356e+001
2555000000 -1.519842e+001 -3.226493e+001 -5.837803e-001 1.694225e+002 -6.670384e-001 1.692719e+002 -1.476370e+001 6.146962e+001
2560000000 -1.520056e+001 -3.314306e+001 -6.419911e-001 1.689728e+002 -6.848121e-001 1.689411e+002 -1.471297e+001 6.124668e+001
2565000000 -1.518082e+001 -3.321176e+001 -6.678183e-001 1.687453e+002 -6.924205e-001 1.687318e+002 -1.479083e+001 6.078565e+001
2570000000 -1.519941e+001 -3.404299e+001 -6.684083e-001 1.683282e+002 -6.980886e-001 1.684326e+002 -1.479141e+001 6.082534e+001
2575000000 -1.522352e+001 -3.459513e+001 -6.863658e-001 1.679279e+002 -6.458244e-001 1.685986e+002 -1.474060e+001 6.079392e+001
2580000000 -1.523635e+001 -3.547124e+001 -7.050251e-001 1.673940e+002 -6.389197e-001 1.681634e+002 -1.470564e+001 6.041525e+001
2585000000 -1.519833e+001 -3.598835e+001 -7.380432e-001 1.676122e+002 -5.832396e-001 1.680088e+002 -1.476206e+001 6.031466e+001
2590000000 -1.516571e+001 -3.676735e+001 -7.074754e-001 1.673195e+002 -5.653823e-001 1.675894e+002 -1.468255e+001 6.017363e+001
2595000000 -1.519764e+001 -3.782030e+001 -7.081880e-001 1.668008e+002 -5.385740e-001 1.669069e+002 -1.470270e+001 6.034868e+001
2600000000 -1.515090e+001 -3.815335e+001 -6.775349e-001 1.665455e+002 -5.782614e-001 1.661198e+002 -1.467744e+001 5.980369e+001
2605000000 -1.511088e+001 -3.877000e+001 -6.196461e-001 1.664458e+002 -5.713131e-001 1.660100e+002 -1.460760e+001 5.948008e+001
2610000000 -1.515979e+001 -3.930291e+001 -6.366460e-001 1.661039e+002 -5.496574e-001 1.656334e+002 -1.456165e+001 5.950697e+001
2615000000 -1.510335e+001 -4.062865e+001 -5.894481e-001 1.651991e+002 -5.744511e-001 1.647395e+002 -1.460594e+001 5.877237e+001
2620000000 -1.501992e+001 -4.132217e+001 -5.570546e-001 1.646783e+002 -6.342205e-001 1.645751e+002 -1.456624e+001 5.876654e+001
2625000000 -1.502765e+001 -4.152144e+001 -5.656682e-001 1.644582e+002 -5.763243e-001 1.641333e+002 -1.449403e+001 5.858598e+001
2630000000 -1.511117e+001 -4.242056e+001 -5.854140e-001 1.637931e+002 -6.852999e-001 1.641690e+002 -1.456822e+001 5.842603e+001
2635000000 -1.509462e+001 -4.295001e+001 -6.217605e-001 1.633989e+002 -6.581823e-001 1.637334e+002 -1.448630e+001 5.757589e+001
2640000000 -1.505911e+001 -4.330012e+001 -5.855232e-001 1.629379e+002 -6.757802e-001 1.635884e+002 -1.452314e+001 5.791393e+001
2645000000 -1.504266e+001 -4.454968e+001 -6.547978e-001 1.621932e+002 -6.542168e-001 1.633359e+002 -1.436647e+001 5.727015e+001
2650000000 -1.502490e+001 -4.496472e+001 -6.414329e-001 1.621946e+002 -6.441151e-001 1.631512e+002 -1.439509e+001 5.647699e+001
2655000000 -1.498479e+001 -4.575451e+001 -6.860526e-001 1.616109e+002 -6.320547e-001 1.629268e+002 -1.438044e+001 5.677991e+001
2660000000 -1.492685e+001 -4.677016e+001 -6.763670e-001 1.610952e+002 -5.682828e-001 1.624748e+002 -1.439824e+001 5.681794e+001
2665000000 -1.491200e+001 -4.739023e+001 -7.243103e-001 1.610804e+002 -5.420066e-001 1.622612e+002 -1.439098e+001 5.603667e+001
2670000000 -1.495994e+001 -4.785215e+001 -7.460541e-001 1.609908e+002 -5.438812e-001 1.616785e+002 -1.443459e+001 5.591837e+001
2675000000 -1.488569e+001 -4.899907e+001 -7.014084e-001 1.605009e+002 -5.057788e-001 1.610993e+002 -1.439255e+001 5.554876e+001
2680000000 -1.488957e+001 -4.901838e+001 -6.858950e-001 1.600328e+002 -5.133604e-001 1.603756e+002 -1.438772e+001 5.529272e+001
2685000000 -1.487584e+001 -4.970551e+001 -7.107570e-001 1.602452e+002 -4.908390e-001 1.601309e+002 -1.442063e+001 5.565767e+001
2690000000 -1.482912e+001 -5.073730e+001 -7.334166e-001 1.598661e+002 -4.957382e-001 1.595228e+002 -1.433833e+001 5.504131e+001
2695000000 -1.484987e+001 -5.153965e+001 -6.838168e-001 1.594472e+002 -5.707500e-001 1.589930e+002 -1.439799e+001 5.442540e+001
2700000000 -1.484615e+001 -5.240486e+001 -6.574416e-001 1.589509e+002 -5.400897e-001 1.585430e+002 -1.434628e+001 5.467000e+001
2705000000 -1.478233e+001 -5.334854e+001 -6.627512e-001 1.586750e+002 -5.736372e-001 1.580988e+002 -1.429796e+001 5.427815e+001
2710000000 -1.485619e+001 -5.386372e+001 -6.106035e-001 1.582564e+002 -6.097772e-001 1.578527e+002 -1.429887e+001 5.403079e+001
2715000000 -1.480621e+001 -5.426147e+001 -6.233585e-001 1.576048e+002 -6.936901e-001 1.577705e+002 -1.425506e+001 5.384169e+001
2720000000 -1.478749e+001 -5.557783e+001 -6.179330e-001 1.567778e+002 -6.397836e-001 1.570932e+002 -1.431045e+001 5.344043e+001
2725000000 -1.478623e+001 -5.599677e+001 -6.197932e-001 1.563321e+002 -6.526164e-001 1.569154e+002 -1.420461e+001 5.312088e+001
2730000000 -1.472408e+001 -5.634259e+001 -6.327739e-001 1.561024e+002 -6.334625e-001 1.570689e+002 -1.422655e+001 5.271376e+001
2735000000 -1.471477e+001 -5.692520e+001 -6.945430e-001 1.556218e+002 -6.465464e-001 1.565454e+002 -1.412023e+001 5.237582e+001
2740000000 -1.481131e+001 -5.794492e+001 -7.035473e-001 1.551076e+002 -5.970759e-001 1.562418e+002 -1.420208e+001 5.209728e+001
2745000000 -1.472476e+001 -5.846039e+001 -6.923116e-001 1.549080e+002 -6.112162e-001 1.557983e+002 -1.417717e+001 5.170553e+001
2750000000 -1.472673e+001 -5.923964e+001 -7.710016e-001 1.544872e+002 -5.734531e-001 1.555639e+002 -1.411425e+001 5.094569e+001
2755000000 -1.482557e+001 -6.042584e+001 -8.098789e-001 1.540755e+002 -5.735067e-001 1.551019e+002 -1.415052e+001 5.090170e+001
