!Agilent Technologies,E8364A,US41440144,A.06.04.32
!Agilent E8364A: A.06.04.32
!Date: Tuesday, February 06, 2018 11:12:06
!Correction: S11(Full 2 Port(1,2)) S21(Full 2 Port(1,2)) S12(Full 2 Port(1,2)) S22(Full 2 Port(1,2)) 
!S2P File: Measurements: S11, S21, S12, S22:
# Hz S  dB   R 50
2000000000 -7.277140e+000 1.286395e+002 2.345769e+001 1.283436e+002 -4.131525e+001 -1.389414e+001 -1.714150e+000 1.380777e+001
2005000000 -7.359819e+000 1.276591e+002 2.354438e+001 1.267558e+002 -4.222741e+001 -2.430997e+001 -1.560117e+000 1.332291e+001
2010000000 -7.437510e+000 1.264037e+002 2.359300e+001 1.255681e+002 -4.056649e+001 -2.177055e+001 -1.545246e+000 1.231147e+001
2015000000 -7.480158e+000 1.247187e+002 2.371177e+001 1.241192e+002 -4.337557e+001 3.873774e+000 -1.484328e+000 1.083125e+001
2020000000 -7.633473e+000 1.235206e+002 2.373789e+001 1.227417e+002 -4.603125e+001 -1.818920e+001 -1.362982e+000 1.028366e+001
2025000000 -7.662917e+000 1.222504e+002 2.384432e+001 1.211375e+002 -4.348588e+001 -2.326983e+001 -1.413020e+000 9.089857e+000
2030000000 -7.819458e+000 1.209605e+002 2.394823e+001 1.197904e+002 -4.289933e+001 -1.538718e+001 -1.479413e+000 8.941340e+000
2035000000 -7.843863e+000 1.194453e+002 2.405065e+001 1.184869e+002 -4.521515e+001 1.516838e+001 -1.258053e+000 6.831117e+000
2040000000 -8.045087e+000 1.183628e+002 2.414236e+001 1.167036e+002 -4.229211e+001 -1.697478e+001 -1.524172e+000 6.031856e+000
2045000000 -8.094307e+000 1.174490e+002 2.417442e+001 1.154384e+002 -4.622637e+001 -3.499383e+001 -1.459878e+000 4.336047e+000
2050000000 -8.248587e+000 1.164716e+002 2.422624e+001 1.136672e+002 -4.062823e+001 -3.349548e+001 -1.387654e+000 3.347788e+000
2055000000 -8.374149e+000 1.145379e+002 2.436417e+001 1.121854e+002 -4.177086e+001 -2.247668e+001 -1.379498e+000 9.299007e-001
2060000000 -8.473414e+000 1.133386e+002 2.443532e+001 1.107919e+002 -4.387262e+001 -2.451448e+001 -1.301025e+000 1.219101e+000
2065000000 -8.612508e+000 1.120473e+002 2.449478e+001 1.091937e+002 -4.100582e+001 -2.248919e+001 -1.383434e+000 -3.571028e-002
2070000000 -8.792183e+000 1.112126e+002 2.457304e+001 1.080512e+002 -3.974148e+001 -2.810992e+001 -1.337971e+000 -2.002213e-001
2075000000 -8.883581e+000 1.101816e+002 2.463321e+001 1.065036e+002 -4.054382e+001 -4.307829e+001 -1.393493e+000 -3.202037e+000
2080000000 -8.923632e+000 1.081661e+002 2.472617e+001 1.049834e+002 -4.345405e+001 -2.286996e+001 -1.391160e+000 -3.380984e+000
2085000000 -9.195541e+000 1.071451e+002 2.483554e+001 1.036254e+002 -3.947085e+001 -2.961956e+001 -1.360251e+000 -4.544269e+000
2090000000 -9.320790e+000 1.056981e+002 2.489210e+001 1.019522e+002 -4.128191e+001 -1.094847e+001 -1.433103e+000 -6.579995e+000
2095000000 -9.391059e+000 1.051256e+002 2.501981e+001 1.005228e+002 -4.201440e+001 -4.902836e+001 -1.348588e+000 -8.449087e+000
2100000000 -9.675488e+000 1.039143e+002 2.513456e+001 9.914958e+001 -3.918171e+001 -3.286395e+001 -1.378509e+000 -1.002651e+001
2105000000 -9.908923e+000 1.020531e+002 2.521734e+001 9.762061e+001 -3.889230e+001 -1.587936e+001 -1.284611e+000 -1.059043e+001
2110000000 -9.982502e+000 1.011438e+002 2.525320e+001 9.582748e+001 -4.064342e+001 -3.394725e+001 -1.305729e+000 -1.160805e+001
2115000000 -1.019499e+001 9.990784e+001 2.537714e+001 9.438558e+001 -3.857450e+001 -2.468090e+001 -1.304629e+000 -1.320266e+001
2120000000 -1.038015e+001 9.933548e+001 2.544588e+001 9.252064e+001 -3.769706e+001 -3.598145e+001 -1.274487e+000 -1.417744e+001
2125000000 -1.048560e+001 9.803732e+001 2.552724e+001 9.087482e+001 -3.983977e+001 -4.274834e+001 -1.267302e+000 -1.598443e+001
2130000000 -1.052632e+001 9.713127e+001 2.558665e+001 8.908472e+001 -4.187938e+001 -5.755383e+001 -1.500102e+000 -1.727830e+001
2135000000 -1.083578e+001 9.532164e+001 2.563794e+001 8.716122e+001 -4.090135e+001 -3.458210e+001 -1.436928e+000 -1.805955e+001
2140000000 -1.110096e+001 9.422576e+001 2.572884e+001 8.555158e+001 -3.993463e+001 -2.844248e+001 -1.281172e+000 -1.953034e+001
2145000000 -1.128313e+001 9.448158e+001 2.578041e+001 8.416274e+001 -3.825603e+001 -5.111399e+001 -1.590222e+000 -1.986925e+001
2150000000 -1.137836e+001 9.209431e+001 2.584938e+001 8.233720e+001 -4.193920e+001 -4.724320e+001 -1.509911e+000 -2.363165e+001
2155000000 -1.170516e+001 9.084577e+001 2.591480e+001 8.071886e+001 -4.059830e+001 -3.884662e+001 -1.442763e+000 -2.302662e+001
2160000000 -1.212722e+001 8.994622e+001 2.592697e+001 7.929880e+001 -3.859419e+001 -3.278691e+001 -1.387336e+000 -2.437901e+001
2165000000 -1.216386e+001 8.937814e+001 2.601500e+001 7.777113e+001 -4.000088e+001 -5.361740e+001 -1.369955e+000 -2.591943e+001
2170000000 -1.238668e+001 8.839718e+001 2.610152e+001 7.619147e+001 -4.051759e+001 -5.344416e+001 -1.447242e+000 -2.822511e+001
2175000000 -1.288654e+001 8.730672e+001 2.619449e+001 7.430206e+001 -3.903141e+001 -3.944550e+001 -1.611776e+000 -2.982977e+001
2180000000 -1.304889e+001 8.660108e+001 2.626086e+001 7.267215e+001 -4.026643e+001 -4.429954e+001 -1.529403e+000 -3.132533e+001
2185000000 -1.330776e+001 8.671893e+001 2.631884e+001 7.105643e+001 -3.845689e+001 -5.578538e+001 -1.545473e+000 -3.232421e+001
2190000000 -1.354918e+001 8.465985e+001 2.640435e+001 6.886202e+001 -4.142739e+001 -5.458831e+001 -1.750300e+000 -3.484109e+001
2195000000 -1.378643e+001 8.538020e+001 2.654169e+001 6.766378e+001 -3.896773e+001 -6.324726e+001 -1.717080e+000 -3.555658e+001
2200000000 -1.436812e+001 8.525997e+001 2.658895e+001 6.541004e+001 -3.795013e+001 -4.973990e+001 -1.714847e+000 -3.706314e+001
2205000000 -1.439858e+001 8.412210e+001 2.667681e+001 6.333778e+001 -3.956169e+001 -6.793719e+001 -1.906363e+000 -3.881184e+001
2210000000 -1.479381e+001 8.407922e+001 2.674085e+001 6.156324e+001 -3.888243e+001 -6.792348e+001 -1.860932e+000 -4.010034e+001
2215000000 -1.511846e+001 8.449655e+001 2.674155e+001 5.965219e+001 -3.816508e+001 -6.712295e+001 -1.847038e+000 -4.097691e+001
2220000000 -1.525404e+001 8.317587e+001 2.675200e+001 5.823789e+001 -3.996854e+001 -7.975667e+001 -1.974680e+000 -4.314517e+001
2225000000 -1.585610e+001 8.320988e+001 2.684934e+001 5.617305e+001 -4.010345e+001 -6.161463e+001 -1.932021e+000 -4.504417e+001
2230000000 -1.617549e+001 8.721671e+001 2.691922e+001 5.426533e+001 -3.567983e+001 -6.889794e+001 -2.112442e+000 -4.675862e+001
2235000000 -1.665806e+001 8.531437e+001 2.691788e+001 5.223275e+001 -3.812465e+001 -6.595617e+001 -2.051068e+000 -4.806989e+001
2240000000 -1.709813e+001 8.486924e+001 2.698114e+001 5.040718e+001 -3.988187e+001 -6.695552e+001 -2.065317e+000 -4.959158e+001
2245000000 -1.739709e+001 8.685704e+001 2.702967e+001 4.841418e+001 -3.833086e+001 -7.165961e+001 -2.327815e+000 -5.131850e+001
2250000000 -1.767510e+001 8.725690e+001 2.705785e+001 4.669056e+001 -3.885150e+001 -7.347951e+001 -2.177207e+000 -5.364520e+001
2255000000 -1.812897e+001 8.950407e+001 2.717079e+001 4.459435e+001 -3.812297e+001 -7.140899e+001 -2.462047e+000 -5.595002e+001
2260000000 -1.862417e+001 9.326242e+001 2.720328e+001 4.276493e+001 -3.702958e+001 -6.618960e+001 -2.414454e+000 -5.703349e+001
2265000000 -1.839717e+001 9.412903e+001 2.722950e+001 4.075599e+001 -3.625104e+001 -8.007421e+001 -2.552589e+000 -5.913882e+001
2270000000 -1.927634e+001 9.780633e+001 2.723669e+001 3.868457e+001 -3.737103e+001 -6.576801e+001 -2.402457e+000 -6.004251e+001
2275000000 -1.944403e+001 9.680446e+001 2.723148e+001 3.644128e+001 -3.877770e+001 -7.816501e+001 -2.659599e+000 -6.163755e+001
2280000000 -1.960189e+001 1.012978e+002 2.726690e+001 3.475245e+001 -3.795795e+001 -7.521356e+001 -2.659522e+000 -6.459249e+001
2285000000 -1.963629e+001 1.052308e+002 2.726694e+001 3.252993e+001 -3.722967e+001 -7.462801e+001 -2.816939e+000 -6.510300e+001
2290000000 -2.007470e+001 1.077271e+002 2.733417e+001 3.031633e+001 -3.836434e+001 -7.290175e+001 -2.893013e+000 -6.771658e+001
2295000000 -1.996601e+001 1.094102e+002 2.727810e+001 2.867496e+001 -3.849116e+001 -8.083911e+001 -2.915263e+000 -7.013336e+001
2300000000 -1.970846e+001 1.113613e+002 2.728214e+001 2.635365e+001 -3.724522e+001 -8.910712e+001 -3.207578e+000 -7.125890e+001
2305000000 -1.934663e+001 1.156634e+002 2.733010e+001 2.443863e+001 -3.585068e+001 -8.438633e+001 -3.296913e+000 -7.336340e+001
2310000000 -1.972231e+001 1.191900e+002 2.723314e+001 2.273374e+001 -3.811834e+001 -8.441689e+001 -3.212980e+000 -7.509608e+001
2315000000 -1.932655e+001 1.190590e+002 2.725536e+001 2.063902e+001 -3.707557e+001 -9.467480e+001 -3.352658e+000 -7.738638e+001
2320000000 -1.918883e+001 1.239274e+002 2.724751e+001 1.874403e+001 -3.730792e+001 -8.452417e+001 -3.558652e+000 -7.908624e+001
2325000000 -1.904241e+001 1.276448e+002 2.729295e+001 1.676165e+001 -3.848828e+001 -7.727111e+001 -3.615543e+000 -8.159078e+001
2330000000 -1.863993e+001 1.284832e+002 2.719861e+001 1.507485e+001 -3.776927e+001 -8.197179e+001 -3.788190e+000 -8.319879e+001
2335000000 -1.873549e+001 1.273661e+002 2.718377e+001 1.270073e+001 -3.876343e+001 -1.018977e+002 -3.876312e+000 -8.406076e+001
2340000000 -1.801222e+001 1.301147e+002 2.718592e+001 1.025619e+001 -3.774762e+001 -8.889244e+001 -3.922010e+000 -8.716806e+001
2345000000 -1.817886e+001 1.326530e+002 2.713828e+001 7.945737e+000 -4.049088e+001 -9.538023e+001 -4.046153e+000 -8.915911e+001
2350000000 -1.756757e+001 1.316514e+002 2.708040e+001 6.118824e+000 -3.829658e+001 -9.706292e+001 -4.304531e+000 -9.020995e+001
2355000000 -1.742099e+001 1.306195e+002 2.710406e+001 4.401698e+000 -3.756091e+001 -1.112547e+002 -4.302303e+000 -9.364730e+001
2360000000 -1.693603e+001 1.309977e+002 2.699406e+001 1.863917e+000 -3.696182e+001 -1.045554e+002 -4.534178e+000 -9.554053e+001
2365000000 -1.667079e+001 1.330499e+002 2.692307e+001 2.164449e-001 -3.871805e+001 -1.000736e+002 -4.390094e+000 -9.759016e+001
2370000000 -1.619621e+001 1.325104e+002 2.681903e+001 -2.002131e+000 -3.761232e+001 -9.611861e+001 -4.652186e+000 -1.003727e+002
2375000000 -1.603634e+001 1.319554e+002 2.677475e+001 -3.692216e+000 -3.766702e+001 -1.064485e+002 -4.697384e+000 -1.019446e+002
2380000000 -1.558469e+001 1.318561e+002 2.667703e+001 -5.918750e+000 -3.789620e+001 -9.689462e+001 -4.993365e+000 -1.043749e+002
2385000000 -1.576192e+001 1.302755e+002 2.658793e+001 -7.534086e+000 -3.726368e+001 -1.216101e+002 -5.161966e+000 -1.068493e+002
2390000000 -1.504670e+001 1.304312e+002 2.649444e+001 -9.414818e+000 -3.699790e+001 -9.986875e+001 -5.398946e+000 -1.095601e+002
2395000000 -1.479918e+001 1.295138e+002 2.639192e+001 -1.131867e+001 -3.692673e+001 -9.996050e+001 -5.327657e+000 -1.116381e+002
2400000000 -1.494205e+001 1.298232e+002 2.629600e+001 -1.344167e+001 -3.896581e+001 -1.289855e+002 -5.587388e+000 -1.125540e+002
2405000000 -1.459201e+001 1.278080e+002 2.618256e+001 -1.509623e+001 -3.752706e+001 -1.195548e+002 -5.643727e+000 -1.172014e+002
2410000000 -1.418118e+001 1.262147e+002 2.611940e+001 -1.673656e+001 -3.643450e+001 -1.081527e+002 -5.891623e+000 -1.184212e+002
2415000000 -1.401742e+001 1.268170e+002 2.605423e+001 -1.850201e+001 -3.885173e+001 -1.088284e+002 -5.795426e+000 -1.204912e+002
2420000000 -1.390435e+001 1.266950e+002 2.596074e+001 -2.027830e+001 -4.006352e+001 -1.195434e+002 -5.913784e+000 -1.258135e+002
2425000000 -1.369120e+001 1.230311e+002 2.574493e+001 -2.189393e+001 -3.670871e+001 -1.151906e+002 -6.296662e+000 -1.273016e+002
2430000000 -1.347489e+001 1.222298e+002 2.564989e+001 -2.380010e+001 -3.803786e+001 -1.127336e+002 -6.154329e+000 -1.295562e+002
2435000000 -1.316737e+001 1.210318e+002 2.553119e+001 -2.561413e+001 -3.889623e+001 -1.077381e+002 -6.500078e+000 -1.332491e+002
2440000000 -1.329618e+001 1.202401e+002 2.541382e+001 -2.722139e+001 -3.986685e+001 -1.272902e+002 -6.315891e+000 -1.373676e+002
2445000000 -1.301666e+001 1.179397e+002 2.522678e+001 -2.851574e+001 -3.819006e+001 -1.193725e+002 -6.306715e+000 -1.389494e+002
2450000000 -1.293932e+001 1.173330e+002 2.502865e+001 -2.955412e+001 -3.949626e+001 -1.260017e+002 -6.833503e+000 -1.417187e+002
2455000000 -1.288925e+001 1.137045e+002 2.487277e+001 -3.109767e+001 -3.684764e+001 -1.279421e+002 -6.679051e+000 -1.442809e+002
2460000000 -1.272875e+001 1.117525e+002 2.476480e+001 -3.232726e+001 -3.591522e+001 -1.201766e+002 -6.782713e+000 -1.483764e+002
2465000000 -1.263430e+001 1.101245e+002 2.457986e+001 -3.330241e+001 -3.712320e+001 -1.267965e+002 -6.922243e+000 -1.524646e+002
2470000000 -1.266187e+001 1.086151e+002 2.440986e+001 -3.416279e+001 -3.768444e+001 -1.375582e+002 -6.695205e+000 -1.549062e+002
2475000000 -1.255615e+001 1.059171e+002 2.422357e+001 -3.528587e+001 -3.682205e+001 -1.254352e+002 -6.940299e+000 -1.591179e+002
2480000000 -1.244894e+001 1.051627e+002 2.402503e+001 -3.601622e+001 -4.003251e+001 -1.233619e+002 -7.030872e+000 -1.607540e+002
2485000000 -1.251671e+001 1.025258e+002 2.382942e+001 -3.683931e+001 -3.795962e+001 -1.332418e+002 -7.195199e+000 -1.653431e+002
2490000000 -1.266243e+001 1.004310e+002 2.370987e+001 -3.727926e+001 -3.756376e+001 -1.537878e+002 -6.933871e+000 -1.680141e+002
2495000000 -1.250672e+001 9.762775e+001 2.350074e+001 -3.751794e+001 -3.784393e+001 -1.326813e+002 -7.202133e+000 -1.726977e+002
2500000000 -1.258713e+001 9.627481e+001 2.334094e+001 -3.782479e+001 -4.015618e+001 -1.488590e+002 -6.907562e+000 -1.757515e+002
2505000000 -1.270095e+001 9.348998e+001 2.317101e+001 -3.766325e+001 -3.955227e+001 -1.510863e+002 -6.865155e+000 -1.797112e+002
2510000000 -1.272334e+001 8.988911e+001 2.309741e+001 -3.730318e+001 -3.878467e+001 -1.476698e+002 -6.658117e+000 1.764557e+002
2515000000 -1.274125e+001 8.656200e+001 2.292666e+001 -3.685316e+001 -3.797007e+001 -1.453937e+002 -6.747173e+000 1.714152e+002
2520000000 -1.298418e+001 8.415310e+001 2.292078e+001 -3.623785e+001 -3.967903e+001 -1.558570e+002 -6.601600e+000 1.688741e+002
2525000000 -1.319611e+001 8.025217e+001 2.288972e+001 -3.484348e+001 -3.784621e+001 -1.539463e+002 -6.542496e+000 1.643370e+002
2530000000 -1.336985e+001 7.752773e+001 2.295447e+001 -3.340708e+001 -4.016961e+001 -1.552834e+002 -6.759762e+000 1.606642e+002
2535000000 -1.338829e+001 7.325517e+001 2.311062e+001 -3.229883e+001 -3.833851e+001 -1.333382e+002 -6.352252e+000 1.550864e+002
2540000000 -1.399922e+001 6.975209e+001 2.324645e+001 -3.097580e+001 -3.968353e+001 -1.595230e+002 -6.392230e+000 1.514825e+002
2545000000 -1.453302e+001 6.515543e+001 2.361696e+001 -3.039548e+001 -3.822031e+001 -1.649234e+002 -6.368645e+000 1.471852e+002
2550000000 -1.500591e+001 6.056849e+001 2.398662e+001 -2.970606e+001 -3.791462e+001 -1.653692e+002 -6.594022e+000 1.414504e+002
2555000000 -1.553002e+001 5.550573e+001 2.437010e+001 -2.952206e+001 -3.706335e+001 -1.583554e+002 -6.176531e+000 1.360613e+002
2560000000 -1.651689e+001 5.255525e+001 2.475850e+001 -3.024300e+001 -3.995277e+001 -1.700973e+002 -6.278950e+000 1.320743e+002
2565000000 -1.751320e+001 4.596674e+001 2.522801e+001 -3.118820e+001 -3.768073e+001 -1.747574e+002 -6.358247e+000 1.279835e+002
2570000000 -1.845768e+001 4.195149e+001 2.569493e+001 -3.227004e+001 -3.874889e+001 -1.662509e+002 -5.927415e+000 1.224105e+002
2575000000 -2.006847e+001 3.649178e+001 2.609607e+001 -3.438581e+001 -3.857339e+001 -1.734066e+002 -6.203510e+000 1.174747e+002
2580000000 -2.178642e+001 3.561123e+001 2.648059e+001 -3.653541e+001 -4.042418e+001 -1.646388e+002 -6.164886e+000 1.131330e+002
2585000000 -2.402521e+001 2.532994e+001 2.683101e+001 -3.886079e+001 -3.750823e+001 -1.738045e+002 -6.434009e+000 1.075439e+002
2590000000 -2.716361e+001 2.543776e+001 2.708822e+001 -4.150669e+001 -3.937134e+001 -1.655199e+002 -6.347354e+000 1.044484e+002
2595000000 -3.161868e+001 3.085341e+001 2.739089e+001 -4.418712e+001 -4.051464e+001 -1.623097e+002 -6.416799e+000 9.944367e+001
2600000000 -4.418718e+001 1.031449e+002 2.764215e+001 -4.704717e+001 -4.145449e+001 1.796720e+002 -6.682152e+000 9.552926e+001
2605000000 -3.364491e+001 1.594588e+002 2.778947e+001 -5.020625e+001 -4.344734e+001 -1.758124e+002 -6.769367e+000 9.190992e+001
2610000000 -2.769967e+001 -1.797605e+002 2.793271e+001 -5.289936e+001 -4.048410e+001 1.645552e+002 -6.986595e+000 8.810896e+001
2615000000 -2.526914e+001 1.717527e+002 2.808200e+001 -5.624830e+001 -4.298181e+001 -1.799131e+002 -7.303279e+000 8.596368e+001
2620000000 -2.280114e+001 1.747327e+002 2.814748e+001 -5.896860e+001 -4.052119e+001 1.701744e+002 -7.446527e+000 8.197991e+001
2625000000 -2.120914e+001 1.680009e+002 2.823603e+001 -6.202357e+001 -4.336274e+001 1.798493e+002 -7.540405e+000 7.968105e+001
2630000000 -2.043991e+001 1.677904e+002 2.827114e+001 -6.471648e+001 -4.053092e+001 -1.725629e+002 -7.544292e+000 7.702192e+001
2635000000 -1.868435e+001 1.649903e+002 2.828501e+001 -6.766988e+001 -4.161275e+001 1.664656e+002 -7.865857e+000 7.423758e+001
2640000000 -1.782493e+001 1.578962e+002 2.829109e+001 -7.112323e+001 -4.638949e+001 1.727032e+002 -7.875499e+000 7.314285e+001
2645000000 -1.700904e+001 1.574372e+002 2.826876e+001 -7.399517e+001 -4.378030e+001 1.609205e+002 -8.076077e+000 7.125807e+001
2650000000 -1.624385e+001 1.522546e+002 2.824916e+001 -7.660423e+001 -4.938753e+001 1.625682e+002 -8.002890e+000 7.075558e+001
2655000000 -1.587252e+001 1.510042e+002 2.819289e+001 -7.920501e+001 -4.621985e+001 1.760738e+002 -8.600316e+000 6.733155e+001
2660000000 -1.514736e+001 1.501996e+002 2.811877e+001 -8.175594e+001 -4.332684e+001 1.500389e+002 -8.678412e+000 6.719281e+001
2665000000 -1.518508e+001 1.479259e+002 2.803904e+001 -8.415331e+001 -4.255658e+001 -1.761849e+002 -8.508009e+000 6.479157e+001
2670000000 -1.436370e+001 1.441945e+002 2.795789e+001 -8.674240e+001 -4.591614e+001 1.406170e+002 -8.785485e+000 6.494919e+001
2675000000 -1.447894e+001 1.436183e+002 2.788791e+001 -8.901480e+001 -4.308105e+001 1.798106e+002 -8.555187e+000 6.168190e+001
2680000000 -1.420200e+001 1.405156e+002 2.779001e+001 -9.111094e+001 -4.545983e+001 -1.670654e+002 -8.857751e+000 6.087798e+001
2685000000 -1.377922e+001 1.365626e+002 2.774780e+001 -9.333400e+001 -5.458207e+001 -1.555394e+002 -8.982593e+000 6.054758e+001
2690000000 -1.367574e+001 1.351444e+002 2.762051e+001 -9.550146e+001 -5.052336e+001 -1.607783e+002 -8.928113e+000 5.987033e+001
2695000000 -1.329280e+001 1.364938e+002 2.755817e+001 -9.771779e+001 -4.335566e+001 1.663324e+002 -8.942021e+000 5.996750e+001
2700000000 -1.323580e+001 1.330058e+002 2.745876e+001 -9.991737e+001 -4.829738e+001 -1.759070e+002 -8.987732e+000 5.823539e+001
2705000000 -1.312897e+001 1.317980e+002 2.739453e+001 -1.020613e+002 -4.572329e+001 -1.664924e+002 -8.769382e+000 5.728624e+001
2710000000 -1.284256e+001 1.314652e+002 2.734769e+001 -1.037048e+002 -4.460060e+001 1.732046e+002 -8.977202e+000 5.682731e+001
2715000000 -1.278847e+001 1.277156e+002 2.718942e+001 -1.057375e+002 -5.423955e+001 -1.604420e+002 -8.891371e+000 5.639000e+001
2720000000 -1.275851e+001 1.274295e+002 2.711419e+001 -1.082366e+002 -4.640413e+001 -1.671894e+002 -9.060673e+000 5.457303e+001
2725000000 -1.247052e+001 1.254378e+002 2.708397e+001 -1.103210e+002 -5.111628e+001 1.590629e+002 -9.023357e+000 5.607706e+001
2730000000 -1.256121e+001 1.238327e+002 2.695495e+001 -1.122215e+002 -4.982970e+001 -1.364052e+002 -8.627856e+000 5.505024e+001
2735000000 -1.245753e+001 1.239558e+002 2.682013e+001 -1.138068e+002 -4.469716e+001 -1.623117e+002 -8.780005e+000 5.133414e+001
2740000000 -1.242926e+001 1.238054e+002 2.677555e+001 -1.159411e+002 -4.185970e+001 -1.619364e+002 -8.714252e+000 5.047923e+001
2745000000 -1.217236e+001 1.205021e+002 2.663457e+001 -1.177920e+002 -5.317508e+001 -1.748029e+002 -8.734394e+000 5.216324e+001
2750000000 -1.195295e+001 1.204296e+002 2.656705e+001 -1.194617e+002 -4.648735e+001 1.583621e+002 -8.594957e+000 5.115170e+001
2755000000 -1.213560e+001 1.178100e+002 2.644051e+001 -1.215968e+002 -5.192653e+001 -1.389303e+002 -8.726353e+000 5.041433e+001
