!Agilent Technologies,E8364A,US41440144,A.06.04.32
!Agilent E8364A: A.06.04.32
!Date: Friday, February 02, 2018 15:59:56
!Correction: S11(Full 2 Port(1,2)) S21(Full 2 Port(1,2)) S12(Full 2 Port(1,2)) S22(Full 2 Port(1,2)) 
!S2P File: Measurements: S11, S21, S12, S22:
# Hz S  dB   R 50
2000000000 -3.103593e+000 -3.923059e+001 2.640568e+001 5.404947e+001 -4.240371e+001 -8.617566e+001 -2.783299e+000 5.185145e+000
2005000000 -3.116672e+000 -4.057320e+001 2.646981e+001 5.236805e+001 -4.430761e+001 -8.686368e+001 -2.608023e+000 3.351524e+000
2010000000 -3.059583e+000 -4.240161e+001 2.654245e+001 5.068770e+001 -4.334927e+001 -5.965105e+001 -2.584453e+000 1.794588e+000
2015000000 -3.030373e+000 -4.344827e+001 2.667316e+001 4.943752e+001 -4.624274e+001 -4.641232e+001 -2.631063e+000 1.147746e+000
2020000000 -3.109060e+000 -4.458136e+001 2.669660e+001 4.809402e+001 -4.447571e+001 -6.661206e+001 -2.477721e+000 2.868857e-001
2025000000 -3.105666e+000 -4.601085e+001 2.676064e+001 4.653816e+001 -4.529834e+001 -5.724409e+001 -2.598181e+000 -1.756147e+000
2030000000 -3.260945e+000 -4.724409e+001 2.681956e+001 4.463132e+001 -4.148692e+001 -9.403819e+001 -2.616968e+000 -2.481171e+000
2035000000 -3.138766e+000 -4.855545e+001 2.691458e+001 4.315806e+001 -4.611039e+001 -9.240342e+001 -2.406312e+000 -5.030805e+000
2040000000 -3.206409e+000 -5.014671e+001 2.699402e+001 4.150256e+001 -4.278466e+001 -6.651803e+001 -2.662972e+000 -5.817144e+000
2045000000 -3.252558e+000 -5.165541e+001 2.705458e+001 3.986329e+001 -3.976929e+001 -7.506542e+001 -2.697885e+000 -6.917706e+000
2050000000 -3.158266e+000 -5.316806e+001 2.710500e+001 3.785939e+001 -4.355979e+001 -5.301159e+001 -2.524352e+000 -8.942385e+000
2055000000 -3.229291e+000 -5.420421e+001 2.716466e+001 3.674089e+001 -4.308713e+001 -6.596346e+001 -2.717553e+000 -1.096960e+001
2060000000 -3.239724e+000 -5.545035e+001 2.723252e+001 3.495499e+001 -4.618676e+001 -8.552282e+001 -2.657865e+000 -1.236756e+001
2065000000 -3.363451e+000 -5.709015e+001 2.725432e+001 3.322952e+001 -3.899358e+001 -8.115289e+001 -2.674824e+000 -1.315924e+001
2070000000 -3.319133e+000 -5.838623e+001 2.730079e+001 3.162664e+001 -4.242116e+001 -7.836780e+001 -2.698589e+000 -1.419041e+001
2075000000 -3.411443e+000 -5.967461e+001 2.735343e+001 3.013688e+001 -3.946310e+001 -8.396250e+001 -2.756246e+000 -1.639719e+001
2080000000 -3.359880e+000 -6.096646e+001 2.735309e+001 2.823917e+001 -4.445697e+001 -9.022063e+001 -2.864228e+000 -1.795764e+001
2085000000 -3.465124e+000 -6.238067e+001 2.742521e+001 2.690327e+001 -4.151418e+001 -7.896753e+001 -2.844147e+000 -1.929711e+001
2090000000 -3.398989e+000 -6.371088e+001 2.748367e+001 2.508686e+001 -4.322372e+001 -6.651830e+001 -2.778249e+000 -2.055387e+001
2095000000 -3.468175e+000 -6.478670e+001 2.759280e+001 2.359460e+001 -4.197073e+001 -9.688166e+001 -2.785778e+000 -2.263883e+001
2100000000 -3.525371e+000 -6.637022e+001 2.765788e+001 2.193402e+001 -4.132423e+001 -8.261529e+001 -2.862350e+000 -2.475852e+001
2105000000 -3.452343e+000 -6.770784e+001 2.775522e+001 2.046608e+001 -4.530844e+001 -6.565990e+001 -2.936409e+000 -2.475172e+001
2110000000 -3.509717e+000 -6.844910e+001 2.772453e+001 1.854206e+001 -4.453368e+001 -1.048893e+002 -2.867697e+000 -2.694190e+001
2115000000 -3.540635e+000 -7.028580e+001 2.778231e+001 1.684126e+001 -4.496260e+001 -8.506555e+001 -2.881953e+000 -2.908502e+001
2120000000 -3.584916e+000 -7.102852e+001 2.781428e+001 1.482111e+001 -4.306879e+001 -1.078437e+002 -3.101604e+000 -3.014978e+001
2125000000 -3.638313e+000 -7.270067e+001 2.788323e+001 1.330064e+001 -4.264998e+001 -9.656879e+001 -3.108279e+000 -3.295192e+001
2130000000 -3.747813e+000 -7.438133e+001 2.787055e+001 1.112295e+001 -4.175085e+001 -8.704293e+001 -3.194607e+000 -3.394555e+001
2135000000 -3.675916e+000 -7.549072e+001 2.790900e+001 9.743357e+000 -4.269689e+001 -8.887817e+001 -3.214905e+000 -3.595839e+001
2140000000 -3.745252e+000 -7.714065e+001 2.795741e+001 7.705071e+000 -4.130640e+001 -8.788902e+001 -3.311188e+000 -3.794530e+001
2145000000 -3.810303e+000 -7.823408e+001 2.794614e+001 6.220680e+000 -4.103532e+001 -9.607774e+001 -3.165278e+000 -3.750348e+001
2150000000 -3.788959e+000 -7.940240e+001 2.797257e+001 4.313929e+000 -4.280724e+001 -1.053403e+002 -3.034303e+000 -3.979121e+001
2155000000 -3.939010e+000 -8.083379e+001 2.805561e+001 2.823170e+000 -3.887252e+001 -9.701701e+001 -3.687580e+000 -4.176556e+001
2160000000 -3.908939e+000 -8.281305e+001 2.807108e+001 1.141164e+000 -4.055213e+001 -8.176254e+001 -3.482067e+000 -4.551268e+001
2165000000 -3.947087e+000 -8.337466e+001 2.808957e+001 -5.435205e-001 -4.241236e+001 -1.169144e+002 -3.653897e+000 -4.453006e+001
2170000000 -4.024659e+000 -8.421308e+001 2.815321e+001 -2.300830e+000 -3.960508e+001 -1.230384e+002 -3.921525e+000 -4.722309e+001
2175000000 -3.983018e+000 -8.642526e+001 2.822823e+001 -4.298562e+000 -4.504368e+001 -1.047633e+002 -3.778194e+000 -4.750362e+001
2180000000 -4.114608e+000 -8.746999e+001 2.822598e+001 -6.185014e+000 -4.076446e+001 -1.055536e+002 -3.875179e+000 -4.971160e+001
2185000000 -4.110839e+000 -8.824156e+001 2.825373e+001 -7.767910e+000 -4.160446e+001 -1.298904e+002 -3.920662e+000 -5.083390e+001
2190000000 -4.175328e+000 -8.966940e+001 2.829068e+001 -1.017190e+001 -4.084806e+001 -1.234363e+002 -4.018018e+000 -5.429974e+001
2195000000 -4.197030e+000 -9.127963e+001 2.835728e+001 -1.171727e+001 -4.270372e+001 -1.242273e+002 -4.047758e+000 -5.462427e+001
2200000000 -4.292201e+000 -9.281710e+001 2.831856e+001 -1.380628e+001 -4.304334e+001 -9.957118e+001 -4.246807e+000 -5.722936e+001
2205000000 -4.348064e+000 -9.326350e+001 2.837432e+001 -1.599743e+001 -3.872702e+001 -1.250102e+002 -4.230169e+000 -5.942944e+001
2210000000 -4.328551e+000 -9.459492e+001 2.839557e+001 -1.764132e+001 -4.328236e+001 -1.331984e+002 -4.371911e+000 -6.149777e+001
2215000000 -4.551523e+000 -9.645310e+001 2.831913e+001 -1.980058e+001 -4.010008e+001 -1.071834e+002 -4.558392e+000 -6.267300e+001
2220000000 -4.522015e+000 -9.720012e+001 2.827350e+001 -2.136853e+001 -4.044313e+001 -1.306807e+002 -4.595437e+000 -6.449258e+001
2225000000 -4.634985e+000 -9.820081e+001 2.830132e+001 -2.330988e+001 -3.921835e+001 -1.214853e+002 -4.662140e+000 -6.727637e+001
2230000000 -4.695286e+000 -9.994707e+001 2.832343e+001 -2.537224e+001 -3.938707e+001 -1.071535e+002 -4.821984e+000 -6.839005e+001
2235000000 -4.768907e+000 -1.006183e+002 2.826679e+001 -2.748622e+001 -3.763419e+001 -1.148921e+002 -5.089316e+000 -7.062666e+001
2240000000 -4.761241e+000 -1.021611e+002 2.827708e+001 -2.924703e+001 -4.125017e+001 -1.200656e+002 -5.061979e+000 -7.332484e+001
2245000000 -4.812290e+000 -1.034281e+002 2.830261e+001 -3.141751e+001 -4.040449e+001 -1.175945e+002 -5.198550e+000 -7.500607e+001
2250000000 -4.830950e+000 -1.050917e+002 2.822338e+001 -3.332933e+001 -4.148439e+001 -1.198946e+002 -5.008965e+000 -7.693456e+001
2255000000 -4.854861e+000 -1.060739e+002 2.825778e+001 -3.518424e+001 -4.374020e+001 -1.227924e+002 -5.541261e+000 -8.029535e+001
2260000000 -4.966448e+000 -1.071519e+002 2.829893e+001 -3.699319e+001 -4.116862e+001 -1.135436e+002 -5.511929e+000 -8.197109e+001
2265000000 -5.025905e+000 -1.079506e+002 2.821186e+001 -3.888744e+001 -4.176987e+001 -1.342218e+002 -5.624219e+000 -8.462038e+001
2270000000 -5.055043e+000 -1.095347e+002 2.817713e+001 -4.107339e+001 -4.337623e+001 -1.216230e+002 -5.696852e+000 -8.613884e+001
2275000000 -5.137134e+000 -1.098193e+002 2.814017e+001 -4.303423e+001 -4.006512e+001 -1.381765e+002 -5.975813e+000 -8.779578e+001
2280000000 -5.224065e+000 -1.109446e+002 2.804230e+001 -4.465860e+001 -4.077140e+001 -1.309337e+002 -5.997733e+000 -9.091767e+001
2285000000 -5.307465e+000 -1.129050e+002 2.799017e+001 -4.692831e+001 -4.377198e+001 -1.190474e+002 -6.205541e+000 -9.371339e+001
2290000000 -5.268932e+000 -1.137273e+002 2.800723e+001 -4.874298e+001 -4.402608e+001 -1.344749e+002 -6.142589e+000 -9.602739e+001
2295000000 -5.436913e+000 -1.141988e+002 2.790685e+001 -5.065099e+001 -4.004532e+001 -1.235266e+002 -6.606638e+000 -9.803984e+001
2300000000 -5.508586e+000 -1.149771e+002 2.786485e+001 -5.243505e+001 -3.962781e+001 -1.257506e+002 -6.778277e+000 -1.007858e+002
2305000000 -5.467465e+000 -1.154644e+002 2.785480e+001 -5.431536e+001 -3.835575e+001 -1.399849e+002 -6.702684e+000 -1.019454e+002
2310000000 -5.514753e+000 -1.168998e+002 2.769602e+001 -5.615246e+001 -3.967345e+001 -1.494702e+002 -6.643312e+000 -1.038854e+002
2315000000 -5.657236e+000 -1.172595e+002 2.759945e+001 -5.805951e+001 -3.785756e+001 -1.430730e+002 -6.705379e+000 -1.077934e+002
2320000000 -5.696089e+000 -1.185548e+002 2.757742e+001 -5.981282e+001 -4.060524e+001 -1.380315e+002 -7.029634e+000 -1.111951e+002
2325000000 -5.605934e+000 -1.202337e+002 2.755009e+001 -6.176064e+001 -4.233055e+001 -1.665041e+002 -6.888210e+000 -1.142017e+002
2330000000 -5.824095e+000 -1.210214e+002 2.745490e+001 -6.328793e+001 -4.220018e+001 -1.299290e+002 -7.252897e+000 -1.170760e+002
2335000000 -5.750270e+000 -1.215229e+002 2.739721e+001 -6.532610e+001 -4.005237e+001 -1.507732e+002 -7.328669e+000 -1.179991e+002
2340000000 -5.883340e+000 -1.228838e+002 2.728386e+001 -6.794791e+001 -4.113664e+001 -1.449156e+002 -7.421858e+000 -1.211347e+002
2345000000 -5.812559e+000 -1.231095e+002 2.722237e+001 -6.975016e+001 -3.885765e+001 -1.577900e+002 -7.556453e+000 -1.250802e+002
2350000000 -6.051501e+000 -1.241957e+002 2.706705e+001 -7.124828e+001 -4.075283e+001 -1.296734e+002 -8.025205e+000 -1.272380e+002
2355000000 -5.999108e+000 -1.249169e+002 2.701852e+001 -7.287045e+001 -3.958414e+001 -1.487440e+002 -7.849938e+000 -1.319330e+002
2360000000 -6.132736e+000 -1.260068e+002 2.684012e+001 -7.498186e+001 -4.184543e+001 -1.364905e+002 -8.001036e+000 -1.337657e+002
2365000000 -6.165951e+000 -1.271602e+002 2.673421e+001 -7.686324e+001 -4.369079e+001 -1.363617e+002 -7.884709e+000 -1.371815e+002
2370000000 -6.131520e+000 -1.276563e+002 2.659550e+001 -7.845325e+001 -4.201407e+001 -1.568209e+002 -8.262644e+000 -1.402249e+002
2375000000 -6.237908e+000 -1.281783e+002 2.647496e+001 -8.002071e+001 -4.126844e+001 -1.456931e+002 -8.265413e+000 -1.430384e+002
2380000000 -6.204873e+000 -1.293745e+002 2.637233e+001 -8.144604e+001 -4.254193e+001 -1.767637e+002 -8.063334e+000 -1.479561e+002
2385000000 -6.255594e+000 -1.295598e+002 2.624581e+001 -8.316730e+001 -4.018988e+001 -1.591876e+002 -8.635233e+000 -1.489133e+002
2390000000 -6.364413e+000 -1.304729e+002 2.609080e+001 -8.477752e+001 -4.199978e+001 -1.548951e+002 -8.480301e+000 -1.530509e+002
2395000000 -6.372838e+000 -1.311066e+002 2.597039e+001 -8.665102e+001 -4.204911e+001 -1.512209e+002 -8.377877e+000 -1.561509e+002
2400000000 -6.371918e+000 -1.322453e+002 2.580724e+001 -8.844395e+001 -4.185345e+001 -1.757382e+002 -8.648777e+000 -1.593517e+002
2405000000 -6.373806e+000 -1.324782e+002 2.565389e+001 -8.980608e+001 -4.055618e+001 -1.681119e+002 -8.447933e+000 -1.638282e+002
2410000000 -6.464148e+000 -1.328153e+002 2.554680e+001 -9.110807e+001 -4.029001e+001 -1.515013e+002 -8.750482e+000 -1.652732e+002
2415000000 -6.450157e+000 -1.344724e+002 2.541193e+001 -9.307556e+001 -4.251661e+001 -1.780404e+002 -8.533817e+000 -1.683449e+002
2420000000 -6.511208e+000 -1.347712e+002 2.526974e+001 -9.432679e+001 -4.552688e+001 -1.648774e+002 -8.434817e+000 -1.742430e+002
2425000000 -6.485659e+000 -1.348685e+002 2.504147e+001 -9.559509e+001 -4.050945e+001 -1.611220e+002 -8.675460e+000 -1.772748e+002
2430000000 -6.491980e+000 -1.356283e+002 2.487437e+001 -9.720182e+001 -4.130243e+001 -1.644047e+002 -8.464070e+000 -1.782775e+002
2435000000 -6.459284e+000 -1.366410e+002 2.470995e+001 -9.864243e+001 -4.044450e+001 1.730660e+002 -8.441217e+000 1.768447e+002
2440000000 -6.551358e+000 -1.367249e+002 2.451285e+001 -9.972027e+001 -4.211500e+001 -1.662963e+002 -8.170826e+000 1.729378e+002
2445000000 -6.501195e+000 -1.366644e+002 2.428023e+001 -1.011059e+002 -3.838691e+001 -1.623425e+002 -8.149241e+000 1.702682e+002
2450000000 -6.530312e+000 -1.382999e+002 2.403438e+001 -1.017268e+002 -4.127365e+001 1.675708e+002 -8.406120e+000 1.684806e+002
2455000000 -6.585186e+000 -1.385462e+002 2.383112e+001 -1.027834e+002 -4.080830e+001 1.734054e+002 -7.964138e+000 1.656388e+002
2460000000 -6.620858e+000 -1.382669e+002 2.367265e+001 -1.037913e+002 -4.093170e+001 -1.551713e+002 -8.056119e+000 1.605234e+002
2465000000 -6.602132e+000 -1.388140e+002 2.344102e+001 -1.039617e+002 -4.152160e+001 -1.679176e+002 -7.679460e+000 1.573728e+002
2470000000 -6.492950e+000 -1.390728e+002 2.326115e+001 -1.045905e+002 -3.861918e+001 -1.735418e+002 -7.347065e+000 1.558693e+002
2475000000 -6.547354e+000 -1.397104e+002 2.304514e+001 -1.053043e+002 -4.160049e+001 -1.714811e+002 -7.312948e+000 1.518294e+002
2480000000 -6.515775e+000 -1.402240e+002 2.282376e+001 -1.057241e+002 -4.186628e+001 1.737473e+002 -7.038303e+000 1.493605e+002
2485000000 -6.521408e+000 -1.401296e+002 2.251826e+001 -1.063771e+002 -4.070364e+001 -1.633120e+002 -7.060528e+000 1.439228e+002
2490000000 -6.432615e+000 -1.407078e+002 2.233596e+001 -1.060543e+002 -4.123410e+001 1.756380e+002 -6.816793e+000 1.425406e+002
2495000000 -6.448071e+000 -1.409355e+002 2.211591e+001 -1.060395e+002 -4.060720e+001 -1.754050e+002 -6.672796e+000 1.398077e+002
2500000000 -6.369687e+000 -1.413483e+002 2.183174e+001 -1.060140e+002 -4.114845e+001 -1.672864e+002 -6.455023e+000 1.377349e+002
2505000000 -6.285204e+000 -1.421716e+002 2.165902e+001 -1.054078e+002 -4.291425e+001 1.749400e+002 -6.048694e+000 1.334060e+002
2510000000 -6.252284e+000 -1.419155e+002 2.152640e+001 -1.040530e+002 -4.120546e+001 -1.768047e+002 -5.993430e+000 1.318674e+002
2515000000 -6.106781e+000 -1.423579e+002 2.132245e+001 -1.028086e+002 -4.228443e+001 1.750640e+002 -5.613837e+000 1.280283e+002
2520000000 -6.080849e+000 -1.431121e+002 2.125060e+001 -1.017460e+002 -4.521700e+001 1.592614e+002 -5.460773e+000 1.251471e+002
2525000000 -5.925784e+000 -1.433104e+002 2.115312e+001 -9.983023e+001 -3.953901e+001 1.682346e+002 -5.288009e+000 1.221461e+002
2530000000 -5.752842e+000 -1.437335e+002 2.124227e+001 -9.771082e+001 -3.948435e+001 1.590594e+002 -5.124657e+000 1.192372e+002
2535000000 -5.681021e+000 -1.436078e+002 2.131498e+001 -9.550375e+001 -3.991668e+001 -1.795114e+002 -4.975554e+000 1.141462e+002
2540000000 -5.528992e+000 -1.445992e+002 2.149127e+001 -9.377343e+001 -4.236927e+001 1.615182e+002 -4.634394e+000 1.127985e+002
2545000000 -5.403166e+000 -1.452304e+002 2.183154e+001 -9.254495e+001 -4.119862e+001 1.648136e+002 -4.547889e+000 1.095168e+002
2550000000 -5.253703e+000 -1.455984e+002 2.219120e+001 -9.123756e+001 -4.021638e+001 1.794574e+002 -4.315525e+000 1.043945e+002
2555000000 -4.999922e+000 -1.465579e+002 2.265375e+001 -9.011547e+001 -4.202973e+001 1.610627e+002 -4.177989e+000 1.023505e+002
2560000000 -4.912432e+000 -1.479646e+002 2.302949e+001 -9.020495e+001 -4.375246e+001 1.452220e+002 -4.104345e+000 9.860823e+001
2565000000 -4.696693e+000 -1.486826e+002 2.349012e+001 -9.016203e+001 -4.224977e+001 1.643055e+002 -3.976972e+000 9.428901e+001
2570000000 -4.488480e+000 -1.493857e+002 2.395742e+001 -9.049065e+001 -3.878542e+001 1.714902e+002 -3.809057e+000 8.959217e+001
2575000000 -4.320903e+000 -1.510770e+002 2.441588e+001 -9.225629e+001 -3.921040e+001 1.645303e+002 -3.829235e+000 8.708615e+001
2580000000 -4.241942e+000 -1.530741e+002 2.485167e+001 -9.375388e+001 -4.375703e+001 1.535767e+002 -3.732493e+000 8.356708e+001
2585000000 -4.037209e+000 -1.543160e+002 2.525871e+001 -9.556609e+001 -4.015308e+001 1.561068e+002 -3.743942e+000 7.968782e+001
2590000000 -3.962434e+000 -1.562567e+002 2.555897e+001 -9.777367e+001 -4.333051e+001 1.514283e+002 -3.582185e+000 7.617335e+001
2595000000 -3.851535e+000 -1.577810e+002 2.592116e+001 -9.992940e+001 -4.172637e+001 1.544677e+002 -3.697807e+000 7.254422e+001
2600000000 -3.722638e+000 -1.603499e+002 2.625640e+001 -1.027395e+002 -4.167105e+001 1.236802e+002 -3.810547e+000 6.921999e+001
2605000000 -3.650565e+000 -1.616966e+002 2.648435e+001 -1.053671e+002 -4.165156e+001 1.419726e+002 -3.773791e+000 6.690563e+001
2610000000 -3.587889e+000 -1.635662e+002 2.673821e+001 -1.077880e+002 -4.198823e+001 1.232633e+002 -3.844294e+000 6.385992e+001
2615000000 -3.612223e+000 -1.650890e+002 2.695914e+001 -1.109749e+002 -4.649425e+001 1.447782e+002 -4.098554e+000 6.097687e+001
2620000000 -3.570167e+000 -1.667233e+002 2.708760e+001 -1.138311e+002 -4.518098e+001 1.527614e+002 -3.986394e+000 5.799175e+001
2625000000 -3.482173e+000 -1.693722e+002 2.724043e+001 -1.169035e+002 -4.097205e+001 1.161704e+002 -4.433487e+000 5.609438e+001
2630000000 -3.562205e+000 -1.701338e+002 2.731130e+001 -1.195400e+002 -4.462851e+001 1.550980e+002 -4.407128e+000 5.292325e+001
2635000000 -3.586810e+000 -1.718507e+002 2.739405e+001 -1.224788e+002 -4.533222e+001 1.414672e+002 -4.800158e+000 5.043906e+001
2640000000 -3.638556e+000 -1.738363e+002 2.743886e+001 -1.256234e+002 -4.569670e+001 1.241755e+002 -4.927684e+000 5.040716e+001
2645000000 -3.682334e+000 -1.754122e+002 2.745355e+001 -1.287434e+002 -4.644548e+001 1.245016e+002 -5.106600e+000 4.875013e+001
2650000000 -3.624476e+000 -1.767050e+002 2.748145e+001 -1.312634e+002 -4.627581e+001 1.372242e+002 -5.260626e+000 4.628715e+001
2655000000 -3.774511e+000 -1.783766e+002 2.740642e+001 -1.343951e+002 -5.013022e+001 1.106948e+002 -5.424944e+000 4.582915e+001
2660000000 -3.737680e+000 -1.795608e+002 2.742421e+001 -1.365962e+002 -4.739439e+001 1.275308e+002 -5.483508e+000 4.457634e+001
2665000000 -3.756349e+000 1.789748e+002 2.735680e+001 -1.388881e+002 -4.361617e+001 1.219655e+002 -5.780414e+000 4.471782e+001
2670000000 -3.815891e+000 1.776307e+002 2.726585e+001 -1.416951e+002 -4.479456e+001 1.300930e+002 -6.085845e+000 4.350564e+001
2675000000 -3.853023e+000 1.763486e+002 2.725253e+001 -1.440513e+002 -4.458777e+001 1.208648e+002 -6.001478e+000 4.325573e+001
2680000000 -3.881011e+000 1.758062e+002 2.721486e+001 -1.461272e+002 -4.856163e+001 1.467900e+002 -6.404936e+000 4.160425e+001
2685000000 -4.020463e+000 1.749899e+002 2.712345e+001 -1.480358e+002 -5.390891e+001 1.328295e+002 -6.416588e+000 3.977158e+001
2690000000 -4.054933e+000 1.730310e+002 2.702328e+001 -1.503229e+002 -4.689054e+001 1.027394e+002 -6.471548e+000 4.009618e+001
2695000000 -3.990073e+000 1.721952e+002 2.698024e+001 -1.528435e+002 -4.568237e+001 1.424992e+002 -6.550016e+000 4.050792e+001
2700000000 -4.104596e+000 1.715344e+002 2.687206e+001 -1.549035e+002 -5.184061e+001 1.459165e+002 -6.571311e+000 3.882605e+001
2705000000 -4.078421e+000 1.704434e+002 2.684147e+001 -1.568353e+002 -4.715580e+001 1.573657e+002 -6.777074e+000 3.872572e+001
2710000000 -4.120033e+000 1.693385e+002 2.679926e+001 -1.584524e+002 -4.476213e+001 1.351392e+002 -6.924809e+000 3.830057e+001
2715000000 -4.222603e+000 1.681113e+002 2.667680e+001 -1.606968e+002 -4.730514e+001 1.173554e+002 -6.926192e+000 3.838274e+001
2720000000 -4.161364e+000 1.678238e+002 2.662121e+001 -1.628143e+002 -4.621005e+001 1.568755e+002 -7.079222e+000 3.765018e+001
2725000000 -4.253183e+000 1.669641e+002 2.655426e+001 -1.648169e+002 -4.928763e+001 1.402068e+002 -7.049902e+000 3.881277e+001
2730000000 -4.194186e+000 1.659560e+002 2.647465e+001 -1.668686e+002 -4.576663e+001 1.584087e+002 -7.119120e+000 3.720062e+001
2735000000 -4.311214e+000 1.651859e+002 2.634194e+001 -1.685245e+002 -5.513415e+001 1.799907e+002 -7.086370e+000 3.534528e+001
2740000000 -4.186129e+000 1.643867e+002 2.628824e+001 -1.703198e+002 -4.363173e+001 1.733567e+002 -7.129251e+000 3.511357e+001
2745000000 -4.369155e+000 1.633080e+002 2.616190e+001 -1.723854e+002 -5.746574e+001 1.233426e+002 -7.193047e+000 3.609983e+001
2750000000 -4.411355e+000 1.618995e+002 2.607631e+001 -1.738953e+002 -4.622878e+001 9.400446e+001 -6.990676e+000 3.619456e+001
