!Agilent Technologies,E8364A,US41440144,A.06.04.32
!Agilent E8364A: A.06.04.32
!Date: Monday, February 05, 2018 12:07:58
!Correction: S11(Full 2 Port(1,2)) S21(Full 2 Port(1,2)) S12(Full 2 Port(1,2)) S22(Full 2 Port(1,2)) 
!S2P File: Measurements: S11, S21, S12, S22:
# Hz S  dB   R 50
2000000000 -1.594572e+001 1.137450e+002 -4.718568e-001 -1.161379e+002 -2.502902e-001 -1.156768e+002 -1.675091e+001 1.002854e+002
2005000000 -1.593677e+001 1.131202e+002 -4.451523e-001 -1.162220e+002 -1.675321e-001 -1.161336e+002 -1.667595e+001 9.908306e+001
2010000000 -1.587842e+001 1.127893e+002 -4.219540e-001 -1.166425e+002 -2.208952e-001 -1.164682e+002 -1.679643e+001 9.874316e+001
2015000000 -1.587511e+001 1.124490e+002 -4.020437e-001 -1.169020e+002 -2.227630e-001 -1.167455e+002 -1.677816e+001 9.865025e+001
2020000000 -1.597843e+001 1.120511e+002 -4.082042e-001 -1.169150e+002 -1.943305e-001 -1.173083e+002 -1.673885e+001 9.802639e+001
2025000000 -1.586684e+001 1.112214e+002 -3.974691e-001 -1.174464e+002 -2.398848e-001 -1.179987e+002 -1.687874e+001 9.754765e+001
2030000000 -1.593148e+001 1.102298e+002 -4.064598e-001 -1.179416e+002 -2.479305e-001 -1.178615e+002 -1.680639e+001 9.686957e+001
2035000000 -1.592325e+001 1.104578e+002 -3.755108e-001 -1.180134e+002 -2.192021e-001 -1.182752e+002 -1.684300e+001 9.566298e+001
2040000000 -1.601951e+001 1.099714e+002 -3.963796e-001 -1.186482e+002 -2.979805e-001 -1.186938e+002 -1.678554e+001 9.538071e+001
2045000000 -1.601955e+001 1.094758e+002 -4.051800e-001 -1.190745e+002 -2.663809e-001 -1.188581e+002 -1.686264e+001 9.542270e+001
2050000000 -1.595657e+001 1.095892e+002 -3.837197e-001 -1.192602e+002 -3.683076e-001 -1.190246e+002 -1.695968e+001 9.456919e+001
2055000000 -1.607225e+001 1.089712e+002 -4.198335e-001 -1.196402e+002 -3.130233e-001 -1.194743e+002 -1.685411e+001 9.350628e+001
2060000000 -1.606922e+001 1.088473e+002 -4.761976e-001 -1.200218e+002 -3.270477e-001 -1.197411e+002 -1.691441e+001 9.271727e+001
2065000000 -1.604535e+001 1.087279e+002 -4.559916e-001 -1.201249e+002 -3.245162e-001 -1.197698e+002 -1.686445e+001 9.331349e+001
2070000000 -1.600928e+001 1.080593e+002 -4.554474e-001 -1.203792e+002 -3.647892e-001 -1.196507e+002 -1.698540e+001 9.285063e+001
2075000000 -1.615722e+001 1.083499e+002 -5.278229e-001 -1.206896e+002 -3.505721e-001 -1.197603e+002 -1.701262e+001 9.153833e+001
2080000000 -1.621533e+001 1.075129e+002 -4.991071e-001 -1.205887e+002 -3.329347e-001 -1.199217e+002 -1.706224e+001 9.133440e+001
2085000000 -1.621302e+001 1.077931e+002 -5.160072e-001 -1.207627e+002 -2.787965e-001 -1.204689e+002 -1.710539e+001 9.058349e+001
2090000000 -1.614563e+001 1.070764e+002 -4.534526e-001 -1.212182e+002 -2.346826e-001 -1.206128e+002 -1.723883e+001 9.060372e+001
2095000000 -1.618912e+001 1.063792e+002 -4.739847e-001 -1.210646e+002 -2.084354e-001 -1.206789e+002 -1.714161e+001 9.085487e+001
2100000000 -1.617993e+001 1.063657e+002 -4.525280e-001 -1.213936e+002 -1.995350e-001 -1.210571e+002 -1.711384e+001 9.033281e+001
2105000000 -1.614316e+001 1.063596e+002 -4.275616e-001 -1.214404e+002 -2.131026e-001 -1.217681e+002 -1.721533e+001 9.000789e+001
2110000000 -1.618438e+001 1.058629e+002 -3.828763e-001 -1.218376e+002 -2.135547e-001 -1.222023e+002 -1.718937e+001 8.908286e+001
2115000000 -1.612922e+001 1.054496e+002 -3.919848e-001 -1.223319e+002 -1.384389e-001 -1.223945e+002 -1.715919e+001 8.900983e+001
2120000000 -1.625372e+001 1.047481e+002 -4.040385e-001 -1.225946e+002 -1.424754e-001 -1.231732e+002 -1.716384e+001 8.830865e+001
2125000000 -1.613931e+001 1.044691e+002 -3.561862e-001 -1.231533e+002 -1.875642e-001 -1.236191e+002 -1.717496e+001 8.671851e+001
2130000000 -1.612243e+001 1.040862e+002 -3.196136e-001 -1.232686e+002 -1.558337e-001 -1.240056e+002 -1.718516e+001 8.705801e+001
2135000000 -1.621747e+001 1.023879e+002 -3.552352e-001 -1.241659e+002 -2.200137e-001 -1.243250e+002 -1.721555e+001 8.736594e+001
2140000000 -1.623939e+001 1.029463e+002 -3.876655e-001 -1.246040e+002 -2.618080e-001 -1.245490e+002 -1.723219e+001 8.717824e+001
2145000000 -1.630227e+001 1.023559e+002 -3.875983e-001 -1.249033e+002 -3.375854e-001 -1.245902e+002 -1.716783e+001 8.649319e+001
2150000000 -1.633449e+001 1.025829e+002 -4.503050e-001 -1.251641e+002 -3.274681e-001 -1.251596e+002 -1.715862e+001 8.572554e+001
2155000000 -1.629232e+001 1.018869e+002 -4.381748e-001 -1.252249e+002 -3.540015e-001 -1.253548e+002 -1.716424e+001 8.551133e+001
2160000000 -1.620835e+001 1.010929e+002 -4.899963e-001 -1.256291e+002 -3.496714e-001 -1.252554e+002 -1.714922e+001 8.416386e+001
2165000000 -1.632508e+001 1.010965e+002 -4.629616e-001 -1.257238e+002 -3.707884e-001 -1.255244e+002 -1.719357e+001 8.439834e+001
2170000000 -1.623448e+001 1.007744e+002 -4.691244e-001 -1.256407e+002 -3.484636e-001 -1.254488e+002 -1.724112e+001 8.360262e+001
2175000000 -1.628310e+001 1.003399e+002 -4.711937e-001 -1.261026e+002 -3.207951e-001 -1.257935e+002 -1.723696e+001 8.304635e+001
2180000000 -1.635450e+001 1.006404e+002 -4.930220e-001 -1.258917e+002 -3.158290e-001 -1.259282e+002 -1.738182e+001 8.240319e+001
2185000000 -1.638619e+001 1.000668e+002 -4.659537e-001 -1.260829e+002 -2.587031e-001 -1.259442e+002 -1.737791e+001 8.185844e+001
2190000000 -1.639260e+001 9.918595e+001 -4.331035e-001 -1.265538e+002 -2.178226e-001 -1.264557e+002 -1.737826e+001 8.149426e+001
2195000000 -1.638870e+001 9.920376e+001 -3.900042e-001 -1.267435e+002 -2.598656e-001 -1.268982e+002 -1.745894e+001 8.125358e+001
2200000000 -1.638714e+001 9.888860e+001 -3.523805e-001 -1.270665e+002 -2.639308e-001 -1.274186e+002 -1.743126e+001 8.082742e+001
2205000000 -1.636828e+001 9.857665e+001 -3.590516e-001 -1.272863e+002 -2.076301e-001 -1.276982e+002 -1.751268e+001 8.107632e+001
2210000000 -1.642370e+001 9.775460e+001 -3.618226e-001 -1.281007e+002 -2.082534e-001 -1.281791e+002 -1.751760e+001 8.029092e+001
2215000000 -1.642664e+001 9.741570e+001 -3.398665e-001 -1.286491e+002 -2.296934e-001 -1.283331e+002 -1.757236e+001 8.014722e+001
2220000000 -1.646264e+001 9.742109e+001 -3.636813e-001 -1.286841e+002 -2.380293e-001 -1.287225e+002 -1.755524e+001 7.997633e+001
2225000000 -1.650042e+001 9.684790e+001 -3.438434e-001 -1.291129e+002 -2.627861e-001 -1.289209e+002 -1.752498e+001 7.967915e+001
2230000000 -1.646891e+001 9.641035e+001 -3.503190e-001 -1.294798e+002 -2.665422e-001 -1.296617e+002 -1.754462e+001 7.878312e+001
2235000000 -1.654639e+001 9.623547e+001 -3.972124e-001 -1.298569e+002 -3.237998e-001 -1.296416e+002 -1.760826e+001 7.866188e+001
2240000000 -1.645694e+001 9.631089e+001 -4.447982e-001 -1.301032e+002 -3.190666e-001 -1.300304e+002 -1.744888e+001 7.772533e+001
2245000000 -1.648162e+001 9.589008e+001 -4.767134e-001 -1.301514e+002 -3.394581e-001 -1.295796e+002 -1.767026e+001 7.781853e+001
2250000000 -1.656612e+001 9.548797e+001 -4.461727e-001 -1.303350e+002 -3.152414e-001 -1.300914e+002 -1.758946e+001 7.720818e+001
2255000000 -1.647519e+001 9.470316e+001 -4.228591e-001 -1.304841e+002 -3.023463e-001 -1.307289e+002 -1.761415e+001 7.659711e+001
2260000000 -1.657259e+001 9.423685e+001 -4.864626e-001 -1.308967e+002 -3.215527e-001 -1.308894e+002 -1.756696e+001 7.606602e+001
2265000000 -1.651459e+001 9.428995e+001 -4.293544e-001 -1.311174e+002 -2.694720e-001 -1.308405e+002 -1.764606e+001 7.581149e+001
2270000000 -1.656865e+001 9.407742e+001 -4.252455e-001 -1.313104e+002 -2.566628e-001 -1.311566e+002 -1.773340e+001 7.556075e+001
2275000000 -1.659435e+001 9.320133e+001 -4.596654e-001 -1.315379e+002 -2.211692e-001 -1.314424e+002 -1.768394e+001 7.472529e+001
2280000000 -1.656266e+001 9.259538e+001 -4.243613e-001 -1.318014e+002 -2.113825e-001 -1.320434e+002 -1.763322e+001 7.416730e+001
2285000000 -1.668037e+001 9.251665e+001 -3.958346e-001 -1.321517e+002 -1.914541e-001 -1.325151e+002 -1.765868e+001 7.356168e+001
2290000000 -1.669479e+001 9.237257e+001 -4.058798e-001 -1.325534e+002 -2.014750e-001 -1.325928e+002 -1.774781e+001 7.376950e+001
2295000000 -1.675562e+001 9.156499e+001 -3.708484e-001 -1.330013e+002 -1.922569e-001 -1.332651e+002 -1.769578e+001 7.336270e+001
2300000000 -1.679448e+001 9.111227e+001 -3.965796e-001 -1.331084e+002 -2.265147e-001 -1.335975e+002 -1.781046e+001 7.291073e+001
2305000000 -1.684099e+001 9.153812e+001 -3.904091e-001 -1.338834e+002 -2.648767e-001 -1.340936e+002 -1.793470e+001 7.185640e+001
2310000000 -1.672189e+001 9.131778e+001 -4.124704e-001 -1.339066e+002 -2.496381e-001 -1.340938e+002 -1.778678e+001 7.208234e+001
2315000000 -1.681192e+001 9.071255e+001 -4.328154e-001 -1.341170e+002 -2.968110e-001 -1.342884e+002 -1.780385e+001 7.088146e+001
2320000000 -1.681676e+001 9.065053e+001 -4.372367e-001 -1.346617e+002 -3.237163e-001 -1.348456e+002 -1.788261e+001 7.115677e+001
2325000000 -1.696171e+001 8.979207e+001 -4.757645e-001 -1.350099e+002 -2.935554e-001 -1.347742e+002 -1.795985e+001 7.044350e+001
2330000000 -1.698134e+001 8.954839e+001 -4.536555e-001 -1.348982e+002 -2.772736e-001 -1.351921e+002 -1.794150e+001 7.056649e+001
2335000000 -1.690636e+001 8.884824e+001 -4.782344e-001 -1.351785e+002 -3.196060e-001 -1.350212e+002 -1.790579e+001 6.976685e+001
2340000000 -1.693285e+001 8.888969e+001 -4.549795e-001 -1.352743e+002 -3.077909e-001 -1.353164e+002 -1.802008e+001 6.949986e+001
2345000000 -1.696824e+001 8.844627e+001 -5.033953e-001 -1.354067e+002 -3.175862e-001 -1.356817e+002 -1.797819e+001 6.878411e+001
2350000000 -1.686878e+001 8.718553e+001 -4.352529e-001 -1.355229e+002 -2.402818e-001 -1.357791e+002 -1.798517e+001 6.793032e+001
2355000000 -1.697729e+001 8.776928e+001 -3.971305e-001 -1.359676e+002 -2.668777e-001 -1.360368e+002 -1.800292e+001 6.799622e+001
2360000000 -1.693475e+001 8.692464e+001 -3.445528e-001 -1.363446e+002 -1.982067e-001 -1.367260e+002 -1.806894e+001 6.726952e+001
2365000000 -1.694873e+001 8.695730e+001 -3.354611e-001 -1.364962e+002 -2.412312e-001 -1.369690e+002 -1.803325e+001 6.682745e+001
2370000000 -1.701493e+001 8.580816e+001 -3.593013e-001 -1.369228e+002 -2.403548e-001 -1.373503e+002 -1.808058e+001 6.646791e+001
2375000000 -1.707850e+001 8.554243e+001 -3.330514e-001 -1.375133e+002 -2.106178e-001 -1.375167e+002 -1.802383e+001 6.554585e+001
2380000000 -1.709171e+001 8.564288e+001 -3.167797e-001 -1.380241e+002 -2.767930e-001 -1.380618e+002 -1.811710e+001 6.499565e+001
2385000000 -1.695341e+001 8.514078e+001 -2.933308e-001 -1.383727e+002 -2.099752e-001 -1.384118e+002 -1.818234e+001 6.476424e+001
2390000000 -1.716179e+001 8.466813e+001 -3.647642e-001 -1.389167e+002 -2.860564e-001 -1.387653e+002 -1.817425e+001 6.453737e+001
2395000000 -1.719578e+001 8.439692e+001 -4.135621e-001 -1.393287e+002 -3.122686e-001 -1.390766e+002 -1.818343e+001 6.432997e+001
2400000000 -1.713913e+001 8.365408e+001 -4.065629e-001 -1.394705e+002 -3.037488e-001 -1.393848e+002 -1.814889e+001 6.368479e+001
2405000000 -1.720306e+001 8.386822e+001 -4.051808e-001 -1.395264e+002 -3.556936e-001 -1.393376e+002 -1.847516e+001 6.309286e+001
2410000000 -1.715639e+001 8.352951e+001 -4.371851e-001 -1.400061e+002 -3.072804e-001 -1.396258e+002 -1.823621e+001 6.320288e+001
2415000000 -1.729412e+001 8.290362e+001 -4.551943e-001 -1.402271e+002 -3.671471e-001 -1.395946e+002 -1.836184e+001 6.290049e+001
2420000000 -1.729624e+001 8.268100e+001 -4.456532e-001 -1.401727e+002 -3.051235e-001 -1.402353e+002 -1.834319e+001 6.075338e+001
2425000000 -1.733999e+001 8.206486e+001 -4.454688e-001 -1.403818e+002 -3.165713e-001 -1.401341e+002 -1.829778e+001 6.091509e+001
2430000000 -1.734347e+001 8.216992e+001 -4.543251e-001 -1.406058e+002 -2.615909e-001 -1.399520e+002 -1.836324e+001 6.141643e+001
2435000000 -1.730177e+001 8.124002e+001 -4.426197e-001 -1.408022e+002 -2.664351e-001 -1.405971e+002 -1.850063e+001 6.120592e+001
2440000000 -1.733555e+001 8.093572e+001 -3.795651e-001 -1.408914e+002 -2.030766e-001 -1.407744e+002 -1.835255e+001 6.053979e+001
2445000000 -1.731717e+001 8.109373e+001 -4.393994e-001 -1.414232e+002 -1.780532e-001 -1.408879e+002 -1.843773e+001 6.015798e+001
2450000000 -1.735768e+001 8.058424e+001 -3.890522e-001 -1.413386e+002 -1.679995e-001 -1.415290e+002 -1.851905e+001 6.052341e+001
2455000000 -1.737419e+001 8.007679e+001 -2.925493e-001 -1.419357e+002 -1.460170e-001 -1.424722e+002 -1.839810e+001 5.811240e+001
2460000000 -1.729669e+001 7.988687e+001 -3.009290e-001 -1.423189e+002 -1.995221e-001 -1.425394e+002 -1.844924e+001 5.823210e+001
2465000000 -1.745141e+001 7.880170e+001 -3.250747e-001 -1.431170e+002 -2.176494e-001 -1.430844e+002 -1.860882e+001 5.807703e+001
2470000000 -1.745326e+001 7.918981e+001 -3.399939e-001 -1.430523e+002 -2.259809e-001 -1.436806e+002 -1.854862e+001 5.705418e+001
2475000000 -1.759546e+001 7.826100e+001 -3.480393e-001 -1.436944e+002 -2.435615e-001 -1.440601e+002 -1.861724e+001 5.713028e+001
2480000000 -1.752758e+001 7.796923e+001 -3.622828e-001 -1.440132e+002 -2.917564e-001 -1.444166e+002 -1.854474e+001 5.695167e+001
2485000000 -1.771022e+001 7.783750e+001 -3.497739e-001 -1.441576e+002 -3.167371e-001 -1.444949e+002 -1.870505e+001 5.580192e+001
2490000000 -1.760122e+001 7.755508e+001 -4.055848e-001 -1.447052e+002 -3.447863e-001 -1.449080e+002 -1.871355e+001 5.506449e+001
2495000000 -1.764334e+001 7.731213e+001 -3.957641e-001 -1.451514e+002 -3.196251e-001 -1.444608e+002 -1.867018e+001 5.517246e+001
2500000000 -1.761284e+001 7.701955e+001 -4.649030e-001 -1.447598e+002 -3.401147e-001 -1.450558e+002 -1.878715e+001 5.423395e+001
2505000000 -1.773433e+001 7.647303e+001 -4.332627e-001 -1.455274e+002 -3.334048e-001 -1.448607e+002 -1.868463e+001 5.442051e+001
2510000000 -1.779459e+001 7.606349e+001 -4.701133e-001 -1.455342e+002 -3.079242e-001 -1.450705e+002 -1.883548e+001 5.334797e+001
2515000000 -1.779787e+001 7.650706e+001 -4.533511e-001 -1.455420e+002 -3.176503e-001 -1.451772e+002 -1.889401e+001 5.350468e+001
2520000000 -1.783146e+001 7.545155e+001 -4.568250e-001 -1.458937e+002 -2.919070e-001 -1.458932e+002 -1.893878e+001 5.273811e+001
2525000000 -1.785675e+001 7.470659e+001 -4.383511e-001 -1.459531e+002 -2.652844e-001 -1.458812e+002 -1.896843e+001 5.218745e+001
2530000000 -1.786475e+001 7.458194e+001 -3.874815e-001 -1.463491e+002 -2.167858e-001 -1.463530e+002 -1.898996e+001 5.209834e+001
2535000000 -1.797590e+001 7.460159e+001 -3.881938e-001 -1.464724e+002 -2.769122e-001 -1.465203e+002 -1.902872e+001 5.175908e+001
2540000000 -1.783716e+001 7.381295e+001 -3.722359e-001 -1.470180e+002 -1.881497e-001 -1.468702e+002 -1.896652e+001 5.105077e+001
2545000000 -1.792369e+001 7.337361e+001 -3.677741e-001 -1.475217e+002 -1.813641e-001 -1.475213e+002 -1.915337e+001 5.045181e+001
2550000000 -1.801719e+001 7.296682e+001 -3.656091e-001 -1.477898e+002 -2.005374e-001 -1.479549e+002 -1.900193e+001 5.041284e+001
2555000000 -1.805039e+001 7.225047e+001 -3.219596e-001 -1.483953e+002 -2.672282e-001 -1.481950e+002 -1.910506e+001 4.914091e+001
2560000000 -1.807916e+001 7.206012e+001 -3.703873e-001 -1.484548e+002 -2.258365e-001 -1.486278e+002 -1.907862e+001 4.987008e+001
2565000000 -1.810547e+001 7.234086e+001 -3.738073e-001 -1.488313e+002 -2.742789e-001 -1.488348e+002 -1.916058e+001 4.931823e+001
2570000000 -1.823512e+001 7.154977e+001 -3.997752e-001 -1.493240e+002 -2.919087e-001 -1.496319e+002 -1.918753e+001 4.833989e+001
2575000000 -1.816241e+001 7.153915e+001 -3.846487e-001 -1.495799e+002 -2.937329e-001 -1.493419e+002 -1.921741e+001 4.791862e+001
2580000000 -1.829767e+001 7.100565e+001 -4.426519e-001 -1.499665e+002 -2.758351e-001 -1.495665e+002 -1.915914e+001 4.751196e+001
2585000000 -1.827373e+001 7.109239e+001 -4.485275e-001 -1.496774e+002 -2.610910e-001 -1.500785e+002 -1.922288e+001 4.624580e+001
2590000000 -1.833765e+001 7.082668e+001 -4.652315e-001 -1.500369e+002 -2.825630e-001 -1.498808e+002 -1.921488e+001 4.654853e+001
2595000000 -1.832400e+001 7.063981e+001 -3.716908e-001 -1.502562e+002 -3.218230e-001 -1.502199e+002 -1.930615e+001 4.589170e+001
2600000000 -1.833877e+001 6.925154e+001 -4.357300e-001 -1.507047e+002 -3.002381e-001 -1.507436e+002 -1.945200e+001 4.561310e+001
2605000000 -1.845242e+001 6.933876e+001 -3.614566e-001 -1.505595e+002 -2.608926e-001 -1.505964e+002 -1.934598e+001 4.508972e+001
2610000000 -1.836750e+001 6.849849e+001 -3.618006e-001 -1.510877e+002 -2.598313e-001 -1.509021e+002 -1.943863e+001 4.410699e+001
2615000000 -1.839881e+001 6.867302e+001 -3.514366e-001 -1.516572e+002 -2.502031e-001 -1.517322e+002 -1.948226e+001 4.410285e+001
2620000000 -1.841884e+001 6.796707e+001 -3.360676e-001 -1.520521e+002 -2.358467e-001 -1.517519e+002 -1.951414e+001 4.417601e+001
2625000000 -1.853913e+001 6.771820e+001 -3.609180e-001 -1.525289e+002 -1.971759e-001 -1.522635e+002 -1.949169e+001 4.330559e+001
2630000000 -1.858703e+001 6.783636e+001 -3.346090e-001 -1.526272e+002 -2.478639e-001 -1.523819e+002 -1.957937e+001 4.302188e+001
2635000000 -1.866224e+001 6.709306e+001 -3.773772e-001 -1.531235e+002 -2.185847e-001 -1.529530e+002 -1.959307e+001 4.324899e+001
2640000000 -1.861109e+001 6.723547e+001 -3.022681e-001 -1.532692e+002 -2.758611e-001 -1.531733e+002 -1.962658e+001 4.206869e+001
2645000000 -1.885679e+001 6.611296e+001 -3.872015e-001 -1.540218e+002 -2.612098e-001 -1.533528e+002 -1.957891e+001 4.274530e+001
2650000000 -1.875558e+001 6.615593e+001 -3.680786e-001 -1.538949e+002 -3.366155e-001 -1.535687e+002 -1.973248e+001 4.212581e+001
2655000000 -1.882731e+001 6.612222e+001 -4.114466e-001 -1.543493e+002 -3.057275e-001 -1.541762e+002 -1.978947e+001 4.075013e+001
2660000000 -1.880561e+001 6.623854e+001 -4.108223e-001 -1.548237e+002 -2.797135e-001 -1.544182e+002 -1.969724e+001 4.070145e+001
2665000000 -1.883132e+001 6.569866e+001 -4.434564e-001 -1.545752e+002 -3.261813e-001 -1.544801e+002 -1.978914e+001 4.005861e+001
2670000000 -1.900009e+001 6.500415e+001 -4.234024e-001 -1.549964e+002 -3.601659e-001 -1.547367e+002 -1.983478e+001 3.859375e+001
2675000000 -1.898164e+001 6.429674e+001 -4.216998e-001 -1.554110e+002 -3.230975e-001 -1.548598e+002 -1.990351e+001 3.876299e+001
2680000000 -1.906664e+001 6.433002e+001 -4.202591e-001 -1.556187e+002 -2.991271e-001 -1.550760e+002 -1.994487e+001 3.860902e+001
2685000000 -1.897391e+001 6.400536e+001 -4.142473e-001 -1.556630e+002 -2.687786e-001 -1.552092e+002 -1.997739e+001 3.707655e+001
2690000000 -1.909455e+001 6.419284e+001 -4.296491e-001 -1.557632e+002 -2.783275e-001 -1.555089e+002 -2.007609e+001 3.659665e+001
2695000000 -1.907801e+001 6.336134e+001 -3.839261e-001 -1.561119e+002 -2.821567e-001 -1.557391e+002 -2.011185e+001 3.591735e+001
2700000000 -1.905907e+001 6.243363e+001 -3.894354e-001 -1.565372e+002 -2.380030e-001 -1.563923e+002 -2.019280e+001 3.666262e+001
2705000000 -1.914604e+001 6.236331e+001 -3.688397e-001 -1.567144e+002 -1.988055e-001 -1.569357e+002 -2.026659e+001 3.485194e+001
2710000000 -1.928897e+001 6.215129e+001 -3.163308e-001 -1.568629e+002 -2.671962e-001 -1.571473e+002 -2.040546e+001 3.451944e+001
2715000000 -1.928854e+001 6.111553e+001 -3.221365e-001 -1.576329e+002 -2.768725e-001 -1.571935e+002 -2.046569e+001 3.498565e+001
2720000000 -1.938010e+001 6.047131e+001 -3.453262e-001 -1.581210e+002 -1.907329e-001 -1.576881e+002 -2.040145e+001 3.479924e+001
2725000000 -1.944260e+001 6.020143e+001 -3.730215e-001 -1.583619e+002 -2.267738e-001 -1.583681e+002 -2.047401e+001 3.408213e+001
2730000000 -1.948248e+001 5.998075e+001 -3.813062e-001 -1.585029e+002 -2.605527e-001 -1.583175e+002 -2.051684e+001 3.344550e+001
2735000000 -1.954053e+001 6.035902e+001 -4.077705e-001 -1.588897e+002 -2.850846e-001 -1.586102e+002 -2.042378e+001 3.333353e+001
2740000000 -1.959223e+001 6.050481e+001 -3.686801e-001 -1.594131e+002 -2.295014e-001 -1.589742e+002 -2.053397e+001 3.277045e+001
2745000000 -1.959072e+001 5.997743e+001 -4.393681e-001 -1.594991e+002 -2.969680e-001 -1.595091e+002 -2.052732e+001 3.303050e+001
2750000000 -1.968871e+001 5.939412e+001 -4.632382e-001 -1.599008e+002 -3.253628e-001 -1.593576e+002 -2.055260e+001 3.216967e+001
