!Agilent Technologies,E8364A,US41440144,A.06.04.32
!Agilent E8364A: A.06.04.32
!Date: Monday, February 05, 2018 12:08:47
!Correction: S11(Full 2 Port(1,2)) S21(Full 2 Port(1,2)) S12(Full 2 Port(1,2)) S22(Full 2 Port(1,2)) 
!S2P File: Measurements: S11, S21, S12, S22:
# Hz S  dB   R 50
2000000000 -2.493333e+001 -1.097067e+002 -3.592749e-001 -1.629708e+002 -2.400693e-001 -1.626523e+002 -2.384341e+001 -1.355538e+002
2005000000 -2.492921e+001 -1.092378e+002 -3.599133e-001 -1.636114e+002 -2.235894e-001 -1.630303e+002 -2.362344e+001 -1.359615e+002
2010000000 -2.478134e+001 -1.094608e+002 -3.632271e-001 -1.638148e+002 -2.440663e-001 -1.632659e+002 -2.341061e+001 -1.355533e+002
2015000000 -2.465104e+001 -1.099196e+002 -3.351345e-001 -1.643401e+002 -2.264548e-001 -1.639955e+002 -2.344502e+001 -1.373197e+002
2020000000 -2.437959e+001 -1.095805e+002 -3.296643e-001 -1.646257e+002 -2.424724e-001 -1.643853e+002 -2.334696e+001 -1.378229e+002
2025000000 -2.431737e+001 -1.089679e+002 -3.320978e-001 -1.650742e+002 -2.513547e-001 -1.649065e+002 -2.323387e+001 -1.376237e+002
2030000000 -2.416216e+001 -1.107242e+002 -3.780349e-001 -1.655033e+002 -2.360558e-001 -1.651924e+002 -2.309406e+001 -1.381153e+002
2035000000 -2.418554e+001 -1.111558e+002 -3.184946e-001 -1.658127e+002 -2.334586e-001 -1.655950e+002 -2.295384e+001 -1.394856e+002
2040000000 -2.398785e+001 -1.117803e+002 -3.330639e-001 -1.661683e+002 -2.103288e-001 -1.661523e+002 -2.279871e+001 -1.394693e+002
2045000000 -2.367032e+001 -1.120909e+002 -3.648282e-001 -1.667145e+002 -2.418841e-001 -1.664662e+002 -2.273591e+001 -1.406587e+002
2050000000 -2.360784e+001 -1.135348e+002 -3.512120e-001 -1.671129e+002 -1.970941e-001 -1.667793e+002 -2.264039e+001 -1.410658e+002
2055000000 -2.345888e+001 -1.141360e+002 -3.428250e-001 -1.673958e+002 -1.935700e-001 -1.675021e+002 -2.247913e+001 -1.411075e+002
2060000000 -2.336391e+001 -1.142873e+002 -3.248203e-001 -1.678433e+002 -2.665530e-001 -1.679212e+002 -2.241647e+001 -1.414927e+002
2065000000 -2.333250e+001 -1.151847e+002 -3.262294e-001 -1.681918e+002 -2.682850e-001 -1.684745e+002 -2.237370e+001 -1.420437e+002
2070000000 -2.313644e+001 -1.146049e+002 -3.142876e-001 -1.690503e+002 -2.839973e-001 -1.690476e+002 -2.235236e+001 -1.439775e+002
2075000000 -2.291888e+001 -1.166583e+002 -3.608441e-001 -1.692913e+002 -2.562233e-001 -1.692401e+002 -2.211675e+001 -1.435516e+002
2080000000 -2.288369e+001 -1.161135e+002 -3.377107e-001 -1.696003e+002 -2.998056e-001 -1.696425e+002 -2.195020e+001 -1.446635e+002
2085000000 -2.270201e+001 -1.175943e+002 -3.709033e-001 -1.703100e+002 -2.659526e-001 -1.701766e+002 -2.205182e+001 -1.455370e+002
2090000000 -2.275425e+001 -1.172069e+002 -3.464401e-001 -1.705371e+002 -3.017504e-001 -1.703908e+002 -2.190688e+001 -1.455855e+002
2095000000 -2.267502e+001 -1.182154e+002 -4.250453e-001 -1.709443e+002 -3.265611e-001 -1.703457e+002 -2.171931e+001 -1.459637e+002
2100000000 -2.247588e+001 -1.186937e+002 -3.799179e-001 -1.713986e+002 -3.267262e-001 -1.711621e+002 -2.165943e+001 -1.471114e+002
2105000000 -2.244879e+001 -1.195748e+002 -3.972320e-001 -1.714835e+002 -3.626617e-001 -1.713917e+002 -2.174313e+001 -1.475650e+002
2110000000 -2.217312e+001 -1.200093e+002 -4.074825e-001 -1.720220e+002 -3.945974e-001 -1.716289e+002 -2.174156e+001 -1.482369e+002
2115000000 -2.232579e+001 -1.198997e+002 -3.778952e-001 -1.725283e+002 -3.193523e-001 -1.717713e+002 -2.160740e+001 -1.482470e+002
2120000000 -2.220299e+001 -1.198041e+002 -4.171519e-001 -1.725045e+002 -2.854983e-001 -1.720936e+002 -2.146089e+001 -1.489459e+002
2125000000 -2.206830e+001 -1.205129e+002 -3.852888e-001 -1.729626e+002 -2.750552e-001 -1.724709e+002 -2.132390e+001 -1.487618e+002
2130000000 -2.203783e+001 -1.208399e+002 -3.313721e-001 -1.732669e+002 -2.084404e-001 -1.731559e+002 -2.138498e+001 -1.501147e+002
2135000000 -2.176010e+001 -1.212494e+002 -3.457143e-001 -1.738365e+002 -2.419422e-001 -1.733860e+002 -2.130795e+001 -1.503183e+002
2140000000 -2.173610e+001 -1.218351e+002 -3.566320e-001 -1.743152e+002 -2.467388e-001 -1.738997e+002 -2.131974e+001 -1.508443e+002
2145000000 -2.155982e+001 -1.228660e+002 -3.604024e-001 -1.747621e+002 -2.687919e-001 -1.742639e+002 -2.123000e+001 -1.519222e+002
2150000000 -2.141549e+001 -1.232061e+002 -3.698295e-001 -1.753391e+002 -2.028977e-001 -1.751326e+002 -2.114752e+001 -1.517487e+002
2155000000 -2.141996e+001 -1.235650e+002 -3.514670e-001 -1.755634e+002 -2.320594e-001 -1.756754e+002 -2.100529e+001 -1.528454e+002
2160000000 -2.132902e+001 -1.237460e+002 -3.648382e-001 -1.761251e+002 -2.187693e-001 -1.759413e+002 -2.089494e+001 -1.530429e+002
2165000000 -2.123438e+001 -1.242797e+002 -3.447902e-001 -1.768294e+002 -2.688053e-001 -1.764508e+002 -2.084844e+001 -1.537307e+002
2170000000 -2.116028e+001 -1.242157e+002 -3.987788e-001 -1.770317e+002 -2.724352e-001 -1.768673e+002 -2.075700e+001 -1.540789e+002
2175000000 -2.103959e+001 -1.256643e+002 -3.956773e-001 -1.776517e+002 -2.750154e-001 -1.775040e+002 -2.070889e+001 -1.544787e+002
2180000000 -2.098178e+001 -1.264989e+002 -3.805815e-001 -1.781029e+002 -3.037625e-001 -1.777818e+002 -2.063730e+001 -1.556782e+002
2185000000 -2.086654e+001 -1.269771e+002 -4.191905e-001 -1.782948e+002 -2.996491e-001 -1.782173e+002 -2.050664e+001 -1.557789e+002
2190000000 -2.081323e+001 -1.272389e+002 -4.268382e-001 -1.785800e+002 -3.510645e-001 -1.782977e+002 -2.049359e+001 -1.561929e+002
2195000000 -2.067805e+001 -1.271998e+002 -3.687649e-001 -1.790243e+002 -3.651138e-001 -1.786654e+002 -2.035705e+001 -1.571397e+002
2200000000 -2.060401e+001 -1.282615e+002 -4.113618e-001 -1.791070e+002 -3.433500e-001 -1.791045e+002 -2.026548e+001 -1.577867e+002
2205000000 -2.054919e+001 -1.297387e+002 -4.312417e-001 -1.799680e+002 -3.261577e-001 -1.793813e+002 -2.028941e+001 -1.586018e+002
2210000000 -2.040369e+001 -1.292095e+002 -3.923703e-001 1.799165e+002 -2.629079e-001 -1.796236e+002 -2.020726e+001 -1.589146e+002
2215000000 -2.036456e+001 -1.293925e+002 -3.940478e-001 1.795047e+002 -2.895232e-001 -1.799756e+002 -2.004298e+001 -1.596495e+002
2220000000 -2.027257e+001 -1.302161e+002 -4.006618e-001 1.790789e+002 -2.735951e-001 1.794713e+002 -2.005647e+001 -1.604338e+002
2225000000 -2.020221e+001 -1.305107e+002 -3.437371e-001 1.786685e+002 -2.945624e-001 1.793968e+002 -2.004312e+001 -1.609474e+002
2230000000 -2.018492e+001 -1.308763e+002 -3.323217e-001 1.783359e+002 -2.776901e-001 1.783173e+002 -1.999373e+001 -1.616328e+002
2235000000 -2.003601e+001 -1.315901e+002 -3.716564e-001 1.781735e+002 -2.645186e-001 1.781506e+002 -1.986258e+001 -1.618715e+002
2240000000 -1.992663e+001 -1.319376e+002 -3.840225e-001 1.772625e+002 -3.048228e-001 1.775966e+002 -1.988421e+001 -1.624945e+002
2245000000 -1.984307e+001 -1.323543e+002 -3.930996e-001 1.769165e+002 -3.282031e-001 1.774825e+002 -1.984962e+001 -1.624873e+002
2250000000 -1.978166e+001 -1.329187e+002 -3.406953e-001 1.763988e+002 -3.141781e-001 1.765651e+002 -1.983872e+001 -1.636363e+002
2255000000 -1.974002e+001 -1.332661e+002 -3.814090e-001 1.760235e+002 -3.039566e-001 1.757784e+002 -1.962485e+001 -1.638766e+002
2260000000 -1.962997e+001 -1.340302e+002 -4.168287e-001 1.753803e+002 -3.383930e-001 1.755300e+002 -1.961749e+001 -1.641082e+002
2265000000 -1.952833e+001 -1.341141e+002 -4.136217e-001 1.749812e+002 -3.165470e-001 1.756158e+002 -1.958419e+001 -1.650110e+002
2270000000 -1.949872e+001 -1.352293e+002 -4.090553e-001 1.746396e+002 -3.357334e-001 1.753413e+002 -1.943956e+001 -1.653948e+002
2275000000 -1.924405e+001 -1.354348e+002 -4.693945e-001 1.743254e+002 -3.259057e-001 1.747765e+002 -1.942690e+001 -1.658768e+002
2280000000 -1.930288e+001 -1.356608e+002 -4.366011e-001 1.742367e+002 -3.424320e-001 1.742472e+002 -1.928216e+001 -1.660456e+002
2285000000 -1.923496e+001 -1.360721e+002 -4.192546e-001 1.737202e+002 -3.339926e-001 1.740523e+002 -1.932975e+001 -1.660837e+002
2290000000 -1.921893e+001 -1.365910e+002 -4.432362e-001 1.734003e+002 -3.303762e-001 1.739678e+002 -1.924041e+001 -1.674046e+002
2295000000 -1.905319e+001 -1.369352e+002 -4.329104e-001 1.730404e+002 -3.025098e-001 1.732740e+002 -1.915100e+001 -1.679483e+002
2300000000 -1.906818e+001 -1.379302e+002 -4.171843e-001 1.725044e+002 -3.341868e-001 1.731894e+002 -1.900666e+001 -1.683250e+002
2305000000 -1.894767e+001 -1.383580e+002 -3.808967e-001 1.719587e+002 -2.745077e-001 1.723524e+002 -1.903556e+001 -1.695059e+002
2310000000 -1.887840e+001 -1.382343e+002 -3.812254e-001 1.719365e+002 -2.423616e-001 1.723759e+002 -1.895858e+001 -1.694212e+002
2315000000 -1.871782e+001 -1.392933e+002 -3.951403e-001 1.711642e+002 -2.728400e-001 1.716829e+002 -1.886045e+001 -1.706593e+002
2320000000 -1.871025e+001 -1.399957e+002 -3.879486e-001 1.704684e+002 -2.779029e-001 1.711024e+002 -1.885858e+001 -1.708670e+002
2325000000 -1.863209e+001 -1.404633e+002 -3.893749e-001 1.700017e+002 -3.196882e-001 1.705238e+002 -1.886923e+001 -1.719905e+002
2330000000 -1.860093e+001 -1.411672e+002 -3.440627e-001 1.697769e+002 -2.400034e-001 1.698651e+002 -1.868281e+001 -1.726620e+002
2335000000 -1.851611e+001 -1.410596e+002 -4.009772e-001 1.693880e+002 -3.138328e-001 1.696453e+002 -1.871338e+001 -1.729266e+002
2340000000 -1.847104e+001 -1.416455e+002 -4.217816e-001 1.691260e+002 -3.064573e-001 1.691773e+002 -1.868689e+001 -1.731697e+002
2345000000 -1.845556e+001 -1.420661e+002 -4.894528e-001 1.686056e+002 -3.598814e-001 1.687940e+002 -1.862360e+001 -1.736573e+002
2350000000 -1.823986e+001 -1.419232e+002 -4.815404e-001 1.683549e+002 -3.583359e-001 1.685223e+002 -1.848532e+001 -1.743070e+002
2355000000 -1.824857e+001 -1.427759e+002 -4.641555e-001 1.678097e+002 -3.539374e-001 1.683385e+002 -1.854021e+001 -1.742515e+002
2360000000 -1.824012e+001 -1.438101e+002 -4.390679e-001 1.672686e+002 -3.313141e-001 1.678857e+002 -1.843151e+001 -1.751643e+002
2365000000 -1.819535e+001 -1.443637e+002 -4.700068e-001 1.674031e+002 -3.627474e-001 1.675369e+002 -1.839643e+001 -1.762923e+002
2370000000 -1.816484e+001 -1.448040e+002 -4.831935e-001 1.670055e+002 -3.240193e-001 1.675060e+002 -1.830601e+001 -1.760159e+002
2375000000 -1.809352e+001 -1.451123e+002 -4.636980e-001 1.664098e+002 -3.438220e-001 1.672194e+002 -1.829645e+001 -1.766353e+002
2380000000 -1.801982e+001 -1.454484e+002 -4.011006e-001 1.663311e+002 -3.410636e-001 1.665127e+002 -1.817836e+001 -1.775101e+002
2385000000 -1.781199e+001 -1.460755e+002 -4.102235e-001 1.660107e+002 -2.621177e-001 1.660211e+002 -1.814783e+001 -1.783462e+002
2390000000 -1.774044e+001 -1.464890e+002 -3.654273e-001 1.654550e+002 -2.804551e-001 1.653333e+002 -1.806262e+001 -1.793551e+002
2395000000 -1.767889e+001 -1.472242e+002 -4.191595e-001 1.646620e+002 -2.197639e-001 1.651151e+002 -1.796611e+001 -1.791890e+002
2400000000 -1.766020e+001 -1.474846e+002 -3.919842e-001 1.645954e+002 -2.643034e-001 1.642617e+002 -1.802932e+001 1.796062e+002
2405000000 -1.759660e+001 -1.481236e+002 -3.717263e-001 1.638999e+002 -3.108617e-001 1.638860e+002 -1.801325e+001 1.791808e+002
2410000000 -1.752302e+001 -1.488031e+002 -3.755067e-001 1.633856e+002 -2.768008e-001 1.631614e+002 -1.788510e+001 1.788679e+002
2415000000 -1.752283e+001 -1.490729e+002 -3.835295e-001 1.627691e+002 -3.391889e-001 1.626723e+002 -1.783537e+001 1.777579e+002
2420000000 -1.742915e+001 -1.495737e+002 -4.040433e-001 1.622371e+002 -3.437780e-001 1.621970e+002 -1.786060e+001 1.774777e+002
2425000000 -1.737624e+001 -1.501091e+002 -4.155027e-001 1.617722e+002 -3.954110e-001 1.620105e+002 -1.776603e+001 1.770999e+002
2430000000 -1.731664e+001 -1.509126e+002 -4.544999e-001 1.613370e+002 -3.722673e-001 1.618108e+002 -1.771975e+001 1.761934e+002
2435000000 -1.716899e+001 -1.511820e+002 -4.817508e-001 1.608678e+002 -4.304824e-001 1.613820e+002 -1.769909e+001 1.762066e+002
2440000000 -1.720129e+001 -1.513004e+002 -5.019123e-001 1.610475e+002 -4.380659e-001 1.610694e+002 -1.766563e+001 1.752270e+002
2445000000 -1.711326e+001 -1.523019e+002 -5.612369e-001 1.603662e+002 -4.262959e-001 1.612765e+002 -1.756075e+001 1.747435e+002
2450000000 -1.706798e+001 -1.532489e+002 -5.401272e-001 1.602611e+002 -4.573382e-001 1.611107e+002 -1.761032e+001 1.741880e+002
2455000000 -1.708080e+001 -1.529044e+002 -4.792341e-001 1.600175e+002 -3.587865e-001 1.608144e+002 -1.744571e+001 1.735280e+002
2460000000 -1.699693e+001 -1.536384e+002 -4.855661e-001 1.596339e+002 -3.789459e-001 1.604345e+002 -1.744118e+001 1.733170e+002
2465000000 -1.692035e+001 -1.534641e+002 -5.037214e-001 1.592240e+002 -3.066646e-001 1.601899e+002 -1.736098e+001 1.725969e+002
2470000000 -1.693264e+001 -1.536035e+002 -4.813199e-001 1.588928e+002 -3.104949e-001 1.594082e+002 -1.731704e+001 1.721204e+002
2475000000 -1.674903e+001 -1.545242e+002 -4.352461e-001 1.587702e+002 -2.619781e-001 1.589834e+002 -1.727870e+001 1.717750e+002
2480000000 -1.667318e+001 -1.549633e+002 -4.166733e-001 1.580022e+002 -2.337108e-001 1.582480e+002 -1.716030e+001 1.711905e+002
2485000000 -1.660972e+001 -1.556201e+002 -3.601907e-001 1.577222e+002 -2.303396e-001 1.579160e+002 -1.713245e+001 1.704792e+002
2490000000 -1.657381e+001 -1.561217e+002 -3.765120e-001 1.568470e+002 -2.438266e-001 1.569993e+002 -1.711237e+001 1.693043e+002
2495000000 -1.652762e+001 -1.568114e+002 -3.720266e-001 1.563161e+002 -2.798897e-001 1.567157e+002 -1.709859e+001 1.686536e+002
2500000000 -1.645959e+001 -1.578053e+002 -4.509443e-001 1.558210e+002 -2.389878e-001 1.558457e+002 -1.706967e+001 1.679830e+002
2505000000 -1.651532e+001 -1.576737e+002 -4.229890e-001 1.550716e+002 -2.822935e-001 1.555495e+002 -1.698492e+001 1.677403e+002
2510000000 -1.641116e+001 -1.585703e+002 -4.555833e-001 1.546574e+002 -2.808654e-001 1.550744e+002 -1.690204e+001 1.673082e+002
2515000000 -1.633757e+001 -1.582937e+002 -4.412530e-001 1.544990e+002 -3.549576e-001 1.543307e+002 -1.689121e+001 1.661492e+002
2520000000 -1.634506e+001 -1.589677e+002 -4.933274e-001 1.536852e+002 -3.821169e-001 1.541199e+002 -1.688452e+001 1.662473e+002
2525000000 -1.629229e+001 -1.595021e+002 -4.771425e-001 1.537170e+002 -4.087613e-001 1.536610e+002 -1.690144e+001 1.652857e+002
2530000000 -1.624077e+001 -1.602250e+002 -5.170959e-001 1.534245e+002 -4.220245e-001 1.536354e+002 -1.681519e+001 1.647012e+002
2535000000 -1.617529e+001 -1.608203e+002 -5.197978e-001 1.533675e+002 -4.504754e-001 1.533068e+002 -1.679223e+001 1.638624e+002
2540000000 -1.614038e+001 -1.609490e+002 -5.135233e-001 1.528085e+002 -4.626800e-001 1.535099e+002 -1.678111e+001 1.639536e+002
2545000000 -1.608319e+001 -1.617172e+002 -5.284961e-001 1.523012e+002 -3.944326e-001 1.532679e+002 -1.662868e+001 1.631741e+002
2550000000 -1.603265e+001 -1.621550e+002 -4.665402e-001 1.521082e+002 -3.360504e-001 1.528928e+002 -1.658685e+001 1.628848e+002
2555000000 -1.597485e+001 -1.628342e+002 -4.534508e-001 1.516683e+002 -3.600444e-001 1.524757e+002 -1.658645e+001 1.618206e+002
2560000000 -1.584473e+001 -1.632842e+002 -4.643657e-001 1.514036e+002 -3.804968e-001 1.517472e+002 -1.649505e+001 1.610860e+002
2565000000 -1.588694e+001 -1.633443e+002 -4.764501e-001 1.509652e+002 -3.467652e-001 1.514099e+002 -1.658772e+001 1.606199e+002
2570000000 -1.581007e+001 -1.643108e+002 -4.506901e-001 1.504785e+002 -3.441361e-001 1.508487e+002 -1.646101e+001 1.601854e+002
2575000000 -1.573507e+001 -1.641771e+002 -4.634445e-001 1.498982e+002 -3.079580e-001 1.501538e+002 -1.640964e+001 1.591196e+002
2580000000 -1.577382e+001 -1.650675e+002 -4.799693e-001 1.492899e+002 -2.726033e-001 1.499881e+002 -1.635308e+001 1.593166e+002
2585000000 -1.566439e+001 -1.659039e+002 -5.045649e-001 1.489809e+002 -2.939609e-001 1.491361e+002 -1.630931e+001 1.580608e+002
2590000000 -1.562560e+001 -1.659491e+002 -4.865984e-001 1.484914e+002 -3.463412e-001 1.490770e+002 -1.626608e+001 1.579942e+002
2595000000 -1.557268e+001 -1.665220e+002 -4.741833e-001 1.480889e+002 -3.503346e-001 1.481349e+002 -1.620568e+001 1.571982e+002
2600000000 -1.550788e+001 -1.673740e+002 -5.382659e-001 1.475067e+002 -4.104104e-001 1.474865e+002 -1.626616e+001 1.567639e+002
2605000000 -1.559542e+001 -1.672935e+002 -5.161368e-001 1.475043e+002 -4.090819e-001 1.476888e+002 -1.616027e+001 1.562642e+002
2610000000 -1.545104e+001 -1.686375e+002 -5.350495e-001 1.473753e+002 -4.454280e-001 1.475610e+002 -1.614458e+001 1.551486e+002
2615000000 -1.529979e+001 -1.681260e+002 -4.696239e-001 1.468764e+002 -4.102798e-001 1.468720e+002 -1.611294e+001 1.549149e+002
2620000000 -1.535297e+001 -1.687977e+002 -5.363507e-001 1.466537e+002 -4.242368e-001 1.468585e+002 -1.602176e+001 1.542942e+002
2625000000 -1.532754e+001 -1.692279e+002 -4.984949e-001 1.461394e+002 -3.655425e-001 1.465256e+002 -1.597320e+001 1.539842e+002
2630000000 -1.526783e+001 -1.694582e+002 -4.835787e-001 1.461408e+002 -3.947253e-001 1.463838e+002 -1.597401e+001 1.531542e+002
2635000000 -1.522204e+001 -1.700362e+002 -4.797140e-001 1.458394e+002 -3.415459e-001 1.457088e+002 -1.599444e+001 1.525004e+002
2640000000 -1.522052e+001 -1.703992e+002 -4.177606e-001 1.451846e+002 -3.610786e-001 1.452032e+002 -1.586416e+001 1.518585e+002
2645000000 -1.508458e+001 -1.710935e+002 -4.240997e-001 1.446973e+002 -3.264180e-001 1.448570e+002 -1.588726e+001 1.517790e+002
2650000000 -1.510115e+001 -1.718398e+002 -4.103940e-001 1.442791e+002 -3.500869e-001 1.442405e+002 -1.586782e+001 1.509033e+002
2655000000 -1.500418e+001 -1.722781e+002 -3.953054e-001 1.434184e+002 -3.033486e-001 1.437053e+002 -1.575822e+001 1.500495e+002
2660000000 -1.502828e+001 -1.727401e+002 -3.903660e-001 1.427600e+002 -2.763688e-001 1.426815e+002 -1.572513e+001 1.496405e+002
2665000000 -1.494514e+001 -1.732971e+002 -4.286824e-001 1.422352e+002 -3.104751e-001 1.423765e+002 -1.573134e+001 1.487148e+002
2670000000 -1.490486e+001 -1.737746e+002 -4.073506e-001 1.416650e+002 -3.904050e-001 1.418313e+002 -1.569304e+001 1.483757e+002
2675000000 -1.491663e+001 -1.739884e+002 -4.577232e-001 1.414186e+002 -4.010160e-001 1.414763e+002 -1.571279e+001 1.479314e+002
2680000000 -1.488601e+001 -1.743595e+002 -4.330426e-001 1.405105e+002 -4.171847e-001 1.410421e+002 -1.561879e+001 1.472876e+002
2685000000 -1.484944e+001 -1.751558e+002 -5.219539e-001 1.403770e+002 -4.296603e-001 1.407188e+002 -1.557352e+001 1.469491e+002
2690000000 -1.479019e+001 -1.757857e+002 -5.684482e-001 1.400267e+002 -4.718325e-001 1.405566e+002 -1.557111e+001 1.462651e+002
2695000000 -1.476313e+001 -1.760999e+002 -5.988120e-001 1.397865e+002 -4.991276e-001 1.402577e+002 -1.548901e+001 1.455898e+002
2700000000 -1.467354e+001 -1.764991e+002 -5.831679e-001 1.397146e+002 -3.944934e-001 1.399853e+002 -1.547407e+001 1.451537e+002
2705000000 -1.468260e+001 -1.770923e+002 -5.686622e-001 1.396091e+002 -4.740160e-001 1.399032e+002 -1.542906e+001 1.442511e+002
2710000000 -1.461860e+001 -1.781600e+002 -5.493328e-001 1.393443e+002 -4.496797e-001 1.395752e+002 -1.540872e+001 1.438712e+002
2715000000 -1.467151e+001 -1.780763e+002 -5.349856e-001 1.388716e+002 -4.433043e-001 1.395308e+002 -1.536733e+001 1.432559e+002
2720000000 -1.456053e+001 -1.784268e+002 -5.268476e-001 1.385364e+002 -3.387311e-001 1.386414e+002 -1.526324e+001 1.423405e+002
2725000000 -1.450738e+001 -1.787125e+002 -5.026997e-001 1.381995e+002 -3.709612e-001 1.381296e+002 -1.531348e+001 1.412959e+002
2730000000 -1.448241e+001 -1.795034e+002 -4.781557e-001 1.374920e+002 -3.713984e-001 1.380383e+002 -1.529460e+001 1.416587e+002
2735000000 -1.444494e+001 -1.798346e+002 -4.364641e-001 1.371794e+002 -3.593284e-001 1.373128e+002 -1.519615e+001 1.402833e+002
2740000000 -1.440139e+001 1.788966e+002 -3.962987e-001 1.363450e+002 -3.645533e-001 1.365793e+002 -1.523044e+001 1.398105e+002
2745000000 -1.442091e+001 1.789634e+002 -4.704480e-001 1.361128e+002 -3.904155e-001 1.357554e+002 -1.529920e+001 1.391049e+002
2750000000 -1.438140e+001 1.783681e+002 -4.552669e-001 1.350349e+002 -4.190556e-001 1.355853e+002 -1.524767e+001 1.385480e+002
