!Agilent Technologies,E8364A,US41440144,A.06.04.32
!Agilent E8364A: A.06.04.32
!Date: Monday, February 18, 2019 17:03:07
!Correction: S11(Off) S21(Off) S12(Off) S22(Off) 
!S2P File: Measurements: S11, S21, S12, S22:
# Hz S  dB   R 50
1500000000 -1.947177e+001 -1.452632e+002 -2.656464e+001 -2.673807e+001 -2.656921e+001 -1.507031e+001 -1.951685e+001 -1.327790e+002
1501250000 -1.952491e+001 -1.475939e+002 -2.663278e+001 -2.841977e+001 -2.660118e+001 -1.633761e+001 -1.958300e+001 -1.354443e+002
1502500000 -1.956631e+001 -1.500952e+002 -2.670507e+001 -2.968155e+001 -2.663223e+001 -1.818900e+001 -1.963346e+001 -1.378739e+002
1503750000 -1.953534e+001 -1.521879e+002 -2.675422e+001 -3.122233e+001 -2.672550e+001 -1.963713e+001 -1.968382e+001 -1.404301e+002
1505000000 -1.954421e+001 -1.545336e+002 -2.678917e+001 -3.283253e+001 -2.671811e+001 -2.084910e+001 -1.969342e+001 -1.424741e+002
1506250000 -1.960083e+001 -1.570616e+002 -2.678860e+001 -3.463127e+001 -2.678753e+001 -2.234816e+001 -1.970716e+001 -1.449890e+002
1507500000 -1.956947e+001 -1.591914e+002 -2.679185e+001 -3.615349e+001 -2.681237e+001 -2.420845e+001 -1.974810e+001 -1.474313e+002
1508750000 -1.961535e+001 -1.613643e+002 -2.686025e+001 -3.761818e+001 -2.681197e+001 -2.580795e+001 -1.972169e+001 -1.496775e+002
1510000000 -1.957053e+001 -1.638362e+002 -2.691258e+001 -3.951145e+001 -2.690946e+001 -2.751137e+001 -1.977321e+001 -1.522807e+002
1511250000 -1.959827e+001 -1.660040e+002 -2.692302e+001 -4.102872e+001 -2.690916e+001 -2.892915e+001 -1.979219e+001 -1.549654e+002
1512500000 -1.963410e+001 -1.682077e+002 -2.692637e+001 -4.248792e+001 -2.690941e+001 -3.037252e+001 -1.979958e+001 -1.572088e+002
1513750000 -1.963855e+001 -1.704767e+002 -2.697193e+001 -4.428515e+001 -2.696585e+001 -3.202752e+001 -1.982397e+001 -1.596480e+002
1515000000 -1.962326e+001 -1.726958e+002 -2.697372e+001 -4.506622e+001 -2.690191e+001 -3.334449e+001 -1.978847e+001 -1.619243e+002
1516250000 -1.965030e+001 -1.751396e+002 -2.697756e+001 -4.718276e+001 -2.694886e+001 -3.465052e+001 -1.983634e+001 -1.644543e+002
1517500000 -1.961819e+001 -1.770070e+002 -2.698396e+001 -4.864504e+001 -2.698856e+001 -3.679938e+001 -1.985089e+001 -1.667236e+002
1518750000 -1.964372e+001 -1.795771e+002 -2.700573e+001 -5.019105e+001 -2.695423e+001 -3.819767e+001 -1.987797e+001 -1.689664e+002
1520000000 -1.964420e+001 1.785093e+002 -2.704667e+001 -5.212294e+001 -2.696811e+001 -3.972800e+001 -1.984429e+001 -1.713448e+002
1521250000 -1.965349e+001 1.761377e+002 -2.703327e+001 -5.360460e+001 -2.704644e+001 -4.131554e+001 -1.987568e+001 -1.739652e+002
1522500000 -1.971881e+001 1.737766e+002 -2.702843e+001 -5.512598e+001 -2.702476e+001 -4.290582e+001 -1.989282e+001 -1.762850e+002
1523750000 -1.968040e+001 1.718383e+002 -2.700180e+001 -5.675319e+001 -2.696358e+001 -4.474543e+001 -1.988545e+001 -1.786836e+002
1525000000 -1.966925e+001 1.694870e+002 -2.702149e+001 -5.830721e+001 -2.698922e+001 -4.648307e+001 -1.989919e+001 1.791932e+002
1526250000 -1.968459e+001 1.676338e+002 -2.704995e+001 -5.984552e+001 -2.699842e+001 -4.760538e+001 -1.991870e+001 1.769696e+002
1527500000 -1.971223e+001 1.650910e+002 -2.701307e+001 -6.155198e+001 -2.688852e+001 -4.931621e+001 -1.987028e+001 1.743966e+002
1528750000 -1.969794e+001 1.631922e+002 -2.701914e+001 -6.367184e+001 -2.691681e+001 -5.110876e+001 -1.988986e+001 1.719524e+002
1530000000 -1.969350e+001 1.609680e+002 -2.702126e+001 -6.506312e+001 -2.694772e+001 -5.281334e+001 -1.988632e+001 1.698356e+002
1531250000 -1.964902e+001 1.588752e+002 -2.694827e+001 -6.686887e+001 -2.688611e+001 -5.443420e+001 -1.983967e+001 1.674708e+002
1532500000 -1.972030e+001 1.566095e+002 -2.693393e+001 -6.839194e+001 -2.686385e+001 -5.638261e+001 -1.985308e+001 1.654471e+002
1533750000 -1.972134e+001 1.546248e+002 -2.692344e+001 -7.026181e+001 -2.686160e+001 -5.785730e+001 -1.984455e+001 1.629741e+002
1535000000 -1.967855e+001 1.525327e+002 -2.693022e+001 -7.209798e+001 -2.689841e+001 -5.973440e+001 -1.986854e+001 1.607995e+002
1536250000 -1.965926e+001 1.502468e+002 -2.691002e+001 -7.378197e+001 -2.684818e+001 -6.127402e+001 -1.983219e+001 1.586389e+002
1537500000 -1.968092e+001 1.482773e+002 -2.689022e+001 -7.540350e+001 -2.676321e+001 -6.289085e+001 -1.982299e+001 1.564288e+002
1538750000 -1.968683e+001 1.461862e+002 -2.688320e+001 -7.742339e+001 -2.677927e+001 -6.478286e+001 -1.979063e+001 1.542082e+002
1540000000 -1.970290e+001 1.441834e+002 -2.689995e+001 -7.869858e+001 -2.679662e+001 -6.679723e+001 -1.979566e+001 1.518063e+002
1541250000 -1.970234e+001 1.420267e+002 -2.680590e+001 -8.044008e+001 -2.673650e+001 -6.823376e+001 -1.976913e+001 1.499642e+002
1542500000 -1.971227e+001 1.399452e+002 -2.677148e+001 -8.266123e+001 -2.672533e+001 -6.995978e+001 -1.977195e+001 1.476416e+002
1543750000 -1.970367e+001 1.379680e+002 -2.676187e+001 -8.419700e+001 -2.666961e+001 -7.190981e+001 -1.973940e+001 1.455808e+002
1545000000 -1.965240e+001 1.362140e+002 -2.672085e+001 -8.626541e+001 -2.667315e+001 -7.355339e+001 -1.971541e+001 1.433888e+002
1546250000 -1.970042e+001 1.337592e+002 -2.673734e+001 -8.798425e+001 -2.668085e+001 -7.585992e+001 -1.971459e+001 1.413293e+002
1547500000 -1.969492e+001 1.317518e+002 -2.666902e+001 -8.955277e+001 -2.659583e+001 -7.730504e+001 -1.968592e+001 1.391838e+002
1548750000 -1.969088e+001 1.301699e+002 -2.664262e+001 -9.155399e+001 -2.657463e+001 -7.912942e+001 -1.967992e+001 1.369754e+002
1550000000 -1.965711e+001 1.280133e+002 -2.664612e+001 -9.372887e+001 -2.660784e+001 -8.142732e+001 -1.960752e+001 1.348139e+002
1551250000 -1.966192e+001 1.259472e+002 -2.656110e+001 -9.529940e+001 -2.650522e+001 -8.267733e+001 -1.960677e+001 1.329931e+002
1552500000 -1.965353e+001 1.240187e+002 -2.655774e+001 -9.713404e+001 -2.650256e+001 -8.494791e+001 -1.960082e+001 1.306541e+002
1553750000 -1.966253e+001 1.219846e+002 -2.650168e+001 -9.929619e+001 -2.642299e+001 -8.645836e+001 -1.960068e+001 1.290212e+002
1555000000 -1.963122e+001 1.200234e+002 -2.645665e+001 -1.012682e+002 -2.643270e+001 -8.853046e+001 -1.957122e+001 1.267392e+002
1556250000 -1.966686e+001 1.181411e+002 -2.645440e+001 -1.029832e+002 -2.640709e+001 -9.043558e+001 -1.950837e+001 1.246347e+002
1557500000 -1.963016e+001 1.160998e+002 -2.641846e+001 -1.044451e+002 -2.631553e+001 -9.228445e+001 -1.949745e+001 1.225579e+002
1558750000 -1.959479e+001 1.142614e+002 -2.636417e+001 -1.066338e+002 -2.637030e+001 -9.477008e+001 -1.950282e+001 1.205553e+002
1560000000 -1.960734e+001 1.121425e+002 -2.634721e+001 -1.083618e+002 -2.630362e+001 -9.656116e+001 -1.945973e+001 1.185315e+002
1561250000 -1.959901e+001 1.103453e+002 -2.631124e+001 -1.104103e+002 -2.625087e+001 -9.844331e+001 -1.943735e+001 1.164531e+002
1562500000 -1.960705e+001 1.082705e+002 -2.627803e+001 -1.125024e+002 -2.623565e+001 -1.000064e+002 -1.941474e+001 1.144524e+002
1563750000 -1.960047e+001 1.064056e+002 -2.632914e+001 -1.146120e+002 -2.613652e+001 -1.020332e+002 -1.940360e+001 1.127662e+002
1565000000 -1.959256e+001 1.044083e+002 -2.622754e+001 -1.164926e+002 -2.616474e+001 -1.040642e+002 -1.936359e+001 1.108758e+002
1566250000 -1.956367e+001 1.027043e+002 -2.616064e+001 -1.183025e+002 -2.612311e+001 -1.059921e+002 -1.934551e+001 1.086301e+002
1567500000 -1.957977e+001 1.006874e+002 -2.615971e+001 -1.204754e+002 -2.608876e+001 -1.075809e+002 -1.933206e+001 1.068269e+002
1568750000 -1.956657e+001 9.889155e+001 -2.609450e+001 -1.221546e+002 -2.602924e+001 -1.097588e+002 -1.925332e+001 1.049620e+002
1570000000 -1.958087e+001 9.689034e+001 -2.606378e+001 -1.243938e+002 -2.597256e+001 -1.123045e+002 -1.924529e+001 1.030631e+002
1571250000 -1.953834e+001 9.504558e+001 -2.604543e+001 -1.263522e+002 -2.594305e+001 -1.144024e+002 -1.923698e+001 1.009076e+002
1572500000 -1.956526e+001 9.313817e+001 -2.593314e+001 -1.287108e+002 -2.589153e+001 -1.162984e+002 -1.920587e+001 9.882202e+001
1573750000 -1.956145e+001 9.118275e+001 -2.595161e+001 -1.305533e+002 -2.588883e+001 -1.183309e+002 -1.918939e+001 9.712307e+001
1575000000 -1.954719e+001 8.963359e+001 -2.595454e+001 -1.324445e+002 -2.584568e+001 -1.203015e+002 -1.919045e+001 9.493945e+001
1576250000 -1.952811e+001 8.756590e+001 -2.588005e+001 -1.349626e+002 -2.575496e+001 -1.224439e+002 -1.913651e+001 9.300367e+001
1577500000 -1.954438e+001 8.536790e+001 -2.586835e+001 -1.370267e+002 -2.581158e+001 -1.243877e+002 -1.913453e+001 9.131220e+001
1578750000 -1.954779e+001 8.401138e+001 -2.578063e+001 -1.386827e+002 -2.576081e+001 -1.265816e+002 -1.910092e+001 8.946770e+001
1580000000 -1.951543e+001 8.185310e+001 -2.579267e+001 -1.412045e+002 -2.569535e+001 -1.285275e+002 -1.906352e+001 8.744862e+001
1581250000 -1.949412e+001 8.008297e+001 -2.570566e+001 -1.431873e+002 -2.562527e+001 -1.309253e+002 -1.903802e+001 8.567608e+001
1582500000 -1.951102e+001 7.831727e+001 -2.568562e+001 -1.453068e+002 -2.565319e+001 -1.329188e+002 -1.907194e+001 8.362926e+001
1583750000 -1.951157e+001 7.644355e+001 -2.570070e+001 -1.471665e+002 -2.555795e+001 -1.349937e+002 -1.897410e+001 8.183315e+001
1585000000 -1.949778e+001 7.463807e+001 -2.560227e+001 -1.494987e+002 -2.552892e+001 -1.371618e+002 -1.897243e+001 7.998370e+001
1586250000 -1.949461e+001 7.271633e+001 -2.556632e+001 -1.514230e+002 -2.553161e+001 -1.392641e+002 -1.898306e+001 7.804898e+001
1587500000 -1.947102e+001 7.061873e+001 -2.555380e+001 -1.538250e+002 -2.543361e+001 -1.413907e+002 -1.893243e+001 7.622962e+001
1588750000 -1.946538e+001 6.897432e+001 -2.552007e+001 -1.558017e+002 -2.543159e+001 -1.435885e+002 -1.894428e+001 7.436476e+001
1590000000 -1.947185e+001 6.717077e+001 -2.547462e+001 -1.581119e+002 -2.545361e+001 -1.458417e+002 -1.889433e+001 7.241452e+001
1591250000 -1.945149e+001 6.537837e+001 -2.544555e+001 -1.599363e+002 -2.542201e+001 -1.482581e+002 -1.884263e+001 7.048891e+001
1592500000 -1.943175e+001 6.320236e+001 -2.543624e+001 -1.622231e+002 -2.535137e+001 -1.499359e+002 -1.887822e+001 6.896870e+001
1593750000 -1.944057e+001 6.120758e+001 -2.536358e+001 -1.645302e+002 -2.529547e+001 -1.517411e+002 -1.880591e+001 6.702102e+001
1595000000 -1.947935e+001 5.983795e+001 -2.534129e+001 -1.664269e+002 -2.523410e+001 -1.544707e+002 -1.880492e+001 6.511016e+001
1596250000 -1.944293e+001 5.796644e+001 -2.531055e+001 -1.685421e+002 -2.524521e+001 -1.566200e+002 -1.881814e+001 6.311702e+001
1597500000 -1.944626e+001 5.595554e+001 -2.530169e+001 -1.708212e+002 -2.526842e+001 -1.589165e+002 -1.877358e+001 6.121829e+001
1598750000 -1.943769e+001 5.401941e+001 -2.529979e+001 -1.730111e+002 -2.512777e+001 -1.610240e+002 -1.874957e+001 5.944614e+001
1600000000 -1.944170e+001 5.275507e+001 -2.517467e+001 -1.750510e+002 -2.510913e+001 -1.633314e+002 -1.875142e+001 5.744981e+001
1601250000 -1.942738e+001 5.047686e+001 -2.521287e+001 -1.777778e+002 -2.513297e+001 -1.657467e+002 -1.872409e+001 5.568722e+001
1602500000 -1.940380e+001 4.868908e+001 -2.518033e+001 -1.796701e+002 -2.508114e+001 -1.677048e+002 -1.870037e+001 5.384371e+001
1603750000 -1.939703e+001 4.699671e+001 -2.510139e+001 1.780420e+002 -2.504509e+001 -1.699253e+002 -1.870214e+001 5.213581e+001
1605000000 -1.945338e+001 4.500036e+001 -2.508496e+001 1.754341e+002 -2.495557e+001 -1.724543e+002 -1.870613e+001 5.013742e+001
1606250000 -1.944017e+001 4.328879e+001 -2.502497e+001 1.735653e+002 -2.498495e+001 -1.743257e+002 -1.870135e+001 4.829758e+001
1607500000 -1.939202e+001 4.109742e+001 -2.506003e+001 1.711635e+002 -2.494158e+001 -1.768521e+002 -1.863519e+001 4.640393e+001
1608750000 -1.939931e+001 3.927380e+001 -2.497698e+001 1.690047e+002 -2.491435e+001 -1.790788e+002 -1.866086e+001 4.441512e+001
1610000000 -1.940516e+001 3.770512e+001 -2.497006e+001 1.669025e+002 -2.486453e+001 1.788273e+002 -1.862411e+001 4.246674e+001
1611250000 -1.940368e+001 3.566533e+001 -2.492959e+001 1.644554e+002 -2.484812e+001 1.762719e+002 -1.859942e+001 4.074208e+001
1612500000 -1.936560e+001 3.377048e+001 -2.490354e+001 1.618926e+002 -2.482872e+001 1.741306e+002 -1.859180e+001 3.882225e+001
1613750000 -1.938837e+001 3.189750e+001 -2.486147e+001 1.598392e+002 -2.483138e+001 1.721495e+002 -1.861445e+001 3.676987e+001
1615000000 -1.938050e+001 2.993606e+001 -2.483419e+001 1.579026e+002 -2.467655e+001 1.692948e+002 -1.860269e+001 3.514776e+001
1616250000 -1.939971e+001 2.814235e+001 -2.481774e+001 1.552809e+002 -2.474423e+001 1.670865e+002 -1.856437e+001 3.311717e+001
1617500000 -1.938328e+001 2.630269e+001 -2.480389e+001 1.529441e+002 -2.468697e+001 1.649276e+002 -1.855249e+001 3.135228e+001
1618750000 -1.936341e+001 2.436185e+001 -2.472373e+001 1.507642e+002 -2.467423e+001 1.627478e+002 -1.858394e+001 2.917118e+001
1620000000 -1.933618e+001 2.257071e+001 -2.476838e+001 1.482389e+002 -2.463518e+001 1.604551e+002 -1.855455e+001 2.730174e+001
1621250000 -1.935889e+001 2.072438e+001 -2.469515e+001 1.460454e+002 -2.470480e+001 1.583143e+002 -1.854568e+001 2.535073e+001
1622500000 -1.932990e+001 1.873952e+001 -2.466608e+001 1.435284e+002 -2.455601e+001 1.557862e+002 -1.854897e+001 2.349395e+001
1623750000 -1.932090e+001 1.681220e+001 -2.469843e+001 1.413367e+002 -2.458257e+001 1.531242e+002 -1.855202e+001 2.131608e+001
1625000000 -1.932130e+001 1.497950e+001 -2.460268e+001 1.388562e+002 -2.457211e+001 1.508944e+002 -1.853585e+001 1.955147e+001
1626250000 -1.933121e+001 1.307317e+001 -2.460964e+001 1.368076e+002 -2.458238e+001 1.491492e+002 -1.853152e+001 1.751293e+001
1627500000 -1.927530e+001 1.115719e+001 -2.453583e+001 1.341123e+002 -2.452429e+001 1.463536e+002 -1.851177e+001 1.555542e+001
1628750000 -1.929800e+001 9.240905e+000 -2.454364e+001 1.319466e+002 -2.443908e+001 1.440558e+002 -1.848068e+001 1.347650e+001
1630000000 -1.931271e+001 7.489058e+000 -2.452626e+001 1.295423e+002 -2.452150e+001 1.417192e+002 -1.850511e+001 1.181295e+001
1631250000 -1.926628e+001 5.531803e+000 -2.449978e+001 1.272109e+002 -2.443907e+001 1.391762e+002 -1.850252e+001 9.390372e+000
1632500000 -1.926875e+001 3.695815e+000 -2.444559e+001 1.246529e+002 -2.439515e+001 1.371866e+002 -1.849865e+001 7.939963e+000
1633750000 -1.927319e+001 1.506471e+000 -2.448197e+001 1.226068e+002 -2.440893e+001 1.347760e+002 -1.848301e+001 5.892146e+000
1635000000 -1.928544e+001 -4.464417e-001 -2.442641e+001 1.199295e+002 -2.439256e+001 1.325408e+002 -1.849891e+001 3.792209e+000
1636250000 -1.926402e+001 -2.534062e+000 -2.441538e+001 1.176609e+002 -2.436422e+001 1.299897e+002 -1.850885e+001 1.615469e+000
1637500000 -1.924297e+001 -4.425292e+000 -2.441123e+001 1.151568e+002 -2.437403e+001 1.276940e+002 -1.847796e+001 -3.414295e-001
1638750000 -1.924663e+001 -6.192577e+000 -2.435885e+001 1.129460e+002 -2.433987e+001 1.254458e+002 -1.850997e+001 -2.240986e+000
1640000000 -1.921370e+001 -8.451920e+000 -2.437312e+001 1.102432e+002 -2.428172e+001 1.228860e+002 -1.851216e+001 -4.171563e+000
1641250000 -1.920961e+001 -1.042426e+001 -2.438489e+001 1.082051e+002 -2.430991e+001 1.205067e+002 -1.845432e+001 -6.451714e+000
1642500000 -1.916448e+001 -1.231833e+001 -2.431643e+001 1.056166e+002 -2.423954e+001 1.180795e+002 -1.846731e+001 -8.322185e+000
1643750000 -1.918384e+001 -1.442363e+001 -2.433161e+001 1.032188e+002 -2.424940e+001 1.158704e+002 -1.847176e+001 -1.045278e+001
1645000000 -1.917752e+001 -1.652329e+001 -2.427101e+001 1.013060e+002 -2.424835e+001 1.133819e+002 -1.846093e+001 -1.241949e+001
1646250000 -1.915400e+001 -1.840755e+001 -2.427562e+001 9.847079e+001 -2.425515e+001 1.108720e+002 -1.848003e+001 -1.473858e+001
1647500000 -1.913727e+001 -2.054231e+001 -2.427938e+001 9.637555e+001 -2.416713e+001 1.085281e+002 -1.847363e+001 -1.680865e+001
1648750000 -1.911353e+001 -2.253736e+001 -2.426599e+001 9.380122e+001 -2.420267e+001 1.060706e+002 -1.844499e+001 -1.888812e+001
1650000000 -1.907729e+001 -2.456542e+001 -2.424436e+001 9.139874e+001 -2.416191e+001 1.037069e+002 -1.841870e+001 -2.101805e+001
1651250000 -1.907833e+001 -2.663691e+001 -2.417925e+001 8.909669e+001 -2.422430e+001 1.014549e+002 -1.847675e+001 -2.313470e+001
1652500000 -1.903607e+001 -2.866673e+001 -2.412019e+001 8.674740e+001 -2.412061e+001 9.923592e+001 -1.844192e+001 -2.509900e+001
1653750000 -1.904354e+001 -3.090285e+001 -2.417217e+001 8.426793e+001 -2.412240e+001 9.660004e+001 -1.844323e+001 -2.734794e+001
1655000000 -1.901465e+001 -3.309431e+001 -2.420095e+001 8.196594e+001 -2.415108e+001 9.402699e+001 -1.841765e+001 -2.963589e+001
1656250000 -1.900814e+001 -3.523950e+001 -2.416935e+001 7.920879e+001 -2.415109e+001 9.192109e+001 -1.840926e+001 -3.169432e+001
1657500000 -1.899497e+001 -3.701497e+001 -2.414982e+001 7.691755e+001 -2.414723e+001 8.952623e+001 -1.843894e+001 -3.425656e+001
1658750000 -1.895505e+001 -3.927458e+001 -2.412295e+001 7.460062e+001 -2.409836e+001 8.679881e+001 -1.842472e+001 -3.618048e+001
1660000000 -1.894326e+001 -4.144263e+001 -2.407869e+001 7.211896e+001 -2.410552e+001 8.436460e+001 -1.841417e+001 -3.841015e+001
1661250000 -1.892355e+001 -4.352870e+001 -2.410268e+001 6.950826e+001 -2.409379e+001 8.214764e+001 -1.843114e+001 -4.065386e+001
1662500000 -1.888389e+001 -4.566171e+001 -2.411511e+001 6.737266e+001 -2.404974e+001 7.959028e+001 -1.840660e+001 -4.309627e+001
1663750000 -1.882552e+001 -4.794864e+001 -2.412493e+001 6.462520e+001 -2.408387e+001 7.729959e+001 -1.839107e+001 -4.508841e+001
1665000000 -1.884376e+001 -5.018308e+001 -2.409139e+001 6.229512e+001 -2.405106e+001 7.472118e+001 -1.839109e+001 -4.754445e+001
1666250000 -1.883800e+001 -5.224426e+001 -2.405076e+001 6.003302e+001 -2.409755e+001 7.253663e+001 -1.836229e+001 -4.940263e+001
1667500000 -1.880548e+001 -5.436599e+001 -2.407745e+001 5.735149e+001 -2.406795e+001 7.034174e+001 -1.834258e+001 -5.191162e+001
1668750000 -1.878677e+001 -5.665585e+001 -2.406377e+001 5.500903e+001 -2.402624e+001 6.749892e+001 -1.835832e+001 -5.433031e+001
1670000000 -1.875775e+001 -5.864344e+001 -2.407004e+001 5.262534e+001 -2.403719e+001 6.493403e+001 -1.835486e+001 -5.680487e+001
1671250000 -1.871484e+001 -6.124678e+001 -2.404105e+001 5.026835e+001 -2.405261e+001 6.271156e+001 -1.835838e+001 -5.892585e+001
1672500000 -1.867987e+001 -6.328048e+001 -2.405203e+001 4.804871e+001 -2.393742e+001 6.030994e+001 -1.831492e+001 -6.128667e+001
1673750000 -1.866102e+001 -6.546899e+001 -2.402931e+001 4.517533e+001 -2.400988e+001 5.793258e+001 -1.828035e+001 -6.377319e+001
1675000000 -1.865247e+001 -6.756722e+001 -2.405107e+001 4.280817e+001 -2.400126e+001 5.559016e+001 -1.829248e+001 -6.596864e+001
1676250000 -1.863458e+001 -6.991331e+001 -2.403110e+001 4.029435e+001 -2.402010e+001 5.289605e+001 -1.827388e+001 -6.840565e+001
1677500000 -1.858272e+001 -7.219758e+001 -2.400272e+001 3.777369e+001 -2.401165e+001 5.070863e+001 -1.823870e+001 -7.067453e+001
1678750000 -1.852180e+001 -7.455229e+001 -2.400935e+001 3.512636e+001 -2.400191e+001 4.805555e+001 -1.825403e+001 -7.314483e+001
1680000000 -1.850992e+001 -7.675558e+001 -2.404791e+001 3.295397e+001 -2.401516e+001 4.516112e+001 -1.821292e+001 -7.552820e+001
1681250000 -1.846784e+001 -7.916825e+001 -2.399360e+001 3.058400e+001 -2.401596e+001 4.310540e+001 -1.817698e+001 -7.786755e+001
1682500000 -1.848394e+001 -8.115166e+001 -2.403725e+001 2.778965e+001 -2.402923e+001 4.076740e+001 -1.817168e+001 -8.035680e+001
1683750000 -1.844174e+001 -8.349670e+001 -2.405792e+001 2.534587e+001 -2.396470e+001 3.863515e+001 -1.816449e+001 -8.255205e+001
1685000000 -1.838209e+001 -8.585583e+001 -2.404365e+001 2.286585e+001 -2.396903e+001 3.565856e+001 -1.810601e+001 -8.505508e+001
1686250000 -1.837508e+001 -8.811085e+001 -2.405032e+001 2.068174e+001 -2.400810e+001 3.305454e+001 -1.808331e+001 -8.728731e+001
1687500000 -1.832565e+001 -9.026923e+001 -2.405256e+001 1.782874e+001 -2.400997e+001 3.088366e+001 -1.803792e+001 -8.992105e+001
1688750000 -1.828260e+001 -9.250229e+001 -2.402065e+001 1.559328e+001 -2.398178e+001 2.843341e+001 -1.806012e+001 -9.221262e+001
