!Agilent Technologies,E8364A,US41440144,A.06.04.32
!Agilent E8364A: A.06.04.32
!Date: Monday, February 26, 2018 15:08:21
!Correction: S11(Full 2 Port(1,2)) S21(Full 2 Port(1,2)) S12(Full 2 Port(1,2)) S22(Full 2 Port(1,2)) 
!S2P File: Measurements: S11, S21, S12, S22:
# Hz S  dB   R 50
45000000 -6.687213e-002 -1.674098e+001 -5.072835e+001 -1.657290e+001 -3.972600e+001 -9.660252e+001 -4.718938e+001 5.867912e+001
45372187.5 -9.298010e-002 -1.658256e+001 -3.659424e+001 5.812626e+000 -4.475629e+001 -8.048666e+001 -5.058060e+001 1.704250e+002
45744375 -2.932871e-002 -1.720722e+001 -4.355596e+001 -2.295268e+001 -4.340783e+001 -1.409013e+002 -4.215870e+001 1.792050e+001
46116562.5 -7.607494e-002 -1.735447e+001 -4.388926e+001 -3.686248e+001 -4.411203e+001 -6.715983e+001 -4.521600e+001 3.428886e+001
46488750 -7.433235e-003 -1.724328e+001 -5.266967e+001 1.473677e+002 -5.957411e+001 -4.741793e+001 -4.665936e+001 6.229518e+001
46860937.5 -8.743504e-002 -1.736585e+001 -5.494828e+001 -1.267825e+001 -4.988094e+001 -1.757727e+002 -4.026996e+001 3.550688e+001
47233125 -4.818106e-002 -1.794327e+001 -4.565279e+001 8.977842e+001 -4.259346e+001 1.383420e+002 -4.509915e+001 1.010566e+002
47605312.5 -4.014348e-002 -1.756655e+001 -4.985206e+001 -2.353320e+000 -4.604466e+001 9.720815e+001 -4.801205e+001 3.546725e+001
47977500 -4.131684e-002 -1.771366e+001 -4.307544e+001 -5.003006e+000 -4.645621e+001 3.389731e+001 -4.519889e+001 9.327248e+001
48349687.5 -3.326231e-002 -1.781127e+001 -4.015655e+001 -1.589387e+002 -4.207261e+001 4.781055e+001 -4.265896e+001 2.564686e+000
48721875 -6.804574e-002 -1.759199e+001 -4.462319e+001 1.318896e+002 -4.552674e+001 1.249565e+002 -3.792136e+001 6.542490e+001
49094062.5 -8.759645e-002 -1.758084e+001 -4.456700e+001 -1.371536e+002 -4.133698e+001 5.145788e+001 -4.100816e+001 4.514912e+001
49466250 -1.687174e-002 -1.800487e+001 -4.560066e+001 -1.562944e+002 -4.335445e+001 4.264205e+001 -4.878887e+001 -1.771656e+002
49838437.5 -6.603808e-002 -1.836824e+001 -4.776839e+001 1.528619e+002 -5.213628e+001 -1.651746e+002 -4.433464e+001 -1.308300e+001
50210625 -4.316002e-002 -1.796018e+001 -4.416460e+001 -1.259130e+002 -5.318810e+001 1.656441e+001 -3.836661e+001 4.067939e+001
50582812.5 1.262303e-002 -1.830552e+001 -5.643926e+001 2.494858e+001 -4.496297e+001 3.820638e+001 -3.723138e+001 3.085610e+001
50955000 -2.299107e-002 -1.892967e+001 -4.903466e+001 1.123529e+002 -4.881489e+001 4.628294e+001 -4.687984e+001 5.950196e+001
51327187.5 -7.862252e-003 -1.863082e+001 -4.368544e+001 -1.370308e+002 -4.431053e+001 1.592734e+002 -4.514457e+001 1.003079e+002
51699375 1.214436e-002 -1.934937e+001 -5.495576e+001 7.787862e+001 -4.779677e+001 5.527081e+001 -4.537157e+001 6.353253e+001
52071562.5 -2.726970e-002 -1.948583e+001 -4.078726e+001 3.214309e+001 -4.737618e+001 -8.215881e+001 -4.415235e+001 1.078045e+002
52443750 -1.087565e-002 -1.911387e+001 -4.959490e+001 8.302948e+001 -4.649920e+001 1.522515e+002 -4.796535e+001 7.641210e+001
52815937.5 -4.278211e-002 -1.937124e+001 -6.565177e+001 4.536074e+001 -5.083172e+001 -1.108226e+002 -4.472048e+001 6.845577e+001
53188125 2.002005e-002 -1.946267e+001 -4.695391e+001 -1.047533e+002 -4.868385e+001 -3.601155e+001 -4.783318e+001 -6.157479e+000
53560312.5 -7.528140e-002 -1.953675e+001 -4.646328e+001 -1.056078e+002 -5.059877e+001 -2.043128e+001 -4.178391e+001 6.160950e+001
53932500 1.162158e-002 -1.961845e+001 -4.064625e+001 -1.773363e+002 -4.862578e+001 5.049066e+001 -4.370041e+001 7.579735e+001
54304687.5 -2.140705e-002 -1.969048e+001 -4.802560e+001 5.325490e+001 -5.253525e+001 -1.635194e+002 -4.714348e+001 4.668475e+001
54676875 -7.000684e-002 -1.983720e+001 -3.969598e+001 -4.579008e+001 -6.174954e+001 -1.598519e+002 -4.384409e+001 3.925116e+001
55049062.5 -5.785144e-002 -2.050376e+001 -5.000349e+001 3.787137e+001 -4.952079e+001 6.876712e+001 -4.211208e+001 6.440792e+001
55421250 -6.861081e-002 -2.023697e+001 -4.164883e+001 1.879589e+001 -4.496989e+001 -1.424751e+002 -5.324257e+001 1.134010e+002
55793437.5 -7.671395e-002 -2.041536e+001 -5.049954e+001 1.125958e+002 -8.020428e+001 -1.037926e+002 -4.481226e+001 2.733946e+001
56165625 -7.247668e-002 -2.041557e+001 -4.826009e+001 -8.897350e+001 -4.515859e+001 1.728846e+002 -3.951138e+001 1.141164e+002
56537812.5 -1.530200e-001 -2.092592e+001 -4.579456e+001 3.135524e+001 -5.234568e+001 1.037376e+002 -4.568239e+001 1.134442e+001
56910000 -7.915947e-002 -2.118511e+001 -4.743087e+001 -9.246842e+001 -4.701868e+001 -1.237755e+002 -4.226084e+001 2.209179e+001
57282187.5 -7.387063e-002 -2.116312e+001 -4.772670e+001 -1.501026e+002 -5.254395e+001 -1.243373e+001 -4.271537e+001 1.153983e+002
57654375 -6.439510e-002 -2.095853e+001 -4.863213e+001 4.010309e+001 -4.533185e+001 1.638423e+002 -5.080888e+001 -1.444723e+002
58026562.5 -8.751916e-002 -2.144059e+001 -5.948205e+001 2.088036e+001 -4.287461e+001 -1.157484e+002 -4.174444e+001 6.298077e+001
58398750 1.484400e-002 -2.172284e+001 -4.607648e+001 3.539469e+001 -5.064808e+001 3.538527e+001 -4.186814e+001 4.870737e+001
58770937.5 -5.469466e-002 -2.178703e+001 -4.910975e+001 7.588341e+001 -4.526423e+001 1.525954e+002 -4.275089e+001 2.671203e+001
59143125 -1.639727e-002 -2.156813e+001 -4.700595e+001 -5.039319e+001 -5.303788e+001 3.896303e+001 -4.955725e+001 5.525198e+001
59515312.5 -3.705462e-002 -2.203828e+001 -4.719141e+001 1.048008e+002 -4.826230e+001 2.448584e+000 -3.789373e+001 7.160816e+001
59887500 -6.223393e-002 -2.221203e+001 -4.156129e+001 -3.545280e+001 -4.297906e+001 -1.586233e+002 -4.834243e+001 7.557933e+001
60259687.5 -7.821476e-002 -2.188003e+001 -4.661404e+001 9.797664e+001 -6.796417e+001 -1.052809e+002 -4.501649e+001 3.196334e+001
60631875 -6.465825e-002 -2.226268e+001 -5.027926e+001 -8.650440e+000 -4.737428e+001 -1.424642e+002 -4.415366e+001 -4.552969e+001
61004062.5 -3.443677e-002 -2.238955e+001 -5.910069e+001 4.763972e+001 -4.077102e+001 -1.380582e+002 -4.243567e+001 8.191633e+001
61376250 -3.235919e-002 -2.265041e+001 -4.922458e+001 6.666689e+001 -4.438422e+001 4.367580e+001 -4.156849e+001 5.762202e+001
61748437.5 -1.607964e-002 -2.299591e+001 -4.588316e+001 7.406502e+001 -5.282658e+001 9.086681e+001 -4.446939e+001 5.149337e+001
62120625 -5.248628e-002 -2.269290e+001 -4.666218e+001 -5.959960e+001 -5.427308e+001 7.030759e+001 -4.382996e+001 7.215311e+001
62492812.5 -7.883666e-002 -2.257092e+001 -4.293933e+001 2.364350e+001 -5.314135e+001 -1.287074e+002 -5.211285e+001 1.196884e+002
62865000 -4.468061e-002 -2.282826e+001 -4.188125e+001 -2.923467e+001 -4.518221e+001 -1.029621e+002 -4.227657e+001 8.083546e+001
63237187.5 -7.233851e-002 -2.308415e+001 -4.247433e+001 -1.057025e+002 -4.540668e+001 1.672883e+002 -4.382265e+001 7.069218e+001
63609375 -7.988939e-002 -2.326188e+001 -5.493039e+001 7.898638e+001 -4.898499e+001 9.698840e+001 -4.499049e+001 3.971946e+001
63981562.5 -3.572705e-002 -2.311778e+001 -5.445095e+001 -4.085948e+001 -4.367593e+001 1.295334e+002 -3.932015e+001 7.111776e+001
64353750 -6.707450e-002 -2.344883e+001 -4.614737e+001 1.262971e+002 -5.920074e+001 1.532853e+002 -3.977993e+001 6.576308e+001
64725937.5 -1.100599e-001 -2.405909e+001 -5.958025e+001 -9.908884e+001 -4.742846e+001 5.451744e+001 -4.352729e+001 3.997098e+001
65098125 -1.242094e-002 -2.376369e+001 -4.813200e+001 1.179652e+002 -5.765826e+001 -1.379207e+002 -4.419066e+001 3.762000e+001
65470312.5 -6.234957e-002 -2.415498e+001 -4.540775e+001 -1.508419e+001 -4.737265e+001 2.969547e+001 -4.115637e+001 5.827131e+001
65842500 -4.452576e-002 -2.412913e+001 -5.368565e+001 1.548690e+002 -5.544442e+001 -1.778641e+002 -4.343901e+001 9.176349e+001
66214687.5 -8.690973e-002 -2.416046e+001 -5.298295e+001 -1.787148e+002 -5.063552e+001 1.700697e+002 -4.108204e+001 3.004798e+001
66586875 -3.834401e-002 -2.440940e+001 -5.245365e+001 1.450896e+002 -5.373539e+001 -1.432964e+002 -5.215899e+001 1.085504e+002
66959062.5 -9.706554e-003 -2.466969e+001 -4.392679e+001 1.022454e+002 -4.359621e+001 -4.896838e+001 -3.889207e+001 5.771620e+001
67331250 -2.317403e-002 -2.450945e+001 -5.638187e+001 1.695705e+002 -5.568181e+001 -3.493918e+001 -3.835097e+001 4.938167e+001
67703437.5 -7.947444e-002 -2.480285e+001 -5.317506e+001 1.662311e+002 -5.385801e+001 -9.857666e+001 -4.280249e+001 7.275510e+001
68075625 -7.708291e-002 -2.504626e+001 -4.897570e+001 7.259067e+001 -6.576729e+001 -1.670288e+002 -5.179163e+001 9.049619e+001
68447812.5 -4.853554e-002 -2.508165e+001 -5.883356e+001 2.055434e+000 -5.459484e+001 1.242667e+002 -4.000546e+001 7.884371e+001
68820000 -4.627860e-002 -2.506604e+001 -4.780306e+001 4.907082e+001 -4.690398e+001 6.338525e+001 -3.822321e+001 6.490800e+001
69192187.5 -4.333290e-002 -2.527377e+001 -4.701062e+001 5.792475e+001 -4.245586e+001 -5.582521e+001 -4.484795e+001 5.767111e+001
69564375 -6.738321e-002 -2.535931e+001 -4.379058e+001 -1.621395e+002 -4.879847e+001 -6.399145e+001 -4.084615e+001 8.094038e+001
69936562.5 -5.224613e-002 -2.532347e+001 -4.360749e+001 5.427632e+000 -5.150771e+001 -1.737019e+002 -4.212748e+001 7.797480e+001
70308750 -2.580790e-002 -2.542634e+001 -5.381083e+001 2.321423e+001 -5.000120e+001 -1.339319e+002 -4.322765e+001 1.010683e+002
70680937.5 -5.772355e-002 -2.581834e+001 -5.271825e+001 6.035620e+000 -4.944232e+001 -1.263826e+002 -3.974692e+001 4.614822e+001
71053125 -5.512302e-002 -2.591199e+001 -4.983899e+001 -7.278306e+001 -5.256478e+001 7.182317e+001 -4.881139e+001 1.096471e+002
71425312.5 -6.954284e-002 -2.620630e+001 -5.276583e+001 -5.403788e+001 -4.754893e+001 1.490836e+002 -3.754853e+001 7.761331e+001
71797500 -3.739890e-002 -2.615855e+001 -5.877269e+001 1.003156e+002 -5.471625e+001 1.373157e+002 -3.980855e+001 4.105150e+001
72169687.5 -5.908147e-002 -2.674372e+001 -5.627751e+001 5.771658e+001 -4.495620e+001 6.162739e+000 -4.402026e+001 1.060309e+002
72541875 -8.347323e-002 -2.675458e+001 -4.417266e+001 1.399607e+002 -5.020148e+001 -8.646121e+001 -4.456368e+001 7.188933e+001
72914062.5 -4.684304e-002 -2.662129e+001 -5.381750e+001 3.009802e+001 -5.195704e+001 1.445072e+002 -3.782486e+001 6.561604e+001
73286250 -8.716804e-002 -2.664714e+001 -5.262299e+001 1.505180e+002 -5.280503e+001 1.594491e+002 -4.260360e+001 5.872938e+001
73658437.5 -8.907732e-002 -2.703056e+001 -4.368824e+001 -1.393971e+002 -5.088705e+001 -1.120468e+002 -3.788890e+001 3.467220e+001
74030625 -7.305185e-002 -2.707610e+001 -4.756738e+001 -1.191100e+002 -4.563859e+001 -5.387133e+001 -3.931589e+001 6.012996e+001
74402812.5 -7.227365e-002 -2.716636e+001 -4.915815e+001 -1.665316e+002 -4.971282e+001 -1.239612e+002 -4.583453e+001 6.401566e+001
74775000 -7.277302e-002 -2.740510e+001 -4.901139e+001 -2.847013e+001 -4.890369e+001 -5.351206e+001 -4.219011e+001 7.098394e+001
75147187.5 -3.005541e-002 -2.739765e+001 -4.898932e+001 1.195434e+002 -4.699365e+001 9.651488e+001 -4.008062e+001 6.522316e+001
75519375 -4.338050e-002 -2.756534e+001 -5.240035e+001 -1.645645e+002 -5.105787e+001 3.390354e+001 -3.800383e+001 6.942258e+001
75891562.5 -6.992402e-002 -2.738060e+001 -5.524623e+001 7.103810e+001 -4.539332e+001 1.796478e+002 -4.128028e+001 8.371771e+001
76263750 -7.467648e-002 -2.792909e+001 -5.694972e+001 2.771795e+001 -5.337173e+001 -6.196365e+001 -4.134872e+001 6.677176e+001
76635937.5 -9.390232e-002 -2.809487e+001 -4.809113e+001 1.190568e+002 -4.555991e+001 8.377110e+001 -4.089019e+001 4.717979e+001
77008125 -7.252377e-002 -2.791142e+001 -5.760947e+001 8.958971e+001 -5.000881e+001 1.614625e+002 -3.985614e+001 6.589146e+001
77380312.5 -3.613452e-002 -2.843368e+001 -5.181027e+001 4.810328e+001 -4.768921e+001 6.947356e+001 -3.941509e+001 5.773834e+001
77752500 -1.013474e-001 -2.862302e+001 -5.653812e+001 -6.715430e+001 -5.151215e+001 2.286721e+001 -3.611896e+001 6.829597e+001
78124687.5 -4.876830e-002 -2.861738e+001 -4.853426e+001 -1.381152e+002 -4.475698e+001 1.268538e+002 -4.209169e+001 7.604984e+001
78496875 -7.572327e-002 -2.851239e+001 -5.669459e+001 1.443058e+002 -5.757911e+001 1.349516e+002 -4.102634e+001 2.472362e+001
78869062.5 -4.843903e-002 -2.875768e+001 -4.623620e+001 8.996321e+001 -4.633691e+001 -2.267786e+001 -4.109777e+001 6.409232e+001
79241250 -3.771277e-002 -2.888313e+001 -5.512564e+001 -1.640715e+002 -4.639637e+001 -3.185792e+001 -3.934440e+001 5.795922e+001
79613437.5 -7.652084e-002 -2.889095e+001 -4.581606e+001 8.928053e+001 -4.829739e+001 -9.976511e+001 -4.156763e+001 5.583760e+001
79985625 -1.026710e-001 -2.911745e+001 -4.968266e+001 1.127287e+001 -4.919144e+001 -5.850444e+001 -4.381890e+001 7.411002e+001
80357812.5 -8.194955e-002 -2.910076e+001 -5.193155e+001 1.290440e+002 -4.786670e+001 -1.721106e+002 -3.949206e+001 3.300306e+001
80730000 -6.931129e-002 -2.941331e+001 -4.640305e+001 7.960736e+001 -5.412429e+001 -1.298224e+002 -4.389903e+001 5.475156e+001
81102187.5 -6.776892e-002 -2.959213e+001 -4.519282e+001 4.757341e+001 -5.629197e+001 4.418061e+001 -3.824914e+001 5.939788e+001
81474375 -7.973768e-002 -2.977748e+001 -5.646218e+001 9.889320e+001 -5.277303e+001 8.944946e+001 -4.419312e+001 9.829611e+001
81846562.5 -5.745849e-002 -3.003472e+001 -5.894657e+001 -5.435466e+001 -5.135485e+001 9.476103e+001 -4.142124e+001 5.681811e+001
82218750 -6.111084e-002 -2.937193e+001 -4.835231e+001 1.702694e+002 -4.755533e+001 5.672254e+001 -4.297999e+001 5.469279e+001
82590937.5 -6.358687e-002 -3.019497e+001 -5.086332e+001 -3.996196e+001 -4.724748e+001 1.045230e+002 -4.004568e+001 7.963888e+001
82963125 -7.440615e-002 -3.018431e+001 -5.040567e+001 1.094216e+002 -5.566047e+001 -1.107637e+002 -3.952572e+001 4.304596e+001
83335312.5 -8.820321e-002 -3.036781e+001 -5.291785e+001 1.713292e+002 -5.267649e+001 2.447740e+001 -4.099535e+001 9.072907e+001
83707500 -1.086935e-001 -3.025207e+001 -5.281805e+001 -1.305035e+002 -5.132548e+001 -1.140058e+002 -4.006723e+001 6.283221e+001
84079687.5 -6.665123e-002 -3.067780e+001 -5.679507e+001 -1.270362e+002 -4.540776e+001 -1.259338e+001 -4.436060e+001 6.007757e+001
84451875 -6.938534e-002 -3.080287e+001 -6.406976e+001 6.509296e+001 -5.506257e+001 -1.000810e+002 -4.223937e+001 5.123183e+001
84824062.5 -5.278461e-002 -3.084768e+001 -4.539387e+001 1.567034e+002 -6.100095e+001 1.670467e+002 -4.047508e+001 5.518196e+001
85196250 -6.174248e-002 -3.096477e+001 -5.157345e+001 -7.706766e+001 -6.417469e+001 -6.513675e+001 -4.002864e+001 6.456853e+001
85568437.5 -6.404290e-002 -3.113875e+001 -5.379192e+001 1.708478e+002 -4.411607e+001 1.325237e+002 -3.729940e+001 5.343683e+001
85940625 -5.026231e-002 -3.137189e+001 -5.163147e+001 7.234621e+001 -4.585747e+001 -1.589270e+002 -4.139318e+001 3.442340e+001
86312812.5 -6.367245e-002 -3.172288e+001 -5.138791e+001 1.396714e+002 -5.299944e+001 1.042970e+002 -3.974335e+001 4.978852e+001
86685000 -7.462250e-002 -3.167347e+001 -5.445958e+001 -1.543553e+002 -4.806943e+001 1.104182e+002 -4.360358e+001 3.817810e+001
87057187.5 -8.436815e-002 -3.184939e+001 -4.956921e+001 5.451310e+001 -5.010943e+001 1.219870e+001 -3.929993e+001 4.274050e+001
87429375 -7.974571e-002 -3.187201e+001 -6.907763e+001 -5.762458e+001 -4.932923e+001 1.106429e+001 -4.109508e+001 6.231424e+001
87801562.5 -1.021895e-001 -3.197314e+001 -6.667735e+001 -1.673989e+002 -5.719789e+001 -2.751184e+001 -4.152935e+001 6.727731e+001
88173750 -5.870590e-002 -3.194905e+001 -6.649256e+001 1.622927e+002 -5.442033e+001 1.788329e+002 -4.108810e+001 4.695838e+001
88545937.5 -1.551259e-001 -3.224915e+001 -5.043489e+001 -1.137709e+002 -4.958874e+001 2.112616e+001 -4.054826e+001 1.981652e+001
88918125 -9.830246e-002 -3.193348e+001 -4.880420e+001 1.219914e+002 -4.862372e+001 2.561923e+001 -4.122517e+001 5.322181e+001
89290312.5 -1.280541e-001 -3.254880e+001 -6.310763e+001 -3.176094e+001 -4.542366e+001 1.741682e+002 -4.093695e+001 5.627993e+001
89662500 -5.868994e-002 -3.271172e+001 -4.432646e+001 7.614023e+001 -5.325874e+001 -9.852549e+000 -3.898227e+001 7.593232e+001
90034687.5 -6.036737e-002 -3.281820e+001 -5.272401e+001 -1.592453e+002 -5.617680e+001 -5.341204e+001 -3.817904e+001 7.530573e+001
90406875 -1.094776e-001 -3.305712e+001 -4.867677e+001 1.086587e+002 -6.480062e+001 5.772727e+001 -4.219478e+001 5.810490e+001
90779062.5 -8.891772e-002 -3.281138e+001 -5.656862e+001 1.651774e+002 -5.399227e+001 -1.148601e+002 -3.875627e+001 4.522736e+001
91151250 -4.494019e-002 -3.292743e+001 -5.787144e+001 3.936423e+000 -4.943875e+001 9.171874e+001 -3.795201e+001 4.967982e+001
91523437.5 -7.792644e-002 -3.321487e+001 -6.516759e+001 2.667515e+001 -5.754693e+001 4.016297e+001 -4.061321e+001 6.977602e+001
91895625 -7.542697e-002 -3.320119e+001 -5.623545e+001 -3.153508e+001 -5.026069e+001 7.581040e+001 -3.944606e+001 4.956635e+001
92267812.5 -1.082198e-001 -3.353196e+001 -4.657838e+001 1.298388e+002 -5.173784e+001 -3.543078e+001 -3.864613e+001 6.636039e+001
92640000 -5.881740e-002 -3.361150e+001 -5.544695e+001 -8.995148e+001 -4.599829e+001 2.695662e+001 -3.948198e+001 4.672433e+001
93012187.5 -1.065983e-001 -3.352463e+001 -5.229611e+001 1.377561e+002 -6.252679e+001 -2.272335e+001 -4.011359e+001 4.510870e+001
93384375 -6.598546e-002 -3.418507e+001 -8.111815e+001 -1.345330e+001 -6.292096e+001 3.789219e+001 -4.236790e+001 4.490983e+001
93756562.5 -1.043354e-001 -3.408874e+001 -5.564354e+001 5.400905e+001 -4.500846e+001 1.147437e+001 -3.967994e+001 4.508008e+001
94128750 -1.072084e-001 -3.395255e+001 -5.671177e+001 -1.100462e+002 -5.566787e+001 4.917169e+001 -3.985829e+001 4.812139e+001
94500937.5 -8.753515e-002 -3.428859e+001 -4.465485e+001 -1.033899e+002 -5.563240e+001 2.420153e+001 -4.005413e+001 5.644753e+001
94873125 -6.604494e-002 -3.433974e+001 -5.494135e+001 1.200809e+002 -5.668636e+001 1.145815e+002 -4.197641e+001 2.936656e+001
95245312.5 -9.111051e-002 -3.469145e+001 -4.580850e+001 5.512798e+001 -5.671433e+001 -1.130320e+002 -3.968962e+001 6.854877e+001
95617500 -8.856077e-002 -3.455419e+001 -5.572459e+001 -1.241550e+002 -4.774480e+001 1.467565e+002 -4.321526e+001 7.715263e+001
95989687.5 -1.353980e-001 -3.503422e+001 -5.387124e+001 -1.089716e+002 -4.767331e+001 1.195880e+002 -4.473162e+001 6.252080e+001
96361875 -6.851345e-002 -3.471025e+001 -5.155056e+001 3.332898e+000 -5.649888e+001 -1.666696e+002 -3.902184e+001 4.037841e+001
96734062.5 -7.895675e-002 -3.509691e+001 -4.855715e+001 -7.247956e+001 -5.577602e+001 1.745123e+002 -3.918567e+001 5.395754e+001
97106250 -4.938939e-002 -3.505866e+001 -5.257106e+001 -1.575132e+002 -5.933267e+001 -3.415315e+001 -3.925511e+001 4.664034e+001
97478437.5 -7.017072e-002 -3.519976e+001 -4.742761e+001 8.404883e+001 -4.848680e+001 1.743794e+002 -4.093322e+001 3.317637e+001
97850625 -8.191063e-002 -3.551613e+001 -5.793449e+001 -1.449869e+002 -5.284094e+001 -4.950527e+001 -3.969856e+001 3.838252e+001
98222812.5 -1.258722e-001 -3.541971e+001 -4.660516e+001 3.021159e+001 -5.234658e+001 -3.747809e+001 -4.164075e+001 4.301369e+001
98595000 -1.975039e-002 -3.565700e+001 -5.514015e+001 9.377262e+001 -5.787533e+001 -3.527194e+000 -4.002888e+001 5.553978e+001
98967187.5 -3.790585e-002 -3.596359e+001 -4.887516e+001 1.686170e+002 -5.267841e+001 -4.699119e+001 -3.829328e+001 5.403029e+001
99339375 -7.831103e-002 -3.591169e+001 -4.631796e+001 -1.960209e+001 -4.524538e+001 -6.200062e+001 -3.945546e+001 4.681577e+001
99711562.5 -6.772843e-002 -3.591020e+001 -5.052768e+001 -7.363264e+001 -4.639347e+001 1.555169e+002 -4.039504e+001 5.554100e+001
100083750 -1.009084e-001 -3.580341e+001 -5.316977e+001 1.273639e+002 -6.363351e+001 4.760922e+001 -4.007168e+001 6.066011e+001
100455937.5 -7.081027e-002 -3.672565e+001 -6.035368e+001 8.923712e+001 -5.324869e+001 1.563349e+002 -5.061147e+001 5.115018e+001
100828125 -8.727697e-002 -3.626083e+001 -5.973935e+001 -1.375747e+002 -5.231705e+001 -4.487071e+001 -3.776300e+001 4.403682e+001
101200312.5 -1.385796e-001 -3.653537e+001 -5.528296e+001 1.213902e+002 -5.287230e+001 -1.725771e+002 -3.997155e+001 5.887036e+001
