!Agilent Technologies,E8364A,US41440144,A.06.04.32
!Agilent E8364A: A.06.04.32
!Date: Monday, February 26, 2018 15:11:15
!Correction: S11(Full 2 Port(1,2)) S21(Full 2 Port(1,2)) S12(Full 2 Port(1,2)) S22(Full 2 Port(1,2)) 
!S2P File: Measurements: S11, S21, S12, S22:
# Hz S  dB   R 50
45000000 -6.024634e-002 -1.662436e+001 -4.568499e+001 -2.961974e+001 -4.436661e+001 -9.829942e+001 3.331062e-002 -1.965570e+001
45372187.5 -2.400974e-002 -1.694418e+001 -4.370934e+001 -1.228645e+001 -4.786651e+001 -4.251044e+001 -4.987665e-002 -1.975583e+001
45744375 -8.313444e-002 -1.686441e+001 -5.124442e+001 7.394536e+000 -5.101336e+001 -8.577878e+000 -1.682565e-002 -1.969960e+001
46116562.5 -7.651844e-002 -1.743953e+001 -4.631350e+001 -5.061303e+001 -4.490005e+001 -9.754667e+001 -3.704173e-003 -1.999580e+001
46488750 -4.509750e-002 -1.732558e+001 -4.632164e+001 3.752472e+001 -4.574950e+001 -2.554330e+001 1.286366e-002 -2.104001e+001
46860937.5 -4.820368e-002 -1.707043e+001 -5.380042e+001 5.276844e+000 -4.554432e+001 -1.686992e+002 -3.111190e-003 -2.048110e+001
47233125 -4.961372e-002 -1.795032e+001 -4.220337e+001 5.520013e+001 -4.923595e+001 1.526918e+002 -3.731341e-002 -2.075776e+001
47605312.5 -6.432275e-002 -1.703138e+001 -5.442454e+001 -2.887782e+001 -4.555579e+001 8.703543e+001 -3.242885e-003 -2.103008e+001
47977500 -2.227245e-002 -1.801264e+001 -4.931913e+001 1.091084e+002 -5.452650e+001 -4.104667e+001 3.882085e-002 -2.074903e+001
48349687.5 -3.041405e-002 -1.781474e+001 -4.261742e+001 -1.525933e+002 -5.691076e+001 1.455233e+002 -1.281691e-002 -2.071371e+001
48721875 -4.187405e-002 -1.774841e+001 -5.034339e+001 1.069236e+002 -4.744331e+001 -8.596000e+001 -6.766347e-002 -2.081267e+001
49094062.5 -6.080514e-002 -1.793248e+001 -4.879492e+001 1.303722e+002 -4.172357e+001 4.599711e+001 -3.569299e-002 -2.128195e+001
49466250 -5.831099e-002 -1.788616e+001 -5.118861e+001 1.220268e+002 -4.476188e+001 1.405128e+002 4.107771e-002 -2.181128e+001
49838437.5 -6.140989e-002 -1.805188e+001 -5.224459e+001 1.499651e+002 -5.993039e+001 1.708970e+002 -1.943760e-002 -2.180083e+001
50210625 2.700804e-002 -1.823776e+001 -4.802921e+001 -1.261245e+002 -4.645838e+001 7.023474e+000 -2.877723e-002 -2.207799e+001
50582812.5 -3.168434e-002 -1.808330e+001 -5.260874e+001 -1.029877e+002 -5.129387e+001 -8.714028e+001 -5.543988e-002 -2.193090e+001
50955000 -2.759994e-002 -1.869612e+001 -4.515160e+001 7.540823e+001 -5.995427e+001 -9.580566e+001 -3.227568e-002 -2.216476e+001
51327187.5 -9.707564e-003 -1.865043e+001 -5.327250e+001 1.714902e+002 -4.090191e+001 -1.255662e+002 -4.886637e-002 -2.283209e+001
51699375 -2.219960e-003 -1.924637e+001 -4.621191e+001 -1.128354e+002 -4.953622e+001 1.384742e+002 1.876944e-002 -2.266508e+001
52071562.5 8.464047e-003 -1.914298e+001 -4.816780e+001 -1.551605e+001 -4.582035e+001 -1.433616e+002 -1.895041e-002 -2.264501e+001
52443750 -3.164918e-002 -1.935775e+001 -5.148969e+001 1.153887e+002 -4.712097e+001 -1.347035e+002 -2.648537e-002 -2.280976e+001
52815937.5 -5.127765e-002 -1.922763e+001 -4.863510e+001 9.362889e+001 -4.595779e+001 -1.566766e+002 3.527968e-002 -2.302037e+001
53188125 1.003985e-002 -1.955806e+001 -6.176495e+001 -1.153799e+002 -5.135445e+001 5.127330e+001 -1.378519e-002 -2.307129e+001
53560312.5 -3.063860e-002 -1.946831e+001 -6.051269e+001 9.954748e+001 -4.109837e+001 3.515614e+001 -1.051804e-002 -2.341540e+001
53932500 -3.995623e-002 -1.971451e+001 -4.354227e+001 1.106958e+002 -4.479059e+001 5.904694e+001 -4.165614e-002 -2.388475e+001
54304687.5 -5.787054e-002 -1.967301e+001 -4.710851e+001 6.660342e+001 -5.114935e+001 9.890386e+001 1.590281e-002 -2.370393e+001
54676875 -9.550036e-002 -1.989358e+001 -4.727094e+001 6.488980e-002 -4.688833e+001 -1.606312e+002 -6.565565e-002 -2.384563e+001
55049062.5 -7.666285e-002 -2.030681e+001 -5.062779e+001 1.208120e+002 -4.218706e+001 -1.061355e+002 -4.574670e-003 -2.410223e+001
55421250 -3.769536e-002 -2.067717e+001 -5.580638e+001 -1.279019e+002 -4.385732e+001 -1.693460e+002 -1.577664e-002 -2.396696e+001
55793437.5 -3.946682e-002 -2.057719e+001 -5.418293e+001 1.751885e+002 -4.769956e+001 -1.609650e+002 1.831878e-002 -2.437763e+001
56165625 -3.134677e-002 -2.048804e+001 -5.084242e+001 -1.393796e+002 -5.306630e+001 -7.093050e+001 -7.577769e-002 -2.450433e+001
56537812.5 -1.202109e-001 -2.043370e+001 -5.346128e+001 9.521348e+001 -4.089454e+001 2.667425e+001 -9.493097e-003 -2.440290e+001
56910000 -5.903348e-002 -2.100526e+001 -4.926506e+001 -1.707777e+002 -4.988964e+001 -1.551747e+002 -2.589937e-002 -2.485519e+001
57282187.5 -8.701845e-002 -2.104904e+001 -4.647187e+001 1.584550e+002 -6.028428e+001 -4.618364e+000 -2.355195e-002 -2.525713e+001
57654375 -6.177649e-002 -2.114117e+001 -4.873103e+001 8.414983e+001 -4.046172e+001 1.620190e+002 -1.595757e-002 -2.527012e+001
58026562.5 -2.911988e-002 -2.109057e+001 -4.844500e+001 8.591965e+000 -4.977908e+001 -8.728811e+001 -2.740922e-002 -2.523993e+001
58398750 -1.119285e-002 -2.145730e+001 -4.931155e+001 5.589751e+001 -4.606636e+001 -2.243735e+001 -3.943731e-003 -2.571451e+001
58770937.5 -6.160757e-002 -2.173940e+001 -4.513387e+001 1.383184e+002 -4.368232e+001 1.013596e+002 2.547919e-002 -2.567541e+001
59143125 -1.779175e-002 -2.174166e+001 -4.404144e+001 -3.291967e+001 -4.412729e+001 1.026897e+002 -7.225489e-002 -2.600755e+001
59515312.5 -5.769850e-002 -2.185437e+001 -4.900815e+001 1.268834e+002 -4.753880e+001 -7.449108e+001 -6.979123e-002 -2.639147e+001
59887500 -8.119417e-002 -2.167486e+001 -5.542390e+001 8.082397e+001 -6.011929e+001 -8.180411e+001 -5.288778e-002 -2.618535e+001
60259687.5 -8.171484e-002 -2.209613e+001 -4.867546e+001 1.469348e+002 -5.249784e+001 1.590904e+002 -3.291018e-002 -2.648291e+001
60631875 -5.769041e-002 -2.208261e+001 -5.159113e+001 8.353653e+000 -5.176404e+001 1.208804e+002 3.228137e-002 -2.636372e+001
61004062.5 -2.518740e-002 -2.230983e+001 -5.501669e+001 -7.049246e+001 -4.172567e+001 -1.163444e+002 -1.663852e-002 -2.674454e+001
61376250 -6.584532e-002 -2.241603e+001 -5.129063e+001 7.609125e+001 -4.763968e+001 1.361316e+002 -2.541499e-002 -2.715661e+001
61748437.5 -5.700305e-002 -2.271554e+001 -5.281876e+001 8.189735e+001 -5.441434e+001 1.647891e+002 -5.737633e-002 -2.688251e+001
62120625 -4.632622e-002 -2.280469e+001 -5.352654e+001 -7.939909e+001 -4.640244e+001 8.440742e+001 -6.023445e-002 -2.693638e+001
62492812.5 -7.421734e-002 -2.269059e+001 -4.667572e+001 5.316644e+001 -5.110786e+001 7.123631e+001 -5.514533e-002 -2.735781e+001
62865000 -4.871526e-002 -2.275265e+001 -4.387392e+001 -3.803278e+001 -5.047582e+001 -4.016761e+001 -6.182374e-002 -2.760811e+001
63237187.5 -4.595880e-002 -2.289436e+001 -4.559611e+001 -1.292429e+002 -4.842518e+001 -9.388255e+001 -1.326405e-002 -2.778261e+001
63609375 -8.252310e-002 -2.323753e+001 -4.370087e+001 1.232196e+001 -4.517228e+001 8.026769e+001 3.558004e-002 -2.799650e+001
63981562.5 -3.505529e-002 -2.319987e+001 -5.179413e+001 3.664750e+001 -5.101179e+001 1.796758e+002 -2.159745e-002 -2.808612e+001
64353750 -1.059751e-001 -2.333013e+001 -5.425159e+001 1.306354e+002 -6.031260e+001 4.449292e+000 -5.500279e-002 -2.790728e+001
64725937.5 -4.572661e-002 -2.397364e+001 -5.426110e+001 1.288153e+002 -4.868194e+001 5.169639e+001 -3.945402e-002 -2.828888e+001
65098125 -3.732238e-002 -2.369546e+001 -4.593230e+001 -7.895986e+001 -5.237351e+001 1.175405e+002 -5.961737e-002 -2.889914e+001
65470312.5 -1.879547e-002 -2.414105e+001 -4.729173e+001 1.307670e+001 -5.064114e+001 -7.038293e+001 -8.167685e-002 -2.888352e+001
65842500 -8.231512e-002 -2.414918e+001 -4.921437e+001 -8.237547e+001 -5.313803e+001 1.224501e+002 -3.691987e-002 -2.882313e+001
66214687.5 -4.761103e-002 -2.428732e+001 -4.549090e+001 1.188882e+002 -4.586344e+001 1.549496e+002 -1.096813e-002 -2.905475e+001
66586875 -5.502319e-002 -2.443940e+001 -4.524535e+001 -9.632796e+001 -5.074716e+001 2.324286e+000 -4.761110e-002 -2.891439e+001
66959062.5 -6.635235e-002 -2.440718e+001 -4.427537e+001 8.859974e+001 -4.638467e+001 -3.051904e+001 -3.192068e-002 -2.941760e+001
67331250 -6.292923e-002 -2.462104e+001 -4.982739e+001 1.674242e+002 -5.121888e+001 -8.000764e+001 -3.968066e-002 -2.937707e+001
67703437.5 -5.169587e-002 -2.471789e+001 -5.836279e+001 9.986334e+001 -4.851572e+001 -3.192522e+001 1.636397e-002 -2.983459e+001
68075625 -6.816085e-002 -2.516636e+001 -5.195707e+001 8.665790e+001 -6.086181e+001 -3.583093e+001 -3.910803e-002 -2.973689e+001
68447812.5 -3.230945e-002 -2.506974e+001 -4.890162e+001 -4.611188e+001 -4.763285e+001 5.639621e+001 -5.441061e-002 -2.985934e+001
68820000 -6.981792e-002 -2.536288e+001 -5.732255e+001 -1.680660e+002 -5.468931e+001 -1.538724e+002 -7.797815e-002 -3.034060e+001
69192187.5 -7.230007e-002 -2.516093e+001 -4.049677e+001 1.106737e+002 -4.779054e+001 -7.465791e+001 -4.562244e-002 -3.019175e+001
69564375 -5.631361e-002 -2.559939e+001 -4.820290e+001 -1.362710e+002 -4.602799e+001 1.471908e+002 1.541799e-002 -3.058213e+001
69936562.5 -6.967797e-002 -2.534052e+001 -4.488781e+001 2.961422e+001 -4.821604e+001 -1.103382e+002 -4.702228e-002 -3.046860e+001
70308750 -6.992683e-002 -2.543435e+001 -4.504794e+001 8.113157e+001 -4.956520e+001 -6.306304e+001 -1.541124e-002 -3.098049e+001
70680937.5 -9.197953e-002 -2.583744e+001 -4.926889e+001 1.106614e+002 -5.020490e+001 -1.239491e+002 -8.543751e-002 -3.101765e+001
71053125 -6.042207e-002 -2.628795e+001 -5.505312e+001 -1.442344e+002 -5.709148e+001 -1.081893e+001 -7.107813e-002 -3.130853e+001
71425312.5 -9.236144e-002 -2.621304e+001 -5.328127e+001 1.670908e+002 -4.744082e+001 1.777918e+002 -1.078392e-001 -3.167762e+001
71797500 -2.138825e-002 -2.643963e+001 -5.211860e+001 1.420811e+002 -5.123583e+001 -1.526835e+002 -2.561519e-002 -3.144716e+001
72169687.5 -6.806382e-002 -2.622035e+001 -5.431168e+001 -1.175711e+002 -5.489785e+001 4.282478e+001 -6.596027e-002 -3.202556e+001
72541875 -7.062767e-002 -2.674212e+001 -4.469029e+001 1.070592e+002 -4.221069e+001 -1.072920e+002 -3.229278e-002 -3.178443e+001
72914062.5 -7.007046e-002 -2.660797e+001 -4.776016e+001 -1.661172e+001 -5.854442e+001 1.055407e+002 -8.925361e-002 -3.171640e+001
73286250 -3.960684e-002 -2.688453e+001 -5.726748e+001 -2.227859e+001 -6.022650e+001 1.712531e+002 -2.449575e-002 -3.209470e+001
73658437.5 -8.216016e-002 -2.699022e+001 -4.825511e+001 -9.131613e+001 -5.191704e+001 -5.410892e+001 -6.871580e-002 -3.198055e+001
74030625 -4.533973e-002 -2.680011e+001 -5.504971e+001 1.125147e+000 -4.286374e+001 -4.275232e+001 -6.755344e-002 -3.199633e+001
74402812.5 -3.781155e-002 -2.732766e+001 -4.943682e+001 1.310202e+002 -5.246930e+001 -4.975980e+001 -5.450838e-003 -3.284366e+001
74775000 -4.533102e-002 -2.718922e+001 -4.949027e+001 3.431120e+001 -4.989271e+001 -7.738969e+001 -3.130892e-002 -3.276785e+001
75147187.5 -4.422270e-002 -2.726790e+001 -4.822491e+001 1.401044e+002 -4.898307e+001 1.203696e+002 -9.509332e-002 -3.272169e+001
75519375 -6.156879e-002 -2.782142e+001 -6.898463e+001 7.741148e+001 -4.912729e+001 -3.952696e+001 -1.349674e-001 -3.301189e+001
75891562.5 -9.827479e-002 -2.767974e+001 -4.958373e+001 5.056001e+001 -4.204560e+001 -1.668015e+002 -7.268902e-002 -3.374831e+001
76263750 -8.484617e-002 -2.820818e+001 -4.877555e+001 -1.559918e+002 -5.533111e+001 5.895969e+001 1.049283e-002 -3.336397e+001
76635937.5 -7.026634e-002 -2.801318e+001 -5.318119e+001 1.272727e+002 -5.325032e+001 -1.785865e+001 -3.906919e-002 -3.357851e+001
77008125 -6.931113e-002 -2.815174e+001 -4.855550e+001 -1.749578e+002 -6.313413e+001 6.287777e+001 -6.159281e-002 -3.399241e+001
77380312.5 -5.654154e-002 -2.833431e+001 -4.557071e+001 6.318062e+001 -5.831300e+001 1.641716e+002 -4.755803e-002 -3.356498e+001
77752500 -6.779334e-002 -2.843915e+001 -5.679921e+001 2.938095e+001 -5.315615e+001 -1.459189e+002 -5.916854e-002 -3.413440e+001
78124687.5 -4.911094e-002 -2.869737e+001 -4.645200e+001 -1.300587e+001 -4.736061e+001 1.284344e+002 -6.996244e-002 -3.441669e+001
78496875 -7.425714e-002 -2.886635e+001 -4.864980e+001 1.107186e+001 -5.177585e+001 2.714285e+001 -5.514436e-002 -3.430647e+001
78869062.5 -7.296378e-002 -2.872196e+001 -4.600410e+001 5.823149e+001 -4.772356e+001 -3.911462e+000 -3.650367e-002 -3.470038e+001
79241250 -7.109337e-002 -2.887152e+001 -4.896138e+001 1.083175e+002 -4.512855e+001 -2.327225e+001 -4.783858e-002 -3.448626e+001
79613437.5 -6.096512e-002 -2.888857e+001 -4.517980e+001 1.469647e+002 -4.843731e+001 -3.739390e+001 -8.743897e-002 -3.433820e+001
79985625 -8.843494e-002 -2.908343e+001 -5.219674e+001 5.998911e+000 -4.396895e+001 -4.950878e+001 -8.269395e-002 -3.511705e+001
80357812.5 -9.295110e-002 -2.933898e+001 -5.120792e+001 5.202959e+001 -4.813304e+001 9.675641e+001 -6.369941e-002 -3.519532e+001
80730000 -7.171907e-002 -2.943048e+001 -4.699246e+001 1.108887e+002 -5.561637e+001 -1.007629e+002 3.425903e-003 -3.549695e+001
81102187.5 -9.371463e-002 -2.956893e+001 -5.888007e+001 2.262584e+001 -4.533063e+001 1.281493e+001 -6.631469e-002 -3.515632e+001
81474375 -8.082300e-002 -2.956454e+001 -5.135085e+001 -3.875553e+001 -4.781973e+001 -6.223743e+001 -3.439910e-002 -3.592453e+001
81846562.5 -5.894300e-002 -2.994797e+001 -5.299616e+001 4.052228e+001 -5.033607e+001 1.257973e+002 -3.944542e-002 -3.596085e+001
82218750 -7.727896e-002 -2.946028e+001 -4.920638e+001 -1.469238e+002 -5.018895e+001 -8.467173e+001 -9.293161e-003 -3.617398e+001
82590937.5 -7.313015e-002 -3.019227e+001 -5.180808e+001 -1.155577e+002 -5.282952e+001 7.720454e+001 -4.172427e-002 -3.610970e+001
82963125 -6.651534e-002 -3.002086e+001 -5.465289e+001 5.118516e+001 -5.434948e+001 -1.768527e+002 -3.318037e-002 -3.609625e+001
83335312.5 -1.578953e-001 -3.020524e+001 -5.072341e+001 1.220906e+002 -6.143324e+001 4.120607e+001 -1.702534e-002 -3.685535e+001
83707500 -8.983033e-002 -3.042293e+001 -5.095859e+001 -3.655108e+001 -4.614511e+001 -1.166492e+002 -1.307981e-001 -3.682852e+001
84079687.5 -5.842055e-002 -3.058180e+001 -5.582186e+001 6.349316e+001 -5.463572e+001 1.074565e+001 -2.950094e-002 -3.680734e+001
84451875 -7.098369e-002 -3.075247e+001 -4.986544e+001 1.072772e+002 -4.821684e+001 -1.087374e+002 -3.172283e-002 -3.719263e+001
84824062.5 -9.244847e-002 -3.097935e+001 -4.849553e+001 1.691773e+002 -4.921017e+001 3.192612e+001 -4.755913e-002 -3.697611e+001
85196250 -4.695898e-002 -3.112103e+001 -5.044336e+001 1.032935e+001 -6.065783e+001 8.767509e+001 -9.208355e-002 -3.750501e+001
85568437.5 -7.617173e-002 -3.126134e+001 -5.836746e+001 1.205241e+002 -4.536082e+001 1.482809e+002 -7.034744e-002 -3.740908e+001
85940625 -5.132037e-002 -3.143112e+001 -5.950013e+001 6.281414e+001 -4.738929e+001 -1.181371e+002 -4.913920e-002 -3.755954e+001
86312812.5 -8.228736e-002 -3.132755e+001 -4.945456e+001 1.126583e+002 -6.626773e+001 -7.998253e+001 -6.823096e-002 -3.765760e+001
86685000 -1.183117e-001 -3.175285e+001 -5.288766e+001 -1.264062e+002 -4.923570e+001 9.215765e+001 -6.437336e-002 -3.792798e+001
87057187.5 -9.643855e-002 -3.158480e+001 -5.381399e+001 1.427473e+002 -5.251698e+001 7.072707e+000 -6.841029e-002 -3.824015e+001
87429375 -8.935881e-002 -3.199090e+001 -4.683945e+001 -6.087516e+001 -4.931029e+001 8.338754e+001 -3.652307e-002 -3.877876e+001
87801562.5 -1.247510e-001 -3.211768e+001 -5.547433e+001 -8.517912e+001 -5.385323e+001 1.120091e+002 -9.997780e-002 -3.858169e+001
88173750 -7.253084e-002 -3.209510e+001 -5.565039e+001 -1.723020e+002 -5.767066e+001 9.064788e+000 -4.396816e-002 -3.860187e+001
88545937.5 -1.485357e-001 -3.239016e+001 -5.226517e+001 -1.441579e+002 -6.531507e+001 1.458788e+001 -3.973484e-002 -3.851824e+001
88918125 -1.495263e-001 -3.207513e+001 -5.819735e+001 9.548543e+001 -5.885827e+001 1.746783e+001 -4.612146e-002 -3.904339e+001
89290312.5 -1.329293e-001 -3.266393e+001 -6.461162e+001 -1.518041e+002 -4.900314e+001 1.129405e+002 -6.343804e-002 -3.886614e+001
89662500 -1.150584e-001 -3.276910e+001 -4.701222e+001 6.800935e+001 -5.579612e+001 -8.984148e+001 -4.665698e-002 -3.930780e+001
90034687.5 -1.113735e-001 -3.241159e+001 -5.791478e+001 -1.279614e+002 -4.533953e+001 -1.326541e+001 -3.347129e-002 -3.955465e+001
90406875 -9.819528e-002 -3.308851e+001 -4.844926e+001 1.661589e+002 -5.287194e+001 7.027982e+001 -3.278231e-002 -3.974882e+001
90779062.5 -9.267207e-002 -3.276928e+001 -5.329888e+001 -1.463045e+000 -5.319941e+001 -1.119346e+002 -1.229164e-001 -3.981429e+001
91151250 -6.149025e-002 -3.290764e+001 -4.604190e+001 -3.920295e+001 -5.221906e+001 -1.326244e+002 -9.142444e-002 -4.005098e+001
91523437.5 -6.007550e-002 -3.316034e+001 -6.257359e+001 8.441885e+001 -4.383749e+001 -1.748496e+002 -9.352235e-002 -4.071398e+001
91895625 -1.104057e-001 -3.337161e+001 -6.267985e+001 7.467848e+001 -5.945812e+001 1.668683e+002 -9.231874e-002 -4.044072e+001
92267812.5 -8.879775e-002 -3.332944e+001 -5.032418e+001 1.431952e+002 -5.351466e+001 2.391083e-002 -1.498869e-001 -4.057198e+001
92640000 -2.415074e-002 -3.381880e+001 -5.175917e+001 -1.259325e+002 -5.311933e+001 2.194176e+001 -8.177410e-002 -4.061321e+001
93012187.5 -1.120911e-001 -3.365609e+001 -5.146241e+001 1.486559e+002 -5.053310e+001 -5.531382e+001 -6.431847e-002 -4.105647e+001
93384375 -6.412200e-002 -3.391706e+001 -5.938280e+001 -1.513963e+002 -5.370147e+001 3.342554e+001 -5.430519e-002 -4.086652e+001
93756562.5 -7.269960e-002 -3.383385e+001 -5.151450e+001 1.425470e+002 -4.421114e+001 9.939952e+000 -8.894663e-002 -4.120750e+001
94128750 -1.089896e-001 -3.423290e+001 -6.770964e+001 2.953336e+000 -5.090436e+001 -4.455022e+001 -7.484138e-002 -4.125031e+001
94500937.5 -9.574968e-002 -3.434053e+001 -4.823422e+001 -1.428972e+002 -6.168671e+001 1.606675e+002 -4.980780e-002 -4.139276e+001
94873125 -1.135243e-001 -3.439013e+001 -5.190981e+001 1.103983e+002 -5.475941e+001 -1.648717e+002 -4.142554e-002 -4.173427e+001
95245312.5 -8.524358e-002 -3.437999e+001 -4.635899e+001 7.210822e+001 -4.814420e+001 -6.890462e+001 -7.604392e-002 -4.197558e+001
95617500 -9.835815e-002 -3.462614e+001 -4.880363e+001 -1.746333e+002 -5.003537e+001 1.314763e+002 -1.310590e-002 -4.229634e+001
95989687.5 -1.014655e-001 -3.488563e+001 -4.733001e+001 1.757126e+002 -5.205404e+001 8.334870e+001 -7.221565e-002 -4.227643e+001
96361875 -9.553377e-002 -3.483234e+001 -6.295507e+001 2.236700e+001 -4.723258e+001 -1.474784e+002 -6.868487e-002 -4.212545e+001
96734062.5 -9.226945e-002 -3.504852e+001 -5.171046e+001 2.772172e+001 -5.075601e+001 -1.160953e+002 -9.328125e-002 -4.226691e+001
97106250 -6.722009e-002 -3.518867e+001 -6.844646e+001 -7.981499e+001 -6.338770e+001 -5.441784e+001 -5.467847e-002 -4.255920e+001
97478437.5 -6.697214e-002 -3.542850e+001 -4.680392e+001 1.111585e+002 -6.174265e+001 -1.480165e+002 -5.696435e-002 -4.269207e+001
97850625 -9.945674e-002 -3.569299e+001 -5.301414e+001 1.561602e+002 -5.202581e+001 -2.981154e+001 -5.053031e-002 -4.270000e+001
98222812.5 -9.797592e-002 -3.562823e+001 -6.624280e+001 -8.346535e+001 -4.767947e+001 -7.642653e+000 -8.283827e-002 -4.276380e+001
98595000 -7.443377e-002 -3.569986e+001 -7.272106e+001 4.595712e+001 -4.758104e+001 -1.167790e+002 -7.556564e-002 -4.368062e+001
98967187.5 -5.982011e-002 -3.583728e+001 -4.490682e+001 -1.579080e+002 -4.538808e+001 -2.048407e+000 -1.004640e-001 -4.358811e+001
99339375 -8.320679e-002 -3.569722e+001 -5.090389e+001 -3.274852e+001 -4.977258e+001 1.521204e+001 -1.004100e-001 -4.361737e+001
99711562.5 -7.157443e-002 -3.593840e+001 -4.450459e+001 -1.259618e+002 -5.245496e+001 7.837491e+001 -4.505734e-002 -4.409268e+001
100083750 -1.034947e-001 -3.603347e+001 -5.587840e+001 1.744458e+002 -5.624446e+001 -1.677446e+002 -1.028794e-001 -4.415755e+001
100455937.5 -8.926486e-002 -3.645673e+001 -5.467932e+001 9.463782e+001 -5.071245e+001 7.554304e+001 -7.204095e-002 -4.425980e+001
100828125 -6.499501e-002 -3.650607e+001 -5.831081e+001 -1.025614e+001 -5.020553e+001 -1.082209e+002 -8.657664e-002 -4.423015e+001
