!Agilent Technologies,E8364A,US41440144,A.06.04.32
!Agilent E8364A: A.06.04.32
!Date: Monday, February 26, 2018 16:58:26
!Correction: S11(Full 2 Port(1,2)) S21(Full 2 Port(1,2)) S12(Full 2 Port(1,2)) S22(Full 2 Port(1,2)) 
!S2P File: Measurements: S11, S21, S12, S22:
# Hz S  dB   R 50
2000000000 -1.917376e+000 8.385023e+001 -4.484229e+001 -1.384176e+002 2.366326e+001 -2.313426e+000 -1.447422e+001 1.109539e+002
2001250000 -1.894154e+000 8.336075e+001 -4.410328e+001 -1.369741e+002 2.373058e+001 -3.088338e+000 -1.438351e+001 1.100729e+002
2002500000 -1.911790e+000 8.328461e+001 -4.473291e+001 -1.396998e+002 2.371181e+001 -3.072118e+000 -1.436184e+001 1.095848e+002
2003750000 -1.915904e+000 8.297826e+001 -4.582239e+001 -1.348033e+002 2.374908e+001 -3.857326e+000 -1.434579e+001 1.089729e+002
2005000000 -1.888352e+000 8.271199e+001 -4.504401e+001 -1.359350e+002 2.375786e+001 -4.321028e+000 -1.436591e+001 1.085175e+002
2006250000 -1.932683e+000 8.229392e+001 -4.414970e+001 -1.313673e+002 2.381417e+001 -4.769763e+000 -1.428949e+001 1.077217e+002
2007500000 -1.912429e+000 8.200788e+001 -4.503088e+001 -1.364494e+002 2.380049e+001 -5.246834e+000 -1.432047e+001 1.070645e+002
2008750000 -1.960195e+000 8.155497e+001 -4.338433e+001 -1.333798e+002 2.381956e+001 -5.579511e+000 -1.424905e+001 1.069093e+002
2010000000 -1.898108e+000 8.114638e+001 -4.413751e+001 -1.421891e+002 2.382550e+001 -6.333603e+000 -1.428503e+001 1.060085e+002
2011250000 -1.911662e+000 8.082230e+001 -4.540276e+001 -1.341085e+002 2.386051e+001 -6.809510e+000 -1.426234e+001 1.055035e+002
2012500000 -1.945970e+000 8.057348e+001 -4.511000e+001 -1.413484e+002 2.384122e+001 -7.264482e+000 -1.425497e+001 1.047878e+002
2013750000 -1.928959e+000 8.017530e+001 -4.412235e+001 -1.372923e+002 2.387695e+001 -7.776649e+000 -1.421738e+001 1.043911e+002
2015000000 -1.953887e+000 7.989960e+001 -4.400156e+001 -1.423549e+002 2.387209e+001 -8.074858e+000 -1.418496e+001 1.037018e+002
2016250000 -1.946993e+000 7.960122e+001 -4.459140e+001 -1.415959e+002 2.388997e+001 -8.831460e+000 -1.416445e+001 1.030452e+002
2017500000 -1.940056e+000 7.918005e+001 -4.434941e+001 -1.424150e+002 2.388261e+001 -9.445277e+000 -1.416311e+001 1.026240e+002
2018750000 -1.977905e+000 7.896330e+001 -4.504272e+001 -1.404024e+002 2.392246e+001 -9.979169e+000 -1.409745e+001 1.020494e+002
2020000000 -1.922563e+000 7.849953e+001 -4.385827e+001 -1.427509e+002 2.387105e+001 -1.003357e+001 -1.412380e+001 1.016408e+002
2021250000 -1.920491e+000 7.826745e+001 -4.385762e+001 -1.356054e+002 2.390853e+001 -1.087429e+001 -1.409925e+001 1.011522e+002
2022500000 -1.962554e+000 7.758038e+001 -4.515786e+001 -1.452124e+002 2.388489e+001 -1.169770e+001 -1.414238e+001 1.001058e+002
2023750000 -1.941625e+000 7.751208e+001 -4.410518e+001 -1.339799e+002 2.391787e+001 -1.155346e+001 -1.401930e+001 1.002181e+002
2025000000 -1.969687e+000 7.725545e+001 -4.528973e+001 -1.485455e+002 2.392316e+001 -1.222816e+001 -1.407134e+001 9.942940e+001
2026250000 -1.948826e+000 7.685876e+001 -4.364416e+001 -1.351799e+002 2.393069e+001 -1.282432e+001 -1.398600e+001 9.856152e+001
2027500000 -1.984435e+000 7.648808e+001 -4.402896e+001 -1.382527e+002 2.393457e+001 -1.332651e+001 -1.396145e+001 9.787617e+001
2028750000 -1.993657e+000 7.629969e+001 -4.320412e+001 -1.460024e+002 2.394711e+001 -1.346523e+001 -1.400249e+001 9.719008e+001
2030000000 -1.967646e+000 7.553764e+001 -4.529137e+001 -1.463431e+002 2.389642e+001 -1.421830e+001 -1.398307e+001 9.697467e+001
2031250000 -1.943584e+000 7.533654e+001 -4.347872e+001 -1.466443e+002 2.388573e+001 -1.492171e+001 -1.387593e+001 9.571758e+001
2032500000 -1.965732e+000 7.492782e+001 -4.464376e+001 -1.412422e+002 2.392956e+001 -1.497975e+001 -1.388139e+001 9.528544e+001
2033750000 -1.952905e+000 7.448844e+001 -4.420935e+001 -1.392858e+002 2.389040e+001 -1.570265e+001 -1.390973e+001 9.477485e+001
2035000000 -2.003375e+000 7.420761e+001 -4.448193e+001 -1.413162e+002 2.391893e+001 -1.615881e+001 -1.390667e+001 9.414109e+001
2036250000 -1.957065e+000 7.393834e+001 -4.424122e+001 -1.403264e+002 2.386027e+001 -1.629112e+001 -1.387635e+001 9.383154e+001
2037500000 -1.973597e+000 7.354552e+001 -4.423838e+001 -1.369988e+002 2.390090e+001 -1.668304e+001 -1.380808e+001 9.320724e+001
2038750000 -1.986588e+000 7.316177e+001 -4.460126e+001 -1.487211e+002 2.393056e+001 -1.687050e+001 -1.379694e+001 9.278919e+001
2040000000 -2.020297e+000 7.280725e+001 -4.303693e+001 -1.475458e+002 2.389234e+001 -1.766391e+001 -1.378105e+001 9.180349e+001
2041250000 -1.975528e+000 7.249348e+001 -4.339029e+001 -1.506048e+002 2.391800e+001 -1.800930e+001 -1.380918e+001 9.153406e+001
2042500000 -2.019142e+000 7.215481e+001 -4.403388e+001 -1.488401e+002 2.394304e+001 -1.821596e+001 -1.378005e+001 9.100703e+001
2043750000 -1.976390e+000 7.184754e+001 -4.346247e+001 -1.341600e+002 2.394778e+001 -1.856020e+001 -1.365323e+001 9.032405e+001
2045000000 -2.006310e+000 7.125485e+001 -4.363033e+001 -1.509515e+002 2.390079e+001 -1.887379e+001 -1.376457e+001 8.989857e+001
2046250000 -2.000537e+000 7.091965e+001 -4.400762e+001 -1.515202e+002 2.391538e+001 -1.934062e+001 -1.374140e+001 8.941888e+001
2047500000 -1.973802e+000 7.056327e+001 -4.433899e+001 -1.447418e+002 2.395348e+001 -1.931076e+001 -1.366677e+001 8.932764e+001
2048750000 -1.959785e+000 7.006207e+001 -4.436393e+001 -1.443904e+002 2.395957e+001 -1.994187e+001 -1.368013e+001 8.837947e+001
2050000000 -1.969050e+000 6.984813e+001 -4.410751e+001 -1.527184e+002 2.394171e+001 -2.000587e+001 -1.366797e+001 8.764069e+001
2051250000 -1.992399e+000 6.953245e+001 -4.367277e+001 -1.527258e+002 2.396532e+001 -2.062195e+001 -1.366549e+001 8.699227e+001
2052500000 -2.057988e+000 6.909081e+001 -4.515182e+001 -1.625854e+002 2.401888e+001 -2.075265e+001 -1.361639e+001 8.685790e+001
2053750000 -1.988054e+000 6.848440e+001 -4.384416e+001 -1.503544e+002 2.402934e+001 -2.107059e+001 -1.360532e+001 8.565258e+001
2055000000 -2.007170e+000 6.834105e+001 -4.440549e+001 -1.502384e+002 2.400768e+001 -2.146061e+001 -1.358645e+001 8.528407e+001
2056250000 -2.034958e+000 6.797174e+001 -4.420521e+001 -1.520211e+002 2.404372e+001 -2.147218e+001 -1.358266e+001 8.472537e+001
2057500000 -2.019685e+000 6.759452e+001 -4.470869e+001 -1.520189e+002 2.406529e+001 -2.169149e+001 -1.355309e+001 8.450340e+001
2058750000 -1.983044e+000 6.732493e+001 -4.406252e+001 -1.434067e+002 2.409082e+001 -2.223405e+001 -1.352069e+001 8.371548e+001
2060000000 -2.023613e+000 6.699139e+001 -4.382329e+001 -1.567813e+002 2.415212e+001 -2.248055e+001 -1.349676e+001 8.273154e+001
2061250000 -2.019302e+000 6.630440e+001 -4.354878e+001 -1.583440e+002 2.423975e+001 -2.265961e+001 -1.349337e+001 8.247674e+001
2062500000 -2.010989e+000 6.586465e+001 -4.321881e+001 -1.559758e+002 2.419732e+001 -2.259288e+001 -1.350645e+001 8.202177e+001
2063750000 -2.031620e+000 6.572166e+001 -4.262777e+001 -1.525450e+002 2.422394e+001 -2.307661e+001 -1.353395e+001 8.131137e+001
2065000000 -2.028665e+000 6.538852e+001 -4.404696e+001 -1.497001e+002 2.429346e+001 -2.393056e+001 -1.344631e+001 8.055988e+001
2066250000 -2.027437e+000 6.500449e+001 -4.373093e+001 -1.527404e+002 2.432134e+001 -2.404990e+001 -1.346858e+001 8.039906e+001
2067500000 -2.034221e+000 6.438415e+001 -4.328453e+001 -1.571602e+002 2.442072e+001 -2.432378e+001 -1.338568e+001 7.969074e+001
2068750000 -2.032886e+000 6.425691e+001 -4.371800e+001 -1.545159e+002 2.444361e+001 -2.476206e+001 -1.343920e+001 7.926806e+001
2070000000 -2.032151e+000 6.392285e+001 -4.338646e+001 -1.563449e+002 2.450414e+001 -2.519011e+001 -1.340935e+001 7.879646e+001
2071250000 -2.018497e+000 6.351775e+001 -4.223941e+001 -1.523326e+002 2.455227e+001 -2.581569e+001 -1.346898e+001 7.798448e+001
2072500000 -2.023290e+000 6.284621e+001 -4.367006e+001 -1.516448e+002 2.461375e+001 -2.585869e+001 -1.333660e+001 7.708649e+001
2073750000 -2.045416e+000 6.236781e+001 -4.350147e+001 -1.519775e+002 2.463886e+001 -2.634199e+001 -1.343627e+001 7.673387e+001
2075000000 -2.048863e+000 6.201643e+001 -4.333238e+001 -1.550451e+002 2.468436e+001 -2.669080e+001 -1.337704e+001 7.620534e+001
2076250000 -2.064094e+000 6.169538e+001 -4.302987e+001 -1.576825e+002 2.477481e+001 -2.734965e+001 -1.335838e+001 7.541833e+001
2077500000 -2.064595e+000 6.132703e+001 -4.353881e+001 -1.610918e+002 2.487011e+001 -2.809963e+001 -1.335695e+001 7.524020e+001
2078750000 -2.069366e+000 6.058826e+001 -4.258179e+001 -1.623132e+002 2.489189e+001 -2.855255e+001 -1.331723e+001 7.456252e+001
2080000000 -2.079882e+000 6.044862e+001 -4.269932e+001 -1.539775e+002 2.491103e+001 -2.902796e+001 -1.338892e+001 7.392704e+001
2081250000 -2.064452e+000 6.032092e+001 -4.287238e+001 -1.530648e+002 2.501035e+001 -2.985264e+001 -1.333487e+001 7.343432e+001
2082500000 -2.083671e+000 5.953226e+001 -4.231347e+001 -1.538029e+002 2.505224e+001 -3.013435e+001 -1.332714e+001 7.318388e+001
2083750000 -2.089351e+000 5.926643e+001 -4.297079e+001 -1.522820e+002 2.510116e+001 -3.106769e+001 -1.331599e+001 7.184209e+001
2085000000 -2.115240e+000 5.876903e+001 -4.313298e+001 -1.625364e+002 2.520313e+001 -3.183864e+001 -1.319232e+001 7.200363e+001
2086250000 -2.115002e+000 5.833046e+001 -4.300805e+001 -1.553763e+002 2.520639e+001 -3.220363e+001 -1.324817e+001 7.127797e+001
2087500000 -2.113027e+000 5.806713e+001 -4.289175e+001 -1.653318e+002 2.525074e+001 -3.267225e+001 -1.326020e+001 7.082042e+001
2088750000 -2.102810e+000 5.762112e+001 -4.274207e+001 -1.636347e+002 2.526106e+001 -3.374205e+001 -1.328567e+001 7.035741e+001
2090000000 -2.125585e+000 5.707987e+001 -4.180851e+001 -1.650152e+002 2.533591e+001 -3.457561e+001 -1.323269e+001 7.015151e+001
2091250000 -2.127093e+000 5.676184e+001 -4.287095e+001 -1.570402e+002 2.530852e+001 -3.534911e+001 -1.326852e+001 6.971072e+001
2092500000 -2.125077e+000 5.614171e+001 -4.327385e+001 -1.618208e+002 2.536547e+001 -3.643950e+001 -1.322194e+001 6.863622e+001
2093750000 -2.123337e+000 5.578989e+001 -4.370288e+001 -1.575634e+002 2.544431e+001 -3.692937e+001 -1.319671e+001 6.810349e+001
2095000000 -2.149946e+000 5.560648e+001 -4.268183e+001 -1.577970e+002 2.546202e+001 -3.731855e+001 -1.322433e+001 6.830558e+001
2096250000 -2.151358e+000 5.531934e+001 -4.188482e+001 -1.644546e+002 2.542612e+001 -3.865700e+001 -1.318042e+001 6.753038e+001
2097500000 -2.134181e+000 5.454492e+001 -4.468877e+001 -1.643626e+002 2.546553e+001 -3.938312e+001 -1.322055e+001 6.638969e+001
2098750000 -2.197119e+000 5.419907e+001 -4.115127e+001 -1.617620e+002 2.545274e+001 -4.027399e+001 -1.319734e+001 6.633911e+001
2100000000 -2.199940e+000 5.395749e+001 -4.209064e+001 -1.670183e+002 2.548307e+001 -4.091343e+001 -1.319631e+001 6.582296e+001
2101250000 -2.161042e+000 5.377893e+001 -4.243836e+001 -1.634283e+002 2.550277e+001 -4.169126e+001 -1.317080e+001 6.519572e+001
2102500000 -2.187684e+000 5.290307e+001 -4.272055e+001 -1.633805e+002 2.547313e+001 -4.247102e+001 -1.314777e+001 6.447965e+001
2103750000 -2.158618e+000 5.256861e+001 -4.306905e+001 -1.728306e+002 2.548496e+001 -4.333291e+001 -1.313106e+001 6.380943e+001
2105000000 -2.172863e+000 5.230059e+001 -4.330801e+001 -1.646626e+002 2.545890e+001 -4.420650e+001 -1.318933e+001 6.333199e+001
2106250000 -2.204926e+000 5.158089e+001 -4.276207e+001 -1.660981e+002 2.547676e+001 -4.466369e+001 -1.315054e+001 6.261946e+001
2107500000 -2.182708e+000 5.152515e+001 -4.271183e+001 -1.635804e+002 2.542969e+001 -4.569268e+001 -1.308670e+001 6.251299e+001
2108750000 -2.206162e+000 5.092165e+001 -4.320869e+001 -1.708856e+002 2.541803e+001 -4.612888e+001 -1.311136e+001 6.163705e+001
2110000000 -2.188952e+000 5.033435e+001 -4.187078e+001 -1.665385e+002 2.540425e+001 -4.708255e+001 -1.310276e+001 6.155220e+001
2111250000 -2.240340e+000 5.030806e+001 -4.236272e+001 -1.691629e+002 2.540866e+001 -4.766061e+001 -1.307646e+001 6.042674e+001
2112500000 -2.193632e+000 4.972560e+001 -4.141068e+001 -1.696785e+002 2.536650e+001 -4.842088e+001 -1.310786e+001 6.011777e+001
2113750000 -2.222162e+000 4.928653e+001 -4.175867e+001 -1.676446e+002 2.532901e+001 -4.872961e+001 -1.310476e+001 6.015158e+001
2115000000 -2.228469e+000 4.875605e+001 -4.252161e+001 -1.694987e+002 2.531158e+001 -4.963947e+001 -1.311144e+001 5.940638e+001
2116250000 -2.255501e+000 4.848997e+001 -4.219847e+001 -1.664808e+002 2.527942e+001 -5.023660e+001 -1.304694e+001 5.915241e+001
2117500000 -2.232603e+000 4.795092e+001 -4.195466e+001 -1.692821e+002 2.527838e+001 -5.059973e+001 -1.304562e+001 5.863957e+001
2118750000 -2.277001e+000 4.734744e+001 -4.190801e+001 -1.699542e+002 2.529416e+001 -5.148793e+001 -1.301063e+001 5.776920e+001
2120000000 -2.274284e+000 4.723814e+001 -4.259101e+001 -1.655747e+002 2.519070e+001 -5.202301e+001 -1.308569e+001 5.754137e+001
2121250000 -2.223447e+000 4.663971e+001 -4.226157e+001 -1.594271e+002 2.518102e+001 -5.246973e+001 -1.302494e+001 5.734300e+001
2122500000 -2.250690e+000 4.632767e+001 -4.125831e+001 -1.710085e+002 2.514931e+001 -5.303479e+001 -1.298895e+001 5.631300e+001
2123750000 -2.257282e+000 4.575925e+001 -4.154819e+001 -1.730938e+002 2.510379e+001 -5.363795e+001 -1.302093e+001 5.549504e+001
2125000000 -2.272179e+000 4.550164e+001 -4.233604e+001 -1.717055e+002 2.507672e+001 -5.387574e+001 -1.300773e+001 5.536176e+001
2126250000 -2.279353e+000 4.495393e+001 -4.304634e+001 -1.711933e+002 2.509310e+001 -5.419804e+001 -1.303877e+001 5.503556e+001
2127500000 -2.305130e+000 4.430482e+001 -4.284764e+001 -1.754580e+002 2.508270e+001 -5.475889e+001 -1.297604e+001 5.450730e+001
2128750000 -2.280069e+000 4.395889e+001 -4.219625e+001 -1.722886e+002 2.498435e+001 -5.536494e+001 -1.303000e+001 5.359060e+001
2130000000 -2.288488e+000 4.379421e+001 -4.162173e+001 -1.721252e+002 2.498735e+001 -5.540919e+001 -1.301417e+001 5.291734e+001
2131250000 -2.356798e+000 4.337494e+001 -4.178972e+001 -1.722220e+002 2.495845e+001 -5.558894e+001 -1.297274e+001 5.296156e+001
2132500000 -2.305077e+000 4.298063e+001 -4.113530e+001 -1.706622e+002 2.491384e+001 -5.597219e+001 -1.297510e+001 5.238775e+001
2133750000 -2.364269e+000 4.210715e+001 -4.276324e+001 -1.717202e+002 2.495222e+001 -5.640010e+001 -1.303215e+001 5.220134e+001
2135000000 -2.328869e+000 4.191628e+001 -4.239959e+001 -1.783195e+002 2.494357e+001 -5.653150e+001 -1.305688e+001 5.142865e+001
2136250000 -2.356344e+000 4.143750e+001 -4.181133e+001 1.779971e+002 2.490493e+001 -5.709315e+001 -1.302617e+001 5.065960e+001
2137500000 -2.386757e+000 4.110554e+001 -4.245196e+001 -1.785892e+002 2.484921e+001 -5.720436e+001 -1.305702e+001 5.035284e+001
2138750000 -2.357671e+000 4.063651e+001 -4.180016e+001 -1.737771e+002 2.484690e+001 -5.752366e+001 -1.297231e+001 4.996307e+001
2140000000 -2.359968e+000 4.002445e+001 -4.236274e+001 -1.681268e+002 2.486907e+001 -5.747466e+001 -1.293430e+001 4.962500e+001
2141250000 -2.377841e+000 3.972330e+001 -4.220657e+001 -1.705025e+002 2.485959e+001 -5.808192e+001 -1.296238e+001 4.888632e+001
2142500000 -2.387752e+000 3.915787e+001 -4.123435e+001 -1.769436e+002 2.486872e+001 -5.833579e+001 -1.303622e+001 4.765952e+001
2143750000 -2.434455e+000 3.853420e+001 -4.243715e+001 -1.759007e+002 2.486623e+001 -5.824535e+001 -1.291652e+001 4.774322e+001
2145000000 -2.494200e+000 3.898729e+001 -4.176600e+001 1.782418e+002 2.489065e+001 -5.849961e+001 -1.288422e+001 4.722996e+001
2146250000 -2.379274e+000 3.726510e+001 -4.242813e+001 -1.746676e+002 2.497152e+001 -5.875285e+001 -1.291154e+001 4.717842e+001
2147500000 -2.466602e+000 3.687939e+001 -4.132844e+001 -1.748174e+002 2.495800e+001 -5.923290e+001 -1.295493e+001 4.571387e+001
2148750000 -2.414737e+000 3.671836e+001 -4.169173e+001 -1.778234e+002 2.496715e+001 -5.920371e+001 -1.293183e+001 4.544846e+001
2150000000 -2.368706e+000 3.609239e+001 -4.168120e+001 1.773326e+002 2.495647e+001 -5.942027e+001 -1.295420e+001 4.530191e+001
2151250000 -2.482369e+000 3.575778e+001 -4.116509e+001 1.783669e+002 2.505022e+001 -5.977410e+001 -1.294460e+001 4.484198e+001
2152500000 -2.375078e+000 3.600313e+001 -4.270716e+001 -1.782354e+002 2.501759e+001 -5.974821e+001 -1.294031e+001 4.450139e+001
2153750000 -2.451041e+000 3.503041e+001 -4.118893e+001 -1.728878e+002 2.512686e+001 -5.996181e+001 -1.284215e+001 4.351333e+001
2155000000 -2.487543e+000 3.463782e+001 -4.200114e+001 -1.754701e+002 2.511862e+001 -6.050956e+001 -1.292448e+001 4.295782e+001
2156250000 -2.498683e+000 3.410276e+001 -4.228742e+001 1.766717e+002 2.516799e+001 -6.078152e+001 -1.296018e+001 4.263664e+001
2157500000 -2.468666e+000 3.351226e+001 -4.141991e+001 -1.774976e+002 2.526055e+001 -6.117318e+001 -1.287722e+001 4.226008e+001
2158750000 -2.497935e+000 3.306746e+001 -4.126937e+001 -1.779698e+002 2.526291e+001 -6.163524e+001 -1.289178e+001 4.132954e+001
2160000000 -2.498471e+000 3.285795e+001 -4.221843e+001 1.766569e+002 2.529928e+001 -6.146086e+001 -1.294681e+001 4.121584e+001
2161250000 -2.443604e+000 3.190696e+001 -4.173723e+001 1.777799e+002 2.529951e+001 -6.224162e+001 -1.301460e+001 4.009559e+001
2162500000 -2.563100e+000 3.186392e+001 -4.014977e+001 1.738115e+002 2.539435e+001 -6.284442e+001 -1.297160e+001 3.993868e+001
2163750000 -2.571253e+000 3.159125e+001 -4.143218e+001 1.775965e+002 2.546581e+001 -6.287770e+001 -1.291325e+001 3.922567e+001
2165000000 -2.582471e+000 3.046324e+001 -4.125726e+001 1.723907e+002 2.549471e+001 -6.343396e+001 -1.297262e+001 3.916551e+001
2166250000 -2.652347e+000 3.102527e+001 -4.278038e+001 1.780975e+002 2.556920e+001 -6.397199e+001 -1.293251e+001 3.843925e+001
2167500000 -2.638252e+000 2.983147e+001 -4.175548e+001 1.722051e+002 2.564808e+001 -6.468473e+001 -1.293188e+001 3.725733e+001
2168750000 -2.665461e+000 3.032984e+001 -4.194075e+001 1.792769e+002 2.571595e+001 -6.509205e+001 -1.293592e+001 3.698310e+001
2170000000 -2.600712e+000 2.919655e+001 -4.255556e+001 1.707761e+002 2.572422e+001 -6.554980e+001 -1.294570e+001 3.712325e+001
2171250000 -2.616867e+000 2.839984e+001 -4.124253e+001 1.747390e+002 2.583735e+001 -6.626813e+001 -1.295696e+001 3.594178e+001
2172500000 -2.673635e+000 2.808904e+001 -4.122953e+001 1.738280e+002 2.583022e+001 -6.696936e+001 -1.291448e+001 3.585816e+001
2173750000 -2.676163e+000 2.735287e+001 -4.156320e+001 1.777101e+002 2.589821e+001 -6.781295e+001 -1.292456e+001 3.504192e+001
2175000000 -2.632685e+000 2.698319e+001 -4.184769e+001 1.716911e+002 2.590462e+001 -6.824446e+001 -1.297870e+001 3.489875e+001
2176250000 -2.657918e+000 2.626289e+001 -4.171343e+001 1.707754e+002 2.595979e+001 -6.900609e+001 -1.297457e+001 3.420712e+001
2177500000 -2.682405e+000 2.574602e+001 -4.176371e+001 1.774399e+002 2.599103e+001 -6.960303e+001 -1.296250e+001 3.363079e+001
2178750000 -2.734959e+000 2.525680e+001 -4.137460e+001 1.727052e+002 2.601867e+001 -7.032446e+001 -1.300753e+001 3.308233e+001
2180000000 -2.748040e+000 2.527158e+001 -4.117437e+001 1.764908e+002 2.605615e+001 -7.129754e+001 -1.301660e+001 3.245795e+001
2181250000 -2.741796e+000 2.443056e+001 -4.101745e+001 1.752878e+002 2.610178e+001 -7.188966e+001 -1.307463e+001 3.208236e+001
2182500000 -2.707284e+000 2.418536e+001 -4.101381e+001 1.706020e+002 2.608717e+001 -7.281947e+001 -1.305832e+001 3.156887e+001
2183750000 -2.766678e+000 2.348262e+001 -4.132766e+001 1.750572e+002 2.609007e+001 -7.339708e+001 -1.305415e+001 3.091195e+001
2185000000 -2.761863e+000 2.312897e+001 -4.120176e+001 1.684178e+002 2.617070e+001 -7.419578e+001 -1.298437e+001 3.072492e+001
2186250000 -2.745245e+000 2.292296e+001 -4.047918e+001 1.661101e+002 2.617529e+001 -7.483571e+001 -1.300965e+001 3.053075e+001
2187500000 -2.797632e+000 2.196792e+001 -4.197962e+001 1.682558e+002 2.616759e+001 -7.553014e+001 -1.301858e+001 2.952856e+001
2188750000 -2.816761e+000 2.142713e+001 -4.131481e+001 1.744522e+002 2.616500e+001 -7.677824e+001 -1.298393e+001 2.900159e+001
2190000000 -2.810750e+000 2.090677e+001 -4.170991e+001 1.627834e+002 2.620814e+001 -7.733417e+001 -1.302837e+001 2.832534e+001
