!Agilent Technologies,E8364A,US41440144,A.06.04.32
!Agilent E8364A: A.06.04.32
!Date: Monday, February 26, 2018 15:02:44
!Correction: S11(Full 2 Port(1,2)) S21(Full 2 Port(1,2)) S12(Full 2 Port(1,2)) S22(Full 2 Port(1,2)) 
!S2P File: Measurements: S11, S21, S12, S22:
# Hz S  dB   R 50
45000000 -4.438995e+001 -6.505783e+001 -3.333170e-002 -2.888339e+000 7.357409e-002 -3.252070e+000 -4.432301e+001 -1.630155e+002
45372187.5 -4.336317e+001 -8.252838e+001 -1.150913e-001 -3.473647e+000 4.519698e-002 -3.064935e+000 -4.227279e+001 -7.558778e+001
45744375 -5.406007e+001 -1.657903e+002 -8.997758e-002 -3.302338e+000 6.639139e-002 -3.528450e+000 -4.435424e+001 -1.134114e+002
46116562.5 -4.898232e+001 -1.003582e+002 -6.430360e-002 -3.038026e+000 5.660228e-002 -3.145339e+000 -5.974290e+001 3.731071e+001
46488750 -4.045367e+001 -1.212171e+002 -8.427560e-002 -3.301778e+000 2.846842e-002 -3.469801e+000 -3.808090e+001 -3.697833e+001
46860937.5 -4.126119e+001 -2.626011e+001 -1.403887e-002 -3.029572e+000 -1.229339e-002 -3.369037e+000 -4.091452e+001 -1.013577e+002
47233125 -4.400942e+001 -1.055325e+002 3.448800e-002 -3.739033e+000 -1.193941e-002 -3.356128e+000 -3.947675e+001 -8.349104e+001
47605312.5 -3.767281e+001 -1.604618e+002 -7.963394e-002 -3.726194e+000 4.239811e-003 -3.044901e+000 -4.539966e+001 -8.535435e+001
47977500 -4.341099e+001 -9.740533e+001 1.057994e-002 -3.301334e+000 3.871576e-002 -3.356355e+000 -4.435598e+001 -5.327835e+001
48349687.5 -4.016241e+001 -5.210519e+001 -6.645086e-002 -3.523668e+000 -7.773804e-003 -3.320153e+000 -4.698618e+001 -8.757599e+001
48721875 -4.156955e+001 -7.229659e+001 -6.093995e-002 -2.964412e+000 -1.422877e-002 -4.147884e+000 -4.581065e+001 -1.458383e+002
49094062.5 -4.116626e+001 -9.728037e+001 1.276765e-002 -3.297562e+000 2.931236e-002 -3.137181e+000 -4.116091e+001 -1.272156e+002
49466250 -3.848881e+001 -1.389735e+002 -8.244468e-002 -3.363510e+000 6.699482e-002 -3.754487e+000 -4.507878e+001 -1.047057e+002
49838437.5 -4.644580e+001 -6.837140e+001 -4.768499e-002 -3.704831e+000 9.136714e-003 -3.600350e+000 -4.846421e+001 -1.851457e+001
50210625 -3.640151e+001 -9.120539e+001 -4.033201e-002 -3.886457e+000 4.714094e-002 -3.333665e+000 -5.090517e+001 1.010094e+002
50582812.5 -4.073694e+001 -9.525663e+001 -6.651025e-002 -3.512304e+000 4.379284e-002 -3.544387e+000 -3.882476e+001 -9.729166e+001
50955000 -4.020253e+001 -8.130154e+001 -5.335322e-002 -3.936612e+000 2.040554e-002 -3.413896e+000 -3.939367e+001 -1.132637e+002
51327187.5 -3.715446e+001 -9.978909e+001 -4.665656e-002 -3.770854e+000 5.177521e-002 -3.884464e+000 -3.796980e+001 -6.950301e+001
51699375 -4.409663e+001 -8.994373e+001 -3.421480e-002 -3.775671e+000 2.252308e-002 -3.705589e+000 -3.458041e+001 -8.874347e+001
52071562.5 -3.867401e+001 -1.165818e+002 -4.426365e-002 -3.635868e+000 -5.131726e-002 -3.543394e+000 -4.243417e+001 -8.816302e+001
52443750 -3.997047e+001 -1.131698e+002 -4.393337e-002 -3.928634e+000 -4.796664e-003 -3.484571e+000 -4.609783e+001 -1.023018e+002
52815937.5 -3.803688e+001 -1.043896e+002 -4.760124e-002 -3.553229e+000 2.899467e-002 -3.883396e+000 -4.855567e+001 -8.784010e+001
53188125 -3.925971e+001 -9.262225e+001 -3.077633e-002 -3.400051e+000 7.463743e-003 -3.582476e+000 -4.658295e+001 -1.079198e+002
53560312.5 -3.713320e+001 -1.021565e+002 -4.946970e-002 -3.437918e+000 3.907136e-002 -3.769234e+000 -4.936826e+001 -2.616054e+001
53932500 -4.048445e+001 -9.226408e+001 -9.258739e-002 -3.845745e+000 -2.835209e-003 -4.074887e+000 -4.513175e+001 -1.183720e+002
54304687.5 -4.633041e+001 -1.126935e+002 5.568122e-003 -3.752410e+000 5.982987e-002 -3.975434e+000 -4.398969e+001 -4.090876e+001
54676875 -4.233855e+001 -1.317684e+002 -6.133812e-002 -3.843146e+000 -3.224162e-002 -3.994550e+000 -3.859808e+001 -6.882929e+001
55049062.5 -4.194485e+001 -5.293115e+001 -2.176268e-002 -3.442229e+000 -1.244442e-003 -3.730801e+000 -4.198349e+001 -9.593754e+001
55421250 -4.355402e+001 -6.399656e+001 -7.608051e-002 -3.905719e+000 -9.918792e-003 -4.348409e+000 -4.161590e+001 -1.075484e+002
55793437.5 -4.311599e+001 -7.273314e+001 -5.661158e-002 -4.138949e+000 3.212061e-002 -4.124755e+000 -5.593775e+001 -1.328006e+002
56165625 -4.160920e+001 -8.198432e+001 -5.071242e-003 -3.644289e+000 -1.044782e-002 -3.897587e+000 -3.961396e+001 -7.731371e+001
56537812.5 -4.076014e+001 -1.002957e+002 -5.711886e-002 -4.141953e+000 3.754476e-002 -4.278827e+000 -5.038897e+001 -9.178105e+001
56910000 -3.829117e+001 -1.091578e+002 -1.023913e-001 -4.217275e+000 -2.008115e-002 -3.948936e+000 -4.502623e+001 -8.228709e+001
57282187.5 -3.938480e+001 -7.603297e+001 -4.283367e-002 -4.325195e+000 -5.285526e-002 -4.105016e+000 -4.284184e+001 -1.032112e+002
57654375 -4.206200e+001 -5.179659e+001 -3.391665e-002 -3.934685e+000 -3.517968e-003 -3.907559e+000 -4.147909e+001 -6.570463e+001
58026562.5 -3.678458e+001 -8.490038e+001 -3.897038e-002 -4.224591e+000 5.882953e-002 -4.253843e+000 -4.349008e+001 -1.398026e+002
58398750 -3.496867e+001 -1.018443e+002 -7.686653e-003 -4.180478e+000 -1.479261e-002 -4.006995e+000 -4.654419e+001 -8.726839e+001
58770937.5 -4.015097e+001 -1.066977e+002 1.052347e-002 -4.256978e+000 -1.375454e-002 -4.029542e+000 -3.951569e+001 -1.007801e+002
59143125 -4.213517e+001 -1.123834e+002 -1.059058e-002 -4.015733e+000 -3.131835e-002 -4.100001e+000 -3.716057e+001 -7.989015e+001
59515312.5 -3.880847e+001 -7.728505e+001 -8.036561e-002 -4.070328e+000 1.976333e-002 -4.133884e+000 -4.459553e+001 -1.111304e+002
59887500 -3.879243e+001 -6.007548e+001 -4.504141e-002 -4.107774e+000 1.272415e-002 -4.036932e+000 -4.137524e+001 -6.302563e+001
60259687.5 -4.180890e+001 -1.071589e+002 -4.577220e-002 -4.247802e+000 -2.359325e-002 -4.129316e+000 -4.308838e+001 -7.639658e+001
60631875 -4.068779e+001 -5.899831e+001 -7.331818e-002 -4.466894e+000 -5.754547e-003 -4.367704e+000 -3.815173e+001 -6.607441e+001
61004062.5 -4.142979e+001 -9.601609e+001 -1.674201e-002 -4.131621e+000 -1.587477e-002 -4.181497e+000 -3.771745e+001 -6.180491e+001
61376250 -4.025663e+001 -1.250805e+002 -3.756271e-002 -4.386398e+000 3.809939e-002 -4.285702e+000 -4.676044e+001 -1.002294e+002
61748437.5 -3.872142e+001 -8.935352e+001 -3.949731e-002 -4.694088e+000 -8.445326e-003 -4.329110e+000 -3.863397e+001 -1.120503e+002
62120625 -4.229751e+001 -7.671378e+001 -2.889652e-002 -4.165365e+000 2.462799e-002 -4.552527e+000 -3.897220e+001 -8.747875e+001
62492812.5 -3.802966e+001 -1.027153e+002 -6.687734e-002 -4.240694e+000 1.210830e-002 -4.274205e+000 -3.889252e+001 -6.683998e+001
62865000 -4.251457e+001 -1.215545e+002 -4.248806e-002 -4.448861e+000 1.118695e-002 -4.368085e+000 -4.208347e+001 -7.676362e+001
63237187.5 -3.827652e+001 -8.552077e+001 -3.690160e-002 -4.394453e+000 -5.173327e-003 -4.066671e+000 -4.173254e+001 -8.565802e+001
63609375 -3.953783e+001 -8.902647e+001 -1.112204e-002 -4.724429e+000 -1.569751e-002 -4.364923e+000 -4.075015e+001 -1.374056e+002
63981562.5 -4.303135e+001 -6.042938e+001 -3.102368e-002 -4.615376e+000 -1.546018e-002 -4.631211e+000 -4.322042e+001 -1.040832e+002
64353750 -3.848225e+001 -1.043282e+002 -5.920939e-002 -4.439418e+000 -6.424708e-003 -4.612063e+000 -3.961852e+001 -9.346165e+001
64725937.5 -3.906712e+001 -1.187543e+002 -4.297934e-002 -4.513064e+000 -1.327674e-002 -4.332559e+000 -4.804588e+001 -8.172234e+001
65098125 -3.916508e+001 -9.383625e+001 -3.542497e-002 -4.345987e+000 5.032858e-003 -4.277226e+000 -3.834896e+001 -1.115673e+002
65470312.5 -3.580386e+001 -1.047184e+002 -7.012204e-002 -4.498307e+000 8.158480e-002 -4.647339e+000 -4.202409e+001 -1.054388e+002
65842500 -3.718396e+001 -1.020134e+002 9.451804e-003 -4.648040e+000 -3.164395e-002 -4.534636e+000 -3.973393e+001 -7.782406e+001
66214687.5 -4.135199e+001 -8.591635e+001 -1.187484e-001 -4.492322e+000 -2.254341e-002 -4.583636e+000 -3.871443e+001 -7.733585e+001
66586875 -4.313248e+001 -8.470103e+001 -6.763361e-002 -4.875664e+000 7.868697e-003 -4.805105e+000 -3.900554e+001 -7.426589e+001
66959062.5 -3.836122e+001 -8.809438e+001 -4.712822e-002 -4.827840e+000 2.976541e-002 -4.670709e+000 -3.952483e+001 -1.127536e+002
67331250 -4.237811e+001 -9.764170e+001 -4.691776e-002 -4.865629e+000 7.028710e-003 -4.838347e+000 -4.024016e+001 -1.034911e+002
67703437.5 -3.884771e+001 -8.117027e+001 -1.820649e-002 -4.993573e+000 -2.001399e-002 -4.569959e+000 -3.987120e+001 -1.070482e+002
68075625 -4.361887e+001 -7.946497e+001 -4.208581e-002 -4.778141e+000 -5.762343e-002 -4.681785e+000 -3.933409e+001 -8.599284e+001
68447812.5 -3.971342e+001 -8.370231e+001 -1.471257e-002 -4.729682e+000 -4.637874e-002 -4.992927e+000 -3.882934e+001 -1.122796e+002
68820000 -4.474665e+001 -9.979543e+001 -4.654733e-002 -4.998932e+000 6.733081e-003 -4.794803e+000 -3.592320e+001 -7.667050e+001
69192187.5 -4.265519e+001 -8.763132e+001 -3.946300e-002 -4.859404e+000 -1.761640e-002 -4.776128e+000 -3.974069e+001 -8.436188e+001
69564375 -3.796400e+001 -8.560129e+001 -2.086585e-002 -4.761476e+000 4.167262e-003 -4.899642e+000 -3.561321e+001 -1.016081e+002
69936562.5 -4.185527e+001 -8.145211e+001 -6.102443e-002 -4.701978e+000 5.422354e-003 -4.929351e+000 -4.013363e+001 -8.435486e+001
70308750 -3.951669e+001 -1.211753e+002 -5.366397e-003 -4.979996e+000 3.983688e-002 -4.800043e+000 -3.585394e+001 -8.525974e+001
70680937.5 -4.088469e+001 -8.306625e+001 -6.611251e-002 -4.820410e+000 1.748973e-002 -4.826266e+000 -4.058402e+001 -6.362034e+001
71053125 -4.311290e+001 -8.727332e+001 -5.969811e-002 -4.998085e+000 1.927789e-002 -4.744120e+000 -4.197739e+001 -6.411301e+001
71425312.5 -3.824901e+001 -9.937350e+001 -8.156676e-002 -5.086106e+000 -3.269931e-002 -5.072823e+000 -3.740085e+001 -9.428602e+001
71797500 -4.277232e+001 -7.872703e+001 -9.164947e-002 -5.087698e+000 -3.247293e-002 -4.885416e+000 -3.897084e+001 -9.126698e+001
72169687.5 -3.980669e+001 -1.102573e+002 -6.691732e-002 -5.094400e+000 2.380624e-002 -4.955821e+000 -3.851725e+001 -1.056995e+002
72541875 -4.078218e+001 -9.839269e+001 -1.287425e-002 -5.139196e+000 8.794148e-003 -5.193508e+000 -4.276481e+001 -1.126047e+002
72914062.5 -3.642533e+001 -8.901311e+001 -4.674677e-002 -5.203490e+000 -4.340055e-002 -5.223940e+000 -3.973794e+001 -9.691839e+001
73286250 -4.018894e+001 -8.019815e+001 -4.545687e-002 -5.444287e+000 -6.602664e-003 -5.306852e+000 -3.884761e+001 -9.076162e+001
73658437.5 -3.900805e+001 -9.301324e+001 -2.863029e-002 -5.124644e+000 -2.928841e-002 -5.076624e+000 -3.847818e+001 -8.566228e+001
74030625 -4.173063e+001 -8.991257e+001 -6.005970e-002 -5.232092e+000 -2.177704e-003 -5.024312e+000 -4.088041e+001 -9.129237e+001
74402812.5 -3.702529e+001 -8.130862e+001 -1.018872e-001 -5.060680e+000 -3.100680e-002 -5.187634e+000 -4.024930e+001 -9.099509e+001
74775000 -3.887009e+001 -1.005609e+002 -3.539629e-002 -5.401946e+000 -1.255956e-002 -5.118556e+000 -3.809203e+001 -1.098278e+002
75147187.5 -4.055273e+001 -9.959109e+001 -1.258018e-001 -5.174109e+000 -2.648963e-002 -5.224467e+000 -3.534877e+001 -1.098052e+002
75519375 -3.836195e+001 -8.247799e+001 -3.437779e-002 -5.195128e+000 -7.528762e-003 -5.048011e+000 -3.777701e+001 -1.161069e+002
75891562.5 -3.885440e+001 -9.338191e+001 -4.437409e-002 -5.431039e+000 -6.312936e-003 -5.680981e+000 -4.070553e+001 -8.019664e+001
76263750 -4.133797e+001 -9.764165e+001 -3.977630e-002 -5.467716e+000 1.491994e-002 -5.314168e+000 -3.880266e+001 -9.503226e+001
76635937.5 -3.903191e+001 -9.434403e+001 -5.266848e-002 -5.117006e+000 2.657621e-002 -5.212341e+000 -3.742855e+001 -9.792413e+001
77008125 -3.901950e+001 -8.451944e+001 -4.885994e-002 -5.385580e+000 -4.827023e-003 -5.288822e+000 -3.748060e+001 -9.276556e+001
77380312.5 -4.149257e+001 -1.030761e+002 -6.854930e-002 -5.104724e+000 -3.522129e-002 -5.256790e+000 -3.684825e+001 -8.690331e+001
77752500 -3.888554e+001 -1.033388e+002 -9.562594e-002 -5.525792e+000 -4.529437e-003 -5.282704e+000 -3.750682e+001 -1.039503e+002
78124687.5 -4.010756e+001 -9.543336e+001 -5.530319e-002 -5.449886e+000 2.042876e-002 -5.562098e+000 -4.032596e+001 -1.062032e+002
78496875 -3.975871e+001 -1.075143e+002 -1.203340e-002 -5.473102e+000 -3.408633e-002 -5.572574e+000 -3.977613e+001 -1.090718e+002
78869062.5 -3.691824e+001 -9.260716e+001 -6.422351e-002 -5.748670e+000 -3.742858e-002 -5.025459e+000 -3.692817e+001 -1.070815e+002
79241250 -3.518153e+001 -1.052995e+002 -7.299882e-002 -5.448395e+000 3.474851e-002 -5.416403e+000 -3.752002e+001 -1.149797e+002
79613437.5 -3.678499e+001 -7.571359e+001 -8.710945e-002 -5.587290e+000 -3.056160e-002 -5.650724e+000 -3.735106e+001 -8.821960e+001
79985625 -3.959266e+001 -1.057382e+002 -1.513545e-002 -5.578471e+000 7.876613e-002 -5.416673e+000 -3.946354e+001 -8.835867e+001
80357812.5 -3.985441e+001 -7.190810e+001 -9.797917e-002 -5.481747e+000 2.357325e-002 -5.321384e+000 -4.467259e+001 -1.261435e+002
80730000 -3.685649e+001 -9.637053e+001 -7.535391e-002 -5.616374e+000 -7.223085e-004 -5.483024e+000 -3.884225e+001 -8.142278e+001
81102187.5 -3.961960e+001 -1.092370e+002 -8.407716e-002 -5.540165e+000 9.228704e-005 -5.571281e+000 -3.959730e+001 -1.126949e+002
81474375 -3.715481e+001 -9.841621e+001 -5.284748e-002 -5.546799e+000 -8.872056e-003 -5.333554e+000 -4.129566e+001 -8.989893e+001
81846562.5 -4.013425e+001 -9.324927e+001 -8.411098e-002 -5.716341e+000 8.964163e-003 -5.673566e+000 -3.680377e+001 -1.085282e+002
82218750 -3.951388e+001 -7.825710e+001 -6.551586e-002 -5.979929e+000 -4.039621e-003 -5.727725e+000 -3.737843e+001 -1.075158e+002
82590937.5 -4.195064e+001 -9.877411e+001 -6.345345e-002 -5.659756e+000 5.884751e-003 -5.778715e+000 -3.608518e+001 -7.953703e+001
82963125 -3.778159e+001 -9.183565e+001 -5.292693e-002 -5.829446e+000 -6.499931e-003 -5.954913e+000 -4.115304e+001 -8.349641e+001
83335312.5 -3.777583e+001 -1.052096e+002 -8.765059e-002 -5.760228e+000 -2.546842e-002 -5.689426e+000 -3.802796e+001 -1.036909e+002
83707500 -3.934260e+001 -8.680084e+001 -7.044908e-002 -5.598250e+000 -2.031419e-002 -5.602669e+000 -3.901626e+001 -9.251003e+001
84079687.5 -3.611314e+001 -8.523933e+001 -3.919415e-002 -5.801031e+000 -1.938289e-002 -5.855342e+000 -3.959692e+001 -1.043141e+002
84451875 -3.965664e+001 -1.026679e+002 -7.590435e-002 -5.992750e+000 1.058143e-002 -6.123217e+000 -3.830278e+001 -1.126904e+002
84824062.5 -3.915255e+001 -9.582709e+001 -6.248171e-002 -5.825532e+000 -1.977924e-002 -5.880257e+000 -3.979504e+001 -1.007125e+002
85196250 -3.978930e+001 -9.090508e+001 -5.439948e-002 -6.045024e+000 -6.702958e-003 -6.057516e+000 -3.653653e+001 -1.034410e+002
85568437.5 -3.899096e+001 -9.079683e+001 -7.055905e-002 -6.073924e+000 -5.531370e-002 -6.011676e+000 -3.859211e+001 -9.597125e+001
85940625 -3.740679e+001 -8.807473e+001 -5.750905e-002 -6.045528e+000 -4.061638e-002 -6.030877e+000 -3.748787e+001 -8.314664e+001
86312812.5 -3.735718e+001 -8.799707e+001 -4.461665e-002 -5.680959e+000 -1.950946e-002 -6.101398e+000 -3.901709e+001 -1.183933e+002
86685000 -3.877197e+001 -9.323215e+001 -1.052282e-001 -6.325607e+000 -1.198154e-002 -5.917956e+000 -3.827267e+001 -9.117570e+001
87057187.5 -3.887124e+001 -9.841656e+001 -9.615274e-002 -6.003203e+000 1.952265e-002 -6.065660e+000 -3.569067e+001 -8.821567e+001
87429375 -3.921886e+001 -7.745601e+001 -3.681934e-002 -6.094978e+000 -2.380727e-002 -5.971505e+000 -3.660511e+001 -8.661697e+001
87801562.5 -3.739734e+001 -9.501492e+001 -5.227651e-002 -5.994370e+000 1.421675e-002 -6.187788e+000 -3.943719e+001 -9.646323e+001
88173750 -3.614258e+001 -7.963736e+001 -8.975062e-002 -6.137806e+000 8.576055e-003 -5.822406e+000 -3.897306e+001 -9.527894e+001
88545937.5 -3.673193e+001 -1.188628e+002 -3.171829e-002 -5.897975e+000 -1.487743e-002 -6.467534e+000 -3.876552e+001 -8.364635e+001
88918125 -3.800943e+001 -9.738612e+001 -4.402652e-002 -6.139267e+000 1.420403e-002 -6.097985e+000 -3.682838e+001 -1.032188e+002
89290312.5 -3.724617e+001 -9.763644e+001 -5.872379e-002 -6.114583e+000 -2.111134e-002 -6.064233e+000 -3.736746e+001 -9.773820e+001
89662500 -3.568215e+001 -8.422924e+001 -7.684738e-002 -5.927725e+000 -3.288273e-003 -6.248129e+000 -3.744746e+001 -1.209768e+002
90034687.5 -3.735006e+001 -8.714852e+001 -7.849973e-002 -6.136317e+000 4.168221e-003 -6.295054e+000 -3.917767e+001 -1.197923e+002
90406875 -3.815103e+001 -9.141019e+001 -4.529591e-002 -6.299723e+000 -1.219781e-002 -6.644818e+000 -3.618772e+001 -8.913921e+001
90779062.5 -4.100508e+001 -7.847140e+001 -2.229937e-002 -6.190006e+000 -2.485934e-002 -5.999966e+000 -3.892081e+001 -8.903450e+001
91151250 -3.746628e+001 -9.042001e+001 -7.588562e-002 -6.328588e+000 2.326467e-002 -6.209464e+000 -4.010695e+001 -9.739417e+001
91523437.5 -3.761327e+001 -1.036200e+002 -6.047646e-002 -6.368578e+000 6.862454e-003 -6.553641e+000 -3.848378e+001 -9.120605e+001
91895625 -3.846591e+001 -8.410454e+001 -2.306888e-002 -6.280681e+000 -2.764698e-002 -6.265785e+000 -3.959421e+001 -1.068959e+002
92267812.5 -4.006785e+001 -1.094064e+002 -7.176255e-002 -6.653813e+000 4.922098e-002 -6.348874e+000 -3.683798e+001 -8.911423e+001
92640000 -3.740247e+001 -7.560525e+001 -5.597141e-002 -5.881747e+000 1.410239e-002 -6.322102e+000 -3.624704e+001 -9.521960e+001
93012187.5 -3.522483e+001 -8.928596e+001 -1.613970e-002 -6.472626e+000 -4.018920e-002 -6.350893e+000 -4.039012e+001 -1.160933e+002
93384375 -3.856036e+001 -9.284684e+001 -5.157342e-002 -6.326775e+000 -3.212616e-002 -6.599294e+000 -3.761283e+001 -9.245004e+001
93756562.5 -3.634000e+001 -1.030509e+002 -6.522065e-002 -6.443413e+000 -6.988676e-003 -6.505639e+000 -3.744576e+001 -1.050505e+002
94128750 -4.029862e+001 -8.413460e+001 -6.956082e-002 -6.465893e+000 3.761549e-002 -6.397374e+000 -3.797768e+001 -1.037367e+002
94500937.5 -3.510192e+001 -9.914443e+001 -3.720253e-002 -6.656510e+000 -1.015073e-002 -6.427423e+000 -3.767705e+001 -1.141432e+002
94873125 -3.827052e+001 -1.058400e+002 -6.626175e-002 -6.489059e+000 3.504177e-002 -6.536771e+000 -3.644661e+001 -1.065160e+002
95245312.5 -4.086971e+001 -1.037076e+002 -5.584650e-002 -6.708557e+000 2.759305e-002 -6.713788e+000 -3.608665e+001 -9.944231e+001
95617500 -4.109461e+001 -6.926611e+001 -7.114545e-002 -6.464096e+000 -1.075174e-002 -6.551700e+000 -3.896659e+001 -9.629614e+001
95989687.5 -3.897311e+001 -8.780265e+001 -1.856977e-002 -6.820024e+000 -1.912106e-002 -6.450566e+000 -3.548472e+001 -9.509257e+001
96361875 -3.742090e+001 -9.844184e+001 -1.226849e-002 -6.276495e+000 -3.061276e-002 -6.724152e+000 -3.759371e+001 -8.972730e+001
96734062.5 -3.577508e+001 -1.120383e+002 -5.044847e-002 -6.560978e+000 1.934803e-002 -6.674083e+000 -3.608401e+001 -1.015022e+002
97106250 -3.923939e+001 -1.049917e+002 -6.729276e-002 -6.522851e+000 -2.608483e-002 -6.583120e+000 -3.585978e+001 -1.075594e+002
97478437.5 -3.871281e+001 -1.031113e+002 -3.425267e-002 -6.423215e+000 9.282043e-004 -6.803090e+000 -3.736726e+001 -9.494793e+001
97850625 -3.666090e+001 -8.632149e+001 -5.089736e-002 -6.848974e+000 1.239578e-002 -6.790905e+000 -3.899161e+001 -1.069441e+002
98222812.5 -3.737442e+001 -1.093601e+002 -2.913783e-002 -6.669988e+000 1.283358e-002 -6.423617e+000 -3.797417e+001 -9.954865e+001
98595000 -3.794294e+001 -9.445550e+001 -9.270714e-002 -6.942973e+000 -6.236056e-002 -6.850392e+000 -3.587018e+001 -1.002788e+002
98967187.5 -3.679860e+001 -9.512863e+001 -9.688746e-003 -6.987582e+000 3.387899e-003 -6.810226e+000 -3.857814e+001 -9.746139e+001
99339375 -3.763528e+001 -1.038657e+002 -7.051615e-002 -6.894808e+000 1.181483e-002 -6.884096e+000 -3.577199e+001 -1.024414e+002
99711562.5 -3.678212e+001 -8.294135e+001 -5.360509e-002 -7.054338e+000 2.353669e-002 -6.891733e+000 -3.616596e+001 -1.005436e+002
100083750 -3.952844e+001 -1.160006e+002 -8.327263e-002 -6.897939e+000 -4.170464e-005 -6.923905e+000 -3.620733e+001 -9.961754e+001
100455937.5 -3.850154e+001 -9.172122e+001 -6.253891e-002 -6.829117e+000 -6.099616e-003 -7.190175e+000 -3.938320e+001 -9.483211e+001
100828125 -3.864166e+001 -8.698425e+001 -3.711809e-002 -6.787349e+000 2.028480e-002 -7.214534e+000 -3.707579e+001 -8.914857e+001
