!Agilent Technologies,E8364A,US41440144,A.06.04.32
!Agilent E8364A: A.06.04.32
!Date: Monday, February 26, 2018 15:04:02
!Correction: S11(Full 2 Port(1,2)) S21(Full 2 Port(1,2)) S12(Full 2 Port(1,2)) S22(Full 2 Port(1,2)) 
!S2P File: Measurements: S11, S21, S12, S22:
# Hz S  dB   R 50
45000000 -4.846435e+001 -1.441022e+002 -5.706264e-002 -4.078917e+000 -7.317489e-003 -4.340383e+000 -5.797884e+001 1.254877e+002
45372187.5 -4.254186e+001 -4.811984e+001 -3.088367e-002 -4.587032e+000 7.273997e-002 -3.971868e+000 -4.245401e+001 -1.346540e+002
45744375 -5.121749e+001 4.219940e+001 -7.330181e-002 -4.483149e+000 5.407743e-002 -4.564743e+000 -5.816966e+001 -1.541520e+002
46116562.5 -5.454401e+001 -1.338074e+002 -2.281196e-002 -4.709522e+000 7.597165e-002 -4.249407e+000 -4.884828e+001 -2.329242e+001
46488750 -4.038214e+001 -6.206975e+001 -1.298571e-001 -4.159213e+000 -1.764394e-002 -4.062160e+000 -3.844608e+001 -6.914454e+001
46860937.5 -4.912947e+001 1.077113e+002 -8.527305e-002 -4.100423e+000 6.623200e-002 -4.722043e+000 -3.982275e+001 -8.659653e+001
47233125 -4.192004e+001 -1.180260e+002 -1.824997e-002 -4.698933e+000 -5.634343e-002 -4.612461e+000 -4.411021e+001 -7.294907e+001
47605312.5 -3.839815e+001 -1.360333e+002 -7.585312e-002 -4.716669e+000 3.433895e-002 -3.963273e+000 -4.111285e+001 -8.521998e+001
47977500 -4.373049e+001 -8.118841e+001 5.424655e-003 -4.304055e+000 -1.443053e-002 -4.422431e+000 -4.347206e+001 -9.515279e+000
48349687.5 -4.057949e+001 -2.783547e+001 -3.474509e-002 -4.529278e+000 -3.963846e-002 -4.711433e+000 -4.364273e+001 -1.254137e+001
48721875 -4.365522e+001 -1.283365e+002 -1.060105e-001 -4.298727e+000 -6.855419e-002 -4.777114e+000 -4.407348e+001 -1.120992e+002
49094062.5 -4.362600e+001 -2.737505e+001 -7.085181e-002 -4.819092e+000 -1.761083e-002 -4.569403e+000 -3.997590e+001 -1.274756e+002
49466250 -3.932623e+001 -1.334608e+002 -1.013786e-001 -4.358135e+000 6.556082e-002 -4.868100e+000 -4.190547e+001 -1.054007e+002
49838437.5 -4.946483e+001 -4.023210e+001 -3.279687e-002 -4.912787e+000 -7.468421e-003 -4.951175e+000 -4.530871e+001 1.770611e+002
50210625 -3.931113e+001 -7.031947e+001 -5.613998e-002 -4.740298e+000 7.100722e-002 -4.662799e+000 -4.797845e+001 -1.348155e+002
50582812.5 -5.268402e+001 -7.247228e+001 -7.050845e-002 -4.832822e+000 3.115652e-002 -4.995024e+000 -4.214351e+001 -1.454118e+002
50955000 -4.082525e+001 -6.456111e+001 -6.889376e-002 -5.226401e+000 -1.971630e-002 -4.704878e+000 -4.189788e+001 -9.316784e+001
51327187.5 -4.160110e+001 -9.215982e+001 -4.195111e-002 -4.826225e+000 2.799402e-002 -4.762633e+000 -3.943330e+001 -4.572192e+001
51699375 -5.246527e+001 -8.183028e+000 -8.324665e-002 -5.060392e+000 3.012858e-002 -4.932328e+000 -4.232141e+001 -1.043406e+002
52071562.5 -4.373308e+001 -1.556413e+002 -8.143558e-002 -5.012393e+000 -6.125475e-002 -4.626769e+000 -4.452007e+001 -1.279166e+002
52443750 -4.322089e+001 -3.217929e+000 -3.647397e-002 -5.159029e+000 -4.869133e-002 -4.570707e+000 -4.382922e+001 -1.272059e+002
52815937.5 -4.097070e+001 -9.882374e+001 -8.292025e-002 -4.804843e+000 2.400399e-002 -5.249650e+000 -4.460727e+001 -6.739420e+001
53188125 -3.941868e+001 -7.091026e+001 -3.866044e-002 -5.048436e+000 4.985269e-002 -4.933953e+000 -4.177248e+001 -1.795571e+001
53560312.5 -4.216317e+001 -1.202342e+002 -1.093496e-001 -4.975147e+000 2.708407e-002 -4.692530e+000 -4.616962e+001 7.024325e+000
53932500 -5.363532e+001 -6.682541e+000 -8.941808e-002 -5.084683e+000 -5.190708e-002 -5.094501e+000 -5.559359e+001 -1.463373e+002
54304687.5 -4.217673e+001 -7.322753e+001 -5.873382e-002 -5.258867e+000 -3.452983e-002 -5.147299e+000 -4.780846e+001 -6.509618e+001
54676875 -4.134037e+001 -3.983881e+001 -7.847032e-002 -5.136998e+000 -1.163342e-002 -4.972246e+000 -4.007553e+001 -7.405101e+001
55049062.5 -4.006120e+001 -6.182068e+001 -2.908802e-002 -4.844012e+000 -1.470581e-002 -5.149195e+000 -4.670742e+001 -9.672688e+001
55421250 -4.966669e+001 -3.169464e+001 -9.265845e-002 -5.349151e+000 -1.477496e-002 -5.087890e+000 -4.264832e+001 -8.664242e+001
55793437.5 -4.078283e+001 -2.832519e+001 -2.446850e-002 -5.153287e+000 -1.620153e-002 -5.515510e+000 -4.611346e+001 -1.622891e+002
56165625 -4.152065e+001 -5.559670e+001 -1.112551e-001 -5.250978e+000 -1.299084e-002 -5.274459e+000 -3.810325e+001 -6.970694e+001
56537812.5 -4.233665e+001 -7.579395e+001 -1.180387e-001 -5.296787e+000 1.033685e-002 -5.639977e+000 -4.313429e+001 -1.758398e+002
56910000 -4.798743e+001 -8.229026e+001 -1.200406e-001 -5.502485e+000 -2.158130e-002 -5.248744e+000 -5.306944e+001 -1.391690e+002
57282187.5 -4.539164e+001 -5.921409e+001 -3.553212e-002 -5.769938e+000 -7.231218e-002 -5.239686e+000 -4.329779e+001 -1.380650e+002
57654375 -4.230853e+001 -3.545579e+001 -7.028720e-002 -5.338813e+000 5.462618e-003 -5.391213e+000 -4.029646e+001 -1.126728e+002
58026562.5 -3.670323e+001 -7.781850e+001 -4.735167e-002 -5.328921e+000 -3.739910e-002 -5.321775e+000 -4.310859e+001 -1.076330e+002
58398750 -4.020775e+001 -1.044808e+002 -9.176856e-002 -5.434631e+000 -1.706854e-002 -5.142786e+000 -4.097371e+001 -4.601041e+001
58770937.5 -4.507449e+001 -1.102392e+002 -1.778086e-002 -5.638665e+000 -1.783733e-002 -5.399511e+000 -4.415691e+001 -1.287126e+002
59143125 -4.682450e+001 -6.674163e+001 -2.924484e-002 -5.351192e+000 -4.376523e-002 -5.525517e+000 -4.105621e+001 -8.139087e+001
59515312.5 -4.661860e+001 -1.146873e+002 -6.161970e-002 -5.444378e+000 -1.766988e-002 -5.404976e+000 -4.933369e+001 -1.053471e+002
59887500 -3.788633e+001 -6.145097e+001 -2.437200e-002 -5.377501e+000 -8.558778e-003 -5.306969e+000 -4.111506e+001 -6.635774e+001
60259687.5 -4.514172e+001 -6.843262e+001 -7.357480e-002 -6.010495e+000 -2.678558e-002 -5.373962e+000 -4.180175e+001 -4.591755e+001
60631875 -4.617845e+001 -7.076113e+001 -6.929662e-002 -5.872406e+000 1.969234e-002 -5.612284e+000 -4.366590e+001 -7.542255e+001
61004062.5 -4.470871e+001 -8.524263e+001 -4.718729e-002 -5.973108e+000 -4.648482e-002 -5.937841e+000 -3.839014e+001 -8.086539e+001
61376250 -4.552109e+001 -1.381180e+002 -9.580816e-002 -5.747019e+000 -2.017466e-002 -5.426733e+000 -4.234665e+001 -4.755246e+001
61748437.5 -4.194431e+001 -5.661270e+001 -5.031168e-002 -5.800273e+000 -5.938508e-003 -6.205502e+000 -4.803102e+001 -1.293375e+002
62120625 -4.550066e+001 -7.668584e+001 -4.536622e-002 -5.819107e+000 -2.358616e-002 -5.800964e+000 -3.813759e+001 -8.006382e+001
62492812.5 -4.242500e+001 -7.544040e+001 -7.931603e-002 -5.803780e+000 -7.648498e-003 -5.974788e+000 -3.805927e+001 -3.835658e+001
62865000 -4.541327e+001 -5.676998e+001 -2.097589e-002 -5.962788e+000 -1.429210e-002 -5.516921e+000 -4.269013e+001 -1.099481e+002
63237187.5 -4.108703e+001 -8.412884e+001 1.230298e-002 -6.018048e+000 -1.106581e-002 -6.156276e+000 -4.363847e+001 -5.066841e+001
63609375 -4.070495e+001 -6.141176e+001 -4.495510e-002 -6.073557e+000 -4.818304e-002 -5.901852e+000 -4.908419e+001 -1.103731e+002
63981562.5 -4.699815e+001 -1.205874e+002 -3.662397e-002 -5.876697e+000 3.459071e-002 -5.912338e+000 -4.136794e+001 -1.256682e+002
64353750 -4.491865e+001 -9.592441e+001 -5.720779e-002 -5.908619e+000 3.935118e-003 -5.761201e+000 -4.440747e+001 -9.820336e+001
64725937.5 -4.624095e+001 -1.355243e+002 -4.927761e-002 -6.088654e+000 -5.987739e-002 -5.806198e+000 -4.479818e+001 -5.879314e+001
65098125 -4.778404e+001 -8.014438e+001 -8.087311e-002 -6.233314e+000 8.212646e-003 -5.921753e+000 -3.922383e+001 -9.761692e+001
65470312.5 -3.931044e+001 -9.357328e+001 -5.102333e-002 -6.432409e+000 3.726931e-002 -6.366251e+000 -4.233079e+001 -1.189030e+002
65842500 -4.060102e+001 -1.169939e+002 -5.527047e-002 -6.291371e+000 -3.161594e-002 -6.318248e+000 -4.842688e+001 -1.043338e+002
66214687.5 -5.263628e+001 -4.618658e+001 -1.011258e-001 -6.079036e+000 -1.895467e-002 -6.211602e+000 -3.922462e+001 -4.933052e+001
66586875 -4.463712e+001 -3.873542e+001 -7.348131e-002 -6.429587e+000 3.315334e-002 -6.318198e+000 -3.919511e+001 -6.676495e+001
66959062.5 -4.554582e+001 -6.345743e+001 -6.003271e-002 -6.255697e+000 5.456007e-002 -6.246902e+000 -4.471417e+001 -1.277664e+002
67331250 -4.466220e+001 -9.602361e+001 -5.956296e-002 -6.500804e+000 5.005635e-002 -6.537467e+000 -4.408097e+001 -7.397278e+001
67703437.5 -4.383296e+001 -1.026056e+002 -8.340257e-002 -6.305394e+000 -2.907376e-002 -6.050932e+000 -4.516014e+001 -1.262717e+002
68075625 -4.024108e+001 -6.166017e+001 -5.649129e-002 -6.411716e+000 -6.449939e-002 -6.265982e+000 -4.943879e+001 -1.210245e+002
68447812.5 -3.935201e+001 -8.114648e+001 -7.183118e-002 -6.436192e+000 -6.079816e-002 -6.842376e+000 -4.347348e+001 -1.028690e+002
68820000 -5.269856e+001 -1.180026e+002 -5.075188e-002 -6.414538e+000 -4.418198e-002 -6.512113e+000 -4.138198e+001 -6.893785e+001
69192187.5 -4.650763e+001 -9.686550e+001 -7.483610e-002 -6.525517e+000 1.876176e-003 -6.315261e+000 -3.877923e+001 -9.996085e+001
69564375 -4.448457e+001 -8.856022e+001 -4.198934e-002 -6.478168e+000 7.346922e-003 -6.192171e+000 -3.920692e+001 -1.023839e+002
69936562.5 -4.646102e+001 -5.067474e+001 -4.112587e-002 -6.416173e+000 -5.154185e-002 -6.722301e+000 -4.348900e+001 -6.977100e+001
70308750 -4.182210e+001 -9.190514e+001 -5.656114e-002 -6.419461e+000 -2.300512e-002 -6.489653e+000 -3.842619e+001 -9.388555e+001
70680937.5 -4.426825e+001 -9.586941e+001 -7.394962e-002 -6.597935e+000 -8.959243e-003 -6.564953e+000 -4.278395e+001 -6.553037e+001
71053125 -4.241772e+001 -8.650762e+001 -9.692153e-002 -6.552000e+000 1.782657e-002 -6.653933e+000 -3.890947e+001 -9.387753e+001
71425312.5 -4.137589e+001 -1.029717e+002 -8.162452e-002 -6.654222e+000 -2.926814e-002 -6.786534e+000 -3.884614e+001 -1.150555e+002
71797500 -4.609318e+001 -4.033988e+001 -9.287317e-002 -6.788172e+000 -2.565713e-002 -6.684411e+000 -4.504889e+001 -9.950965e+001
72169687.5 -4.126125e+001 -1.057932e+002 -6.602585e-002 -6.982204e+000 2.344733e-002 -6.697391e+000 -4.331863e+001 -1.153610e+002
72541875 -4.228356e+001 -7.817291e+001 -3.249355e-002 -6.839344e+000 2.439831e-002 -6.906640e+000 -4.355499e+001 -1.059283e+002
72914062.5 -3.951868e+001 -7.215878e+001 -8.024725e-002 -6.867336e+000 -7.822663e-002 -7.032140e+000 -4.925868e+001 -5.743644e+001
73286250 -4.218175e+001 -1.045022e+002 -5.802477e-002 -6.955901e+000 -8.782798e-005 -7.073590e+000 -3.886645e+001 -5.205948e+001
73658437.5 -4.341836e+001 -1.051483e+002 -5.458057e-002 -6.963559e+000 -3.602906e-002 -6.817893e+000 -4.214250e+001 -7.746154e+001
74030625 -4.936819e+001 -1.211146e+002 -4.519518e-002 -6.939834e+000 -1.781332e-002 -6.480702e+000 -4.622040e+001 -7.903799e+001
74402812.5 -4.088355e+001 -9.607120e+001 -7.236382e-002 -6.814741e+000 -2.318919e-002 -7.128560e+000 -4.206059e+001 -9.947471e+001
74775000 -4.132138e+001 -1.041158e+002 -4.392204e-002 -6.982164e+000 4.346411e-004 -6.995192e+000 -4.120333e+001 -1.062191e+002
75147187.5 -4.231984e+001 -7.603341e+001 -1.059887e-001 -6.841388e+000 -6.740871e-002 -6.960541e+000 -3.908101e+001 -9.911455e+001
75519375 -4.437570e+001 -6.515630e+001 -7.057060e-002 -6.946139e+000 1.664872e-002 -6.810040e+000 -3.899294e+001 -1.114166e+002
75891562.5 -4.569154e+001 -5.369692e+001 -3.636525e-002 -7.010777e+000 -4.222590e-002 -7.530390e+000 -4.123769e+001 -8.495657e+001
76263750 -4.470662e+001 -8.157220e+001 -5.468490e-002 -7.227265e+000 -3.054213e-002 -7.129713e+000 -4.259879e+001 -1.269304e+002
76635937.5 -4.401048e+001 -7.448102e+001 -7.216120e-002 -7.162805e+000 -1.521946e-002 -7.050481e+000 -4.062383e+001 -1.226049e+002
77008125 -4.182614e+001 -6.778570e+001 -5.450920e-002 -7.103353e+000 1.077553e-002 -7.243705e+000 -4.522729e+001 -1.037707e+002
77380312.5 -3.917479e+001 -9.034629e+001 -7.069621e-002 -7.172093e+000 -1.459383e-002 -7.385267e+000 -4.046626e+001 -7.697565e+001
77752500 -4.191563e+001 -1.125159e+002 -8.203313e-002 -7.052832e+000 -2.232427e-002 -7.269551e+000 -4.022293e+001 -1.036898e+002
78124687.5 -4.257825e+001 -8.174625e+001 -7.745746e-002 -7.294219e+000 -2.729574e-002 -7.348926e+000 -4.473011e+001 -1.370902e+002
78496875 -4.413711e+001 -1.011908e+002 -3.430407e-002 -7.068615e+000 -5.798741e-002 -7.439737e+000 -4.722191e+001 -1.282679e+002
78869062.5 -3.951434e+001 -8.606671e+001 -6.257343e-002 -7.373540e+000 -8.156782e-002 -7.183160e+000 -4.083019e+001 -1.274249e+002
79241250 -3.971656e+001 -9.986007e+001 -7.322747e-002 -7.075702e+000 5.619599e-002 -7.422398e+000 -3.961640e+001 -1.043276e+002
79613437.5 -4.357210e+001 -1.074683e+002 -9.949278e-002 -7.320428e+000 -7.647859e-002 -7.481161e+000 -4.021070e+001 -8.326566e+001
79985625 -4.108368e+001 -9.118645e+001 -6.438954e-002 -7.417734e+000 4.513296e-002 -7.505964e+000 -3.802455e+001 -9.993932e+001
80357812.5 -3.953620e+001 -7.148400e+001 -4.614255e-002 -7.686341e+000 4.133366e-003 -7.374260e+000 -4.601636e+001 -9.562490e+001
80730000 -3.839274e+001 -1.090874e+002 -8.630925e-002 -7.629114e+000 -3.503344e-002 -7.299682e+000 -4.073895e+001 -8.645470e+001
81102187.5 -5.113035e+001 -1.007995e+002 -9.126551e-002 -7.418333e+000 -1.870732e-002 -7.317612e+000 -4.157478e+001 -1.089371e+002
81474375 -4.198274e+001 -7.141328e+001 -7.185657e-002 -7.544747e+000 2.639880e-002 -7.540656e+000 -3.953373e+001 -8.613539e+001
81846562.5 -4.095501e+001 -8.601108e+001 -7.239752e-002 -7.685689e+000 2.289315e-002 -7.711494e+000 -4.112041e+001 -9.585984e+001
82218750 -4.441123e+001 -7.263675e+001 -7.367536e-002 -7.719826e+000 -9.392552e-003 -7.572450e+000 -4.238267e+001 -7.874119e+001
82590937.5 -4.219923e+001 -8.639729e+001 -9.175047e-002 -7.486979e+000 -1.234522e-002 -7.728754e+000 -3.984480e+001 -8.953113e+001
82963125 -4.226857e+001 -7.104671e+001 -6.539623e-002 -7.675673e+000 -1.438855e-002 -7.994108e+000 -4.359007e+001 -6.017486e+001
83335312.5 -4.289178e+001 -1.058075e+002 -9.934872e-002 -7.831759e+000 -2.705572e-002 -7.456592e+000 -4.174178e+001 -9.883435e+001
83707500 -4.884092e+001 -5.798180e+001 -8.278127e-002 -7.694765e+000 2.692194e-002 -7.493025e+000 -4.281926e+001 -1.132039e+002
84079687.5 -4.010786e+001 -8.464288e+001 -4.004750e-002 -7.812174e+000 5.394299e-004 -7.848459e+000 -4.513863e+001 -1.150406e+002
84451875 -4.898627e+001 -1.101455e+002 -7.092866e-002 -7.662421e+000 2.098665e-003 -7.827604e+000 -4.301261e+001 -1.183429e+002
84824062.5 -4.547750e+001 -8.172279e+001 -6.149448e-002 -7.842953e+000 -1.111387e-002 -7.791347e+000 -4.223001e+001 -1.277795e+002
85196250 -4.107815e+001 -1.164853e+002 -3.925494e-002 -7.812294e+000 -3.103382e-002 -7.968398e+000 -3.931880e+001 -1.162761e+002
85568437.5 -4.068603e+001 -9.378867e+001 -9.296045e-002 -8.019378e+000 -2.154136e-003 -8.035401e+000 -4.248572e+001 -1.077339e+002
85940625 -4.333942e+001 -1.028148e+002 -5.595264e-002 -8.157141e+000 -3.669859e-002 -7.850088e+000 -3.785135e+001 -9.288245e+001
86312812.5 -4.087353e+001 -7.980592e+001 -5.151827e-002 -7.844274e+000 -1.958503e-002 -7.963548e+000 -4.050132e+001 -1.054366e+002
86685000 -4.215746e+001 -9.533203e+001 -6.338119e-002 -8.177526e+000 -2.825446e-002 -7.757661e+000 -4.140937e+001 -9.851549e+001
87057187.5 -4.867731e+001 -8.231311e+001 -8.693146e-002 -8.069062e+000 -2.426994e-002 -7.906584e+000 -4.122243e+001 -1.034977e+002
87429375 -4.087493e+001 -8.540095e+001 -6.072273e-002 -8.113801e+000 -3.811203e-002 -8.235580e+000 -3.728376e+001 -8.168417e+001
87801562.5 -4.211034e+001 -1.021286e+002 -6.180491e-002 -7.797229e+000 1.301175e-002 -8.263309e+000 -4.024315e+001 -9.303010e+001
88173750 -4.227099e+001 -1.001926e+002 -8.681319e-002 -7.815604e+000 -2.360620e-003 -8.079201e+000 -4.288372e+001 -1.151827e+002
88545937.5 -4.008029e+001 -1.241164e+002 -3.965309e-002 -8.153895e+000 -2.252054e-003 -8.440192e+000 -4.105644e+001 -9.709449e+001
88918125 -4.322956e+001 -1.012328e+002 -2.696126e-002 -8.115843e+000 -2.946085e-002 -8.048910e+000 -4.238794e+001 -1.092591e+002
89290312.5 -4.064293e+001 -1.169185e+002 -7.756040e-002 -8.184201e+000 3.346071e-003 -8.072323e+000 -4.055055e+001 -1.208870e+002
89662500 -3.955759e+001 -8.663927e+001 -9.081937e-002 -8.330869e+000 7.350810e-003 -8.409401e+000 -3.847510e+001 -1.197239e+002
90034687.5 -4.050939e+001 -8.402669e+001 -4.457848e-002 -8.258750e+000 -1.735587e-002 -8.485296e+000 -3.816628e+001 -1.208059e+002
90406875 -4.114560e+001 -1.072531e+002 -7.708918e-002 -8.481341e+000 -6.552468e-002 -8.523360e+000 -4.007158e+001 -9.163737e+001
90779062.5 -5.087148e+001 -1.045221e+002 -7.194953e-002 -8.346946e+000 -1.346515e-002 -8.253398e+000 -4.136177e+001 -1.058031e+002
91151250 -3.897945e+001 -8.112539e+001 -8.887990e-002 -8.493004e+000 -4.544827e-002 -8.385503e+000 -4.220861e+001 -1.197675e+002
91523437.5 -4.698474e+001 -9.372937e+001 -8.545622e-002 -8.622128e+000 -3.394656e-002 -8.577059e+000 -3.733739e+001 -8.774503e+001
91895625 -3.910162e+001 -9.780257e+001 -3.985973e-002 -8.365242e+000 -2.982640e-002 -8.594698e+000 -3.970193e+001 -9.988964e+001
92267812.5 -4.056740e+001 -1.170389e+002 -6.005559e-002 -8.485502e+000 7.010657e-003 -8.366230e+000 -3.869234e+001 -8.754616e+001
92640000 -4.149603e+001 -1.007082e+002 -8.511870e-002 -8.218124e+000 -1.954331e-002 -8.492576e+000 -3.935126e+001 -1.002212e+002
93012187.5 -3.935884e+001 -8.485677e+001 -6.500468e-003 -8.470384e+000 -3.667111e-002 -8.610920e+000 -4.670213e+001 -1.062181e+002
93384375 -4.282980e+001 -1.083488e+002 -9.363870e-002 -8.286716e+000 -5.365257e-002 -8.907412e+000 -4.243961e+001 -1.087841e+002
93756562.5 -4.077584e+001 -1.147941e+002 -7.415719e-002 -8.629676e+000 -6.450740e-002 -8.768361e+000 -4.034984e+001 -1.064792e+002
94128750 -4.365955e+001 -7.594801e+001 -5.762620e-002 -8.749397e+000 1.036841e-002 -8.707843e+000 -3.972594e+001 -1.060522e+002
94500937.5 -3.901525e+001 -8.416329e+001 -5.720239e-002 -8.886700e+000 -3.664725e-002 -8.728327e+000 -4.278239e+001 -9.964256e+001
94873125 -4.195985e+001 -1.214435e+002 -8.929334e-002 -8.877472e+000 1.158782e-002 -8.730478e+000 -3.841103e+001 -9.666605e+001
95245312.5 -4.474823e+001 -8.733797e+001 -5.421099e-002 -8.795905e+000 1.014576e-002 -8.924670e+000 -3.791567e+001 -1.004199e+002
95617500 -4.440021e+001 -1.052951e+002 -1.050618e-001 -8.958261e+000 -8.235283e-003 -9.066710e+000 -3.766710e+001 -1.021639e+002
95989687.5 -4.288248e+001 -1.331773e+002 -4.289516e-002 -9.002618e+000 1.709986e-002 -8.849535e+000 -3.768716e+001 -9.698534e+001
96361875 -4.056021e+001 -1.130310e+002 -4.366700e-002 -8.708805e+000 -5.138106e-002 -9.291326e+000 -3.996865e+001 -1.051667e+002
96734062.5 -4.237996e+001 -9.013842e+001 -5.771912e-002 -8.797020e+000 1.609619e-002 -9.309695e+000 -3.910160e+001 -9.858488e+001
97106250 -4.417035e+001 -1.377348e+002 -1.043898e-001 -8.905318e+000 1.964294e-002 -9.074561e+000 -4.047190e+001 -9.839058e+001
97478437.5 -4.186012e+001 -1.298981e+002 -7.364242e-002 -8.760148e+000 2.810710e-003 -8.977072e+000 -4.029842e+001 -9.032964e+001
97850625 -3.926155e+001 -9.808952e+001 -9.545232e-002 -9.106157e+000 1.914025e-002 -9.154326e+000 -4.208286e+001 -9.641124e+001
98222812.5 -4.076691e+001 -1.079796e+002 -4.244849e-002 -8.889048e+000 -3.298307e-002 -8.963922e+000 -3.920579e+001 -9.542994e+001
98595000 -4.048465e+001 -9.782446e+001 -1.279264e-001 -9.093721e+000 -2.877997e-002 -9.453484e+000 -3.879329e+001 -1.104471e+002
98967187.5 -4.012953e+001 -1.081495e+002 -3.111416e-002 -9.195928e+000 -4.580427e-003 -9.115500e+000 -3.705630e+001 -1.020913e+002
99339375 -3.974432e+001 -1.100449e+002 -6.981285e-002 -9.150550e+000 9.094515e-003 -9.468659e+000 -3.904708e+001 -9.043505e+001
99711562.5 -4.190268e+001 -9.355910e+001 -8.298872e-002 -9.168140e+000 -1.489920e-003 -9.010942e+000 -3.980046e+001 -1.023507e+002
100083750 -4.174577e+001 -1.213981e+002 -4.295715e-002 -9.502822e+000 2.939041e-003 -9.484548e+000 -3.786185e+001 -8.196216e+001
100455937.5 -4.132162e+001 -8.389829e+001 -8.814427e-002 -9.332098e+000 1.431354e-002 -9.375121e+000 -4.356881e+001 -8.389723e+001
