!Agilent Technologies,E8364A,US41440144,A.06.04.32
!Agilent E8364A: A.06.04.32
!Date: Thursday, November 08, 2018 14:29:41
!Correction: S11(Full 2 Port(1,2)) S21(Full 2 Port(1,2)) S12(Full 2 Port(1,2)) S22(Full 2 Port(1,2)) 
!S2P File: Measurements: S11, S21, S12, S22:
# Hz S  dB   R 50
45000000 -7.025080e-002 -3.213767e+001 -6.131355e+001 1.053008e+001 -5.696960e+001 1.401223e+002 -9.233059e-002 -3.229792e+001
45372187.5 -8.743577e-002 -3.270957e+001 -4.788246e+001 6.393078e+001 -4.709568e+001 -1.474436e+001 -7.868856e-002 -3.258264e+001
45744375 -8.759207e-002 -3.308503e+001 -4.629939e+001 1.342056e+002 -4.787349e+001 -4.598249e+001 -8.016227e-004 -3.298976e+001
46116562.5 -8.187765e-002 -3.319749e+001 -4.871964e+001 -1.562832e+002 -6.627592e+001 -1.485471e+002 -1.027664e-001 -3.309970e+001
46488750 -1.094960e-001 -3.376455e+001 -5.449260e+001 1.279120e+002 -4.609940e+001 1.594946e+001 -7.323240e-002 -3.334492e+001
46860937.5 -4.155579e-002 -3.388429e+001 -4.706313e+001 -6.476407e+001 -4.664738e+001 1.897063e+001 -5.936785e-002 -3.378643e+001
47233125 -8.151595e-002 -3.425130e+001 -4.429859e+001 7.058669e+001 -4.626885e+001 1.257530e+002 -6.220206e-002 -3.387632e+001
47605312.5 -1.306338e-001 -3.421788e+001 -5.258618e+001 4.450834e+001 -4.862170e+001 1.609393e+002 -6.529655e-002 -3.454898e+001
47977500 -6.602626e-002 -3.436962e+001 -5.514755e+001 7.731876e+001 -4.662563e+001 1.657495e+002 -1.184959e-001 -3.437667e+001
48349687.5 -1.045524e-001 -3.448831e+001 -4.567677e+001 -1.159374e+002 -5.099386e+001 -2.369987e+001 -1.018753e-001 -3.474672e+001
48721875 -7.858298e-002 -3.513432e+001 -5.669257e+001 5.033167e+001 -4.886570e+001 -1.163127e+002 -9.214950e-002 -3.509267e+001
49094062.5 -5.087868e-002 -3.513192e+001 -4.804655e+001 8.843086e+001 -5.226387e+001 -1.686151e+002 -5.625073e-002 -3.515116e+001
49466250 -5.253055e-002 -3.575307e+001 -5.293941e+001 8.329662e+001 -5.218635e+001 1.618968e+002 -5.454253e-002 -3.552047e+001
49838437.5 -7.865938e-002 -3.554097e+001 -6.000017e+001 -1.285809e+002 -5.281014e+001 -1.448815e+002 -3.360068e-002 -3.563445e+001
50210625 -1.081626e-001 -3.613633e+001 -4.335934e+001 -1.041250e+002 -4.590200e+001 2.125059e+001 -7.414101e-002 -3.625675e+001
50582812.5 -6.398676e-002 -3.623335e+001 -6.187284e+001 -1.419851e+002 -5.187295e+001 -7.639056e+001 -9.988739e-002 -3.599693e+001
50955000 -7.083917e-002 -3.649126e+001 -5.424170e+001 -6.073989e+001 -4.530776e+001 3.535808e+001 -9.059527e-002 -3.616467e+001
51327187.5 -9.113299e-002 -3.689214e+001 -4.698334e+001 2.854722e+001 -6.186689e+001 3.045475e+001 -5.910473e-002 -3.666506e+001
51699375 -5.818530e-002 -3.728067e+001 -4.773941e+001 -2.610049e+001 -5.380500e+001 -7.019492e+001 -1.082525e-001 -3.700460e+001
52071562.5 -7.091977e-002 -3.695948e+001 -4.302058e+001 -9.016096e+001 -4.846146e+001 8.637787e+001 -9.579220e-002 -3.719252e+001
52443750 -1.098164e-001 -3.724576e+001 -5.312976e+001 -2.218119e+001 -4.985105e+001 1.186081e+002 -7.866123e-002 -3.758213e+001
52815937.5 -1.330450e-001 -3.826037e+001 -4.860462e+001 -3.304557e+001 -5.300347e+001 -8.137046e+001 -1.241790e-001 -3.760877e+001
53188125 -5.910940e-002 -3.812861e+001 -4.216153e+001 -1.595056e+002 -4.799479e+001 -1.759555e+002 -8.141466e-002 -3.805111e+001
53560312.5 -9.641246e-002 -3.821951e+001 -4.708194e+001 3.055489e-002 -4.111811e+001 -1.764278e+002 -1.096155e-001 -3.837257e+001
53932500 -1.227260e-001 -3.875145e+001 -5.499892e+001 1.772708e+002 -4.875864e+001 -2.107326e+001 -1.278231e-001 -3.837833e+001
54304687.5 -8.824512e-002 -3.873963e+001 -5.709057e+001 -8.577171e+001 -4.518557e+001 1.303509e+001 -5.855782e-002 -3.870163e+001
54676875 -5.310306e-002 -3.885714e+001 -5.059592e+001 -1.689888e+002 -5.131483e+001 -2.081673e+001 -1.005590e-001 -3.898684e+001
55049062.5 -1.253508e-001 -3.931903e+001 -4.259319e+001 5.235680e+001 -4.703019e+001 1.654664e+002 -1.123813e-001 -3.922312e+001
55421250 -1.061253e-001 -3.979720e+001 -5.018893e+001 -7.041769e+001 -5.869617e+001 -3.239290e+001 -6.853914e-002 -3.967770e+001
55793437.5 -7.412376e-002 -3.954819e+001 -5.103760e+001 1.532212e+002 -5.245401e+001 -1.832524e+001 -1.050510e-001 -3.958313e+001
56165625 -8.630747e-002 -4.012424e+001 -5.366142e+001 1.683141e+002 -4.762115e+001 2.465638e+001 -1.410815e-001 -3.993081e+001
56537812.5 -1.049916e-001 -4.028771e+001 -5.098005e+001 -3.512530e+001 -5.340393e+001 -8.441254e+001 -8.502861e-002 -4.029047e+001
56910000 -1.362983e-001 -4.054489e+001 -5.051550e+001 1.790788e+000 -4.664371e+001 1.198244e+002 -9.744444e-002 -4.045508e+001
57282187.5 -1.402915e-001 -4.062304e+001 -5.984683e+001 -8.469180e+001 -4.592576e+001 1.286200e+002 -9.003521e-002 -4.078934e+001
57654375 -1.110229e-001 -4.081506e+001 -4.887930e+001 2.282356e+001 -4.711610e+001 -1.594184e+002 -9.502279e-002 -4.100077e+001
58026562.5 -1.096175e-001 -4.114428e+001 -4.982076e+001 1.201726e+002 -4.382607e+001 -3.478920e+001 -5.915113e-002 -4.123252e+001
58398750 -8.592016e-002 -4.158154e+001 -5.661906e+001 -7.245262e+001 -4.954063e+001 -2.231763e+001 -9.212708e-002 -4.149453e+001
58770937.5 -1.075101e-001 -4.147108e+001 -4.890166e+001 3.380553e+001 -5.475295e+001 1.637163e+002 -9.054119e-002 -4.157222e+001
59143125 -1.535374e-001 -4.169523e+001 -5.850840e+001 5.311889e+001 -4.438278e+001 -3.859015e+001 -1.131372e-001 -4.223307e+001
59515312.5 -1.001166e-001 -4.248130e+001 -4.581091e+001 -1.431197e+002 -4.971583e+001 -1.728533e+002 -1.083232e-001 -4.217228e+001
59887500 -1.104386e-001 -4.244331e+001 -4.844495e+001 -8.044235e+001 -5.642556e+001 5.942623e+001 -8.752880e-002 -4.261778e+001
60259687.5 -9.511593e-002 -4.277200e+001 -5.181364e+001 1.532422e+002 -5.143192e+001 6.445632e+001 -1.137924e-001 -4.238559e+001
60631875 -1.118013e-001 -4.304997e+001 -5.286466e+001 1.630548e+002 -4.865065e+001 -1.681392e+002 -1.140011e-001 -4.292783e+001
61004062.5 -1.331226e-001 -4.309970e+001 -4.913625e+001 -1.682423e+001 -4.758662e+001 -1.455595e+002 -9.661974e-002 -4.292685e+001
61376250 -7.956825e-002 -4.344909e+001 -4.505857e+001 6.980732e+001 -4.785848e+001 -1.079952e+002 -7.493450e-002 -4.312964e+001
61748437.5 -1.156173e-001 -4.388828e+001 -5.760820e+001 -2.969208e+001 -5.923725e+001 5.696342e+001 -6.955127e-002 -4.355585e+001
62120625 -1.013246e-001 -4.388544e+001 -5.506412e+001 2.773459e+000 -5.291383e+001 7.222938e+001 -3.395133e-002 -4.392133e+001
62492812.5 -9.142467e-002 -4.423613e+001 -5.065037e+001 3.867171e+001 -5.219301e+001 -1.024281e+001 -1.026774e-001 -4.408333e+001
62865000 -6.956412e-002 -4.442085e+001 -4.918805e+001 2.815762e+001 -5.547431e+001 2.648302e+001 -1.041969e-001 -4.430729e+001
63237187.5 -6.922238e-002 -4.465710e+001 -4.892838e+001 -1.095629e+002 -5.592307e+001 -1.208236e+002 -1.270602e-001 -4.460334e+001
63609375 -1.221940e-001 -4.529948e+001 -4.958303e+001 6.071080e+001 -5.149938e+001 -1.650759e+002 -1.173582e-001 -4.481189e+001
63981562.5 -7.192329e-002 -4.505113e+001 -5.926217e+001 7.106026e+001 -5.073798e+001 -1.746602e+002 -1.315248e-001 -4.503729e+001
64353750 -1.067630e-001 -4.509047e+001 -5.130391e+001 -3.233813e+001 -5.553788e+001 9.672212e+001 -1.252717e-001 -4.543573e+001
64725937.5 -1.105746e-001 -4.556792e+001 -5.325796e+001 8.918187e+001 -6.034681e+001 4.472237e+001 -9.534673e-002 -4.540090e+001
65098125 -1.250489e-001 -4.594814e+001 -5.870179e+001 -1.547134e+002 -5.445547e+001 -5.992881e+001 -8.345456e-002 -4.550721e+001
65470312.5 -7.997604e-002 -4.604870e+001 -4.304845e+001 -1.303018e+002 -5.091452e+001 4.266687e+001 -1.208383e-001 -4.589965e+001
65842500 -1.109185e-001 -4.631308e+001 -5.008339e+001 1.302244e+002 -5.348876e+001 -5.815981e+001 -9.774127e-002 -4.636983e+001
66214687.5 -9.724283e-002 -4.652224e+001 -5.436020e+001 1.539692e+002 -5.974843e+001 -1.056657e+002 -1.080940e-001 -4.670447e+001
66586875 -1.085293e-001 -4.678582e+001 -5.216455e+001 -9.540186e+001 -5.565713e+001 1.429062e+002 -8.989157e-002 -4.697511e+001
66959062.5 -1.170608e-001 -4.705750e+001 -5.476483e+001 1.789544e+002 -5.206797e+001 1.508916e+001 -1.281920e-001 -4.696156e+001
67331250 -1.293489e-001 -4.706224e+001 -5.675222e+001 -9.160116e+001 -5.354381e+001 9.231775e+001 -1.389394e-001 -4.725167e+001
67703437.5 -1.168169e-001 -4.766624e+001 -4.612891e+001 -8.338233e+000 -4.851725e+001 6.965471e+001 -8.628832e-002 -4.737722e+001
68075625 -1.481028e-001 -4.769540e+001 -4.955095e+001 1.357155e+002 -4.773492e+001 4.409777e+001 -1.236282e-001 -4.749498e+001
68447812.5 -1.358089e-001 -4.808084e+001 -5.435996e+001 -4.143934e+001 -5.373991e+001 1.600809e+002 -1.031277e-001 -4.787471e+001
68820000 -1.240040e-001 -4.820268e+001 -6.095520e+001 8.527145e+001 -8.362638e+001 -3.241752e+001 -9.797589e-002 -4.782452e+001
69192187.5 -1.108031e-001 -4.864298e+001 -5.371130e+001 7.776685e+001 -4.664908e+001 -1.348416e+002 -1.131415e-001 -4.844449e+001
69564375 -1.543636e-001 -4.877605e+001 -5.419216e+001 -2.655231e+001 -5.472874e+001 -9.808651e-001 -1.399291e-001 -4.870257e+001
69936562.5 -7.986455e-002 -4.902267e+001 -4.956308e+001 1.096234e+002 -5.216074e+001 -1.164444e+001 -7.506876e-002 -4.876418e+001
70308750 -1.084075e-001 -4.917618e+001 -7.105148e+001 5.364950e+000 -5.537820e+001 -4.276149e+001 -1.087417e-001 -4.893701e+001
70680937.5 -1.573348e-001 -4.937772e+001 -5.884196e+001 -1.018046e+002 -7.527010e+001 -1.410465e+002 -1.176003e-001 -4.936116e+001
71053125 -1.126431e-001 -4.959127e+001 -6.293445e+001 -4.389290e+000 -5.189511e+001 1.502121e+002 -1.360783e-001 -4.945691e+001
71425312.5 -1.118052e-001 -4.963493e+001 -5.037356e+001 -4.177313e+001 -5.630322e+001 -1.077152e+002 -9.247341e-002 -4.981092e+001
71797500 -1.409398e-001 -5.010493e+001 -6.651862e+001 1.635137e+002 -5.494409e+001 -5.991151e+001 -1.213537e-001 -5.016853e+001
72169687.5 -1.189739e-001 -5.019112e+001 -5.374726e+001 1.411157e+002 -4.876667e+001 -1.016053e+002 -1.586263e-001 -5.053436e+001
72541875 -1.370540e-001 -5.059100e+001 -5.510947e+001 -3.117370e+001 -7.336594e+001 1.558575e+002 -1.048024e-001 -5.030623e+001
72914062.5 -1.417525e-001 -5.040068e+001 -5.196267e+001 1.163327e+002 -5.209750e+001 8.648298e+001 -9.870151e-002 -5.071178e+001
73286250 -1.129863e-001 -5.088445e+001 -5.882565e+001 -4.943299e+001 -5.915642e+001 1.762845e+001 -1.174621e-001 -5.087242e+001
73658437.5 -1.373605e-001 -5.113571e+001 -5.132408e+001 -9.882240e+001 -4.656858e+001 -6.797736e+001 -1.448396e-001 -5.113928e+001
74030625 -1.098111e-001 -5.139686e+001 -5.778378e+001 3.072335e+001 -4.695680e+001 -3.362688e+001 -1.092434e-001 -5.109893e+001
74402812.5 -1.375922e-001 -5.166499e+001 -4.601101e+001 -2.034004e+001 -6.283617e+001 1.048518e+002 -1.331484e-001 -5.161141e+001
74775000 -1.281582e-001 -5.179929e+001 -5.423222e+001 -1.212735e+001 -4.997840e+001 -3.412786e+001 -1.132990e-001 -5.192076e+001
75147187.5 -9.706865e-002 -5.209335e+001 -4.572153e+001 -1.612708e+002 -5.381092e+001 -2.403929e+001 -1.594968e-001 -5.211127e+001
75519375 -1.323008e-001 -5.240676e+001 -5.055927e+001 -6.927576e+001 -5.802864e+001 -8.415401e+000 -1.138465e-001 -5.250510e+001
75891562.5 -1.560714e-001 -5.250846e+001 -5.134151e+001 -7.569492e+001 -5.618706e+001 1.496285e+002 -1.068931e-001 -5.253008e+001
76263750 -1.536943e-001 -5.247881e+001 -4.679570e+001 -8.483114e+000 -5.906330e+001 1.430454e+002 -1.197617e-001 -5.245668e+001
76635937.5 -1.472181e-001 -5.308085e+001 -5.267715e+001 -3.733431e+001 -4.924071e+001 4.306081e+001 -1.644567e-001 -5.292429e+001
77008125 -1.295100e-001 -5.332129e+001 -5.638500e+001 -1.707804e+001 -6.452906e+001 -5.221360e+001 -1.306842e-001 -5.303335e+001
77380312.5 -1.386372e-001 -5.347243e+001 -5.280059e+001 4.910662e+001 -5.263707e+001 -4.150247e+001 -1.596281e-001 -5.320346e+001
77752500 -1.347170e-001 -5.364164e+001 -5.317514e+001 5.845983e+001 -5.592772e+001 9.012534e+001 -1.516891e-001 -5.338025e+001
78124687.5 -1.782609e-001 -5.403040e+001 -4.782177e+001 -6.353620e+001 -5.057516e+001 -1.590431e+002 -1.304691e-001 -5.379688e+001
78496875 -1.707871e-001 -5.385446e+001 -6.778474e+001 8.399417e+001 -6.624148e+001 -1.171469e+002 -1.224020e-001 -5.429369e+001
78869062.5 -1.351726e-001 -5.443923e+001 -5.607809e+001 1.069558e+002 -5.281212e+001 7.901370e+001 -1.359832e-001 -5.447601e+001
79241250 -1.279368e-001 -5.450766e+001 -6.042491e+001 -7.375155e+001 -5.553749e+001 -2.812266e+001 -1.350305e-001 -5.469331e+001
79613437.5 -1.287386e-001 -5.468443e+001 -4.411388e+001 4.058284e+001 -6.058812e+001 4.936411e+001 -1.723806e-001 -5.483139e+001
79985625 -1.362517e-001 -5.484712e+001 -5.227176e+001 -6.761382e+001 -5.511605e+001 7.881787e+001 -1.345027e-001 -5.509448e+001
80357812.5 -1.643465e-001 -5.542885e+001 -5.372586e+001 -9.657175e+001 -4.655305e+001 -1.402302e+001 -1.306419e-001 -5.525972e+001
80730000 -1.333685e-001 -5.525350e+001 -6.467985e+001 1.557136e+002 -4.593483e+001 -2.911049e+001 -1.243029e-001 -5.535713e+001
81102187.5 -1.801345e-001 -5.569574e+001 -5.233803e+001 -1.333188e+002 -5.061707e+001 -5.762078e+001 -1.313741e-001 -5.547588e+001
81474375 -1.156123e-001 -5.605440e+001 -4.869110e+001 4.036858e+001 -5.301617e+001 -1.669926e+001 -1.090262e-001 -5.593103e+001
81846562.5 -1.538587e-001 -5.589172e+001 -4.913369e+001 -5.755220e+001 -4.533056e+001 -4.677612e+001 -1.314868e-001 -5.628566e+001
82218750 -1.427157e-001 -5.609236e+001 -5.394060e+001 -2.195141e+001 -5.843240e+001 -3.610625e+001 -1.318071e-001 -5.615186e+001
82590937.5 -1.730952e-001 -5.622152e+001 -4.739135e+001 -9.038503e+001 -5.389906e+001 1.026146e+001 -1.857898e-001 -5.638944e+001
82963125 -1.369368e-001 -5.667813e+001 -5.690196e+001 4.268387e+001 -5.194912e+001 -8.710049e+001 -1.200858e-001 -5.663682e+001
83335312.5 -1.659263e-001 -5.703775e+001 -5.240499e+001 -1.446210e+002 -5.146720e+001 -8.512133e+001 -1.412354e-001 -5.706580e+001
83707500 -1.814651e-001 -5.703121e+001 -5.682645e+001 -7.022817e+001 -5.112470e+001 -1.021190e+002 -1.160488e-001 -5.713459e+001
84079687.5 -1.699179e-001 -5.705715e+001 -5.146428e+001 -1.281978e+002 -5.128420e+001 -1.550378e+002 -1.286678e-001 -5.743549e+001
84451875 -1.468889e-001 -5.720147e+001 -5.350642e+001 1.384937e+002 -4.878863e+001 1.298849e+002 -1.368535e-001 -5.763683e+001
84824062.5 -1.708847e-001 -5.771405e+001 -6.228820e+001 1.092981e+002 -5.429581e+001 -6.556386e+001 -1.092978e-001 -5.803065e+001
85196250 -1.668257e-001 -5.788600e+001 -6.444392e+001 1.462187e+001 -5.198830e+001 -1.414143e+002 -1.134409e-001 -5.799226e+001
85568437.5 -1.636340e-001 -5.806577e+001 -6.384781e+001 8.004026e+001 -5.041600e+001 -1.316113e+002 -1.500037e-001 -5.827819e+001
85940625 -1.589777e-001 -5.842745e+001 -4.965475e+001 6.131510e+000 -6.397998e+001 4.874770e+001 -1.429611e-001 -5.845804e+001
86312812.5 -1.324014e-001 -5.878646e+001 -5.455222e+001 -8.271619e+001 -4.788966e+001 -2.304902e+001 -1.300266e-001 -5.867092e+001
86685000 -1.503288e-001 -5.880375e+001 -5.617316e+001 1.393331e+002 -5.716963e+001 -5.176411e+001 -1.687196e-001 -5.873445e+001
87057187.5 -1.635479e-001 -5.906171e+001 -5.373210e+001 1.080400e+002 -5.098355e+001 -1.095767e+002 -1.394829e-001 -5.936598e+001
87429375 -1.114231e-001 -5.925822e+001 -5.737375e+001 4.406311e+001 -5.132066e+001 1.776190e+002 -1.452445e-001 -5.920885e+001
87801562.5 -1.490780e-001 -5.964241e+001 -5.391341e+001 -4.563680e+001 -5.303231e+001 1.372780e+002 -1.626089e-001 -5.943672e+001
88173750 -1.557545e-001 -5.956198e+001 -4.939240e+001 -1.465160e+002 -6.249083e+001 1.320321e+002 -1.153109e-001 -5.948518e+001
88545937.5 -1.570741e-001 -5.994421e+001 -5.288857e+001 1.185829e+002 -6.170974e+001 1.159474e+002 -1.118632e-001 -5.990361e+001
88918125 -1.501737e-001 -5.989488e+001 -5.099934e+001 5.905653e+001 -5.375813e+001 1.126195e+002 -1.563221e-001 -5.999633e+001
89290312.5 -1.625936e-001 -6.032788e+001 -5.207530e+001 -1.261984e+002 -5.475883e+001 7.730755e+000 -1.306764e-001 -6.025558e+001
89662500 -1.217757e-001 -6.050659e+001 -5.778259e+001 -9.755880e+001 -5.225511e+001 -4.944332e+001 -1.642214e-001 -6.057920e+001
90034687.5 -1.463598e-001 -6.056599e+001 -5.951376e+001 -1.222232e+002 -5.921651e+001 -1.751737e+002 -1.548136e-001 -6.060364e+001
90406875 -1.127282e-001 -6.104577e+001 -5.410974e+001 1.944240e+001 -5.051065e+001 -1.794135e+002 -1.402344e-001 -6.085744e+001
90779062.5 -1.505839e-001 -6.108426e+001 -5.436714e+001 1.622333e+002 -5.960787e+001 9.256882e+001 -1.651158e-001 -6.137888e+001
91151250 -1.275822e-001 -6.130651e+001 -6.031095e+001 1.381129e+002 -4.704731e+001 -1.654759e+002 -1.915964e-001 -6.141144e+001
91523437.5 -1.647580e-001 -6.133067e+001 -5.125694e+001 -1.316609e+002 -5.995407e+001 1.436739e+002 -1.864401e-001 -6.161761e+001
91895625 -1.663390e-001 -6.160624e+001 -5.640348e+001 1.409067e+001 -5.496296e+001 -1.753766e+001 -1.593159e-001 -6.160519e+001
92267812.5 -1.307053e-001 -6.162555e+001 -5.438646e+001 2.305969e+001 -5.355887e+001 7.251416e+001 -1.467053e-001 -6.200994e+001
92640000 -1.459366e-001 -6.237142e+001 -5.815466e+001 -7.962303e+001 -5.814703e+001 -1.746933e+002 -1.875827e-001 -6.235430e+001
93012187.5 -1.741153e-001 -6.233194e+001 -5.424038e+001 -1.422558e+002 -5.469337e+001 4.771761e+001 -1.691212e-001 -6.254568e+001
93384375 -1.441651e-001 -6.271690e+001 -6.631706e+001 -3.436342e+001 -4.833955e+001 -1.371174e+002 -1.552712e-001 -6.260423e+001
93756562.5 -1.671043e-001 -6.263564e+001 -5.787233e+001 -1.191819e+002 -6.327015e+001 1.177794e+002 -1.743612e-001 -6.283583e+001
94128750 -1.923286e-001 -6.275864e+001 -5.455610e+001 -6.330325e+001 -5.640194e+001 -4.580375e+001 -1.748922e-001 -6.340257e+001
94500937.5 -1.563946e-001 -6.326903e+001 -5.407246e+001 1.587430e+002 -5.062911e+001 -1.279538e+002 -1.573111e-001 -6.317285e+001
94873125 -1.539039e-001 -6.364414e+001 -6.129433e+001 -1.005105e+002 -5.401171e+001 -1.052792e+002 -1.350283e-001 -6.355809e+001
95245312.5 -1.308401e-001 -6.351807e+001 -6.477138e+001 -3.636968e+000 -5.939791e+001 -1.682533e+002 -1.619731e-001 -6.402061e+001
95617500 -1.892636e-001 -6.400056e+001 -5.363150e+001 1.493707e+002 -5.344931e+001 1.866340e+001 -1.733978e-001 -6.400653e+001
95989687.5 -1.276967e-001 -6.411147e+001 -4.989236e+001 -3.291319e+001 -5.930783e+001 -1.627497e+002 -1.502132e-001 -6.416676e+001
96361875 -1.559279e-001 -6.424102e+001 -5.464676e+001 1.699206e+002 -5.756587e+001 -7.633038e+001 -1.662271e-001 -6.425227e+001
96734062.5 -1.162091e-001 -6.423345e+001 -5.342757e+001 1.662569e+002 -4.949909e+001 -9.774093e+001 -9.271251e-002 -6.455140e+001
97106250 -1.258114e-001 -6.468065e+001 -6.074263e+001 -1.646390e+001 -5.748078e+001 5.203712e+001 -1.508783e-001 -6.509412e+001
97478437.5 -1.082272e-001 -6.483974e+001 -5.942810e+001 -1.754321e+002 -5.845229e+001 1.191413e+002 -1.412666e-001 -6.511623e+001
97850625 -1.315035e-001 -6.508936e+001 -5.104509e+001 1.727633e+002 -5.748676e+001 -1.713187e+002 -1.620021e-001 -6.515529e+001
98222812.5 -1.442341e-001 -6.510906e+001 -6.260413e+001 -1.100245e+001 -5.958855e+001 6.003426e+001 -1.460789e-001 -6.545061e+001
98595000 -1.530505e-001 -6.563415e+001 -5.326163e+001 -1.636585e+002 -5.090140e+001 -1.728976e+002 -1.456471e-001 -6.574711e+001
98967187.5 -1.615366e-001 -6.580851e+001 -5.295215e+001 -1.566583e+002 -5.552517e+001 -1.292732e+002 -1.739528e-001 -6.567832e+001
99339375 -1.344371e-001 -6.595789e+001 -7.036598e+001 -1.254422e+002 -6.296736e+001 -2.730436e+001 -1.358097e-001 -6.591655e+001
99711562.5 -1.439114e-001 -6.622919e+001 -4.894633e+001 -1.071318e+002 -4.795429e+001 -1.661265e+002 -1.658032e-001 -6.630611e+001
100083750 -1.476225e-001 -6.621644e+001 -5.292128e+001 -7.876332e+001 -5.742249e+001 1.429032e+002 -1.857047e-001 -6.637250e+001
100455937.5 -1.476955e-001 -6.639715e+001 -5.347545e+001 -1.005967e+002 -5.234186e+001 1.159478e+002 -1.780089e-001 -6.656557e+001
100828125 -1.194746e-001 -6.660879e+001 -4.860519e+001 1.082249e+002 -6.645374e+001 7.114999e+001 -1.577135e-001 -6.704649e+001
