!Agilent Technologies,E8364A,US41440144,A.06.04.32
!Agilent E8364A: A.06.04.32
!Date: Thursday, November 08, 2018 15:45:00
!Correction: S11(Full 2 Port(1,2)) S21(Full 2 Port(1,2)) S12(Full 2 Port(1,2)) S22(Full 2 Port(1,2)) 
!S2P File: Measurements: S11, S21, S12, S22:
# Hz S  dB   R 50
45000000 -1.772594e+001 -9.449148e+001 -1.943098e+001 1.479951e+001 1.547253e+001 1.637525e+002 -1.018206e+001 -7.324720e+001
45372187.5 -1.775423e+001 -9.583241e+001 -1.936803e+001 1.438486e+001 1.543975e+001 1.638079e+002 -1.024066e+001 -7.319947e+001
45744375 -1.788077e+001 -9.662804e+001 -1.940385e+001 1.479135e+001 1.543564e+001 1.636731e+002 -1.027248e+001 -7.345306e+001
46116562.5 -1.797951e+001 -9.645493e+001 -1.939246e+001 1.407211e+001 1.543431e+001 1.636453e+002 -1.033019e+001 -7.339919e+001
46488750 -1.801673e+001 -9.746925e+001 -1.933031e+001 1.353811e+001 1.543487e+001 1.635877e+002 -1.038953e+001 -7.373048e+001
46860937.5 -1.802522e+001 -9.766630e+001 -1.933466e+001 1.324385e+001 1.541107e+001 1.636293e+002 -1.047975e+001 -7.379614e+001
47233125 -1.800886e+001 -9.833061e+001 -1.935378e+001 1.354573e+001 1.539989e+001 1.636424e+002 -1.055509e+001 -7.376874e+001
47605312.5 -1.815191e+001 -9.833139e+001 -1.935949e+001 1.317625e+001 1.538188e+001 1.635344e+002 -1.058375e+001 -7.415169e+001
47977500 -1.816335e+001 -9.910915e+001 -1.935558e+001 1.290913e+001 1.537542e+001 1.633664e+002 -1.069065e+001 -7.431568e+001
48349687.5 -1.823109e+001 -9.985361e+001 -1.933389e+001 1.261013e+001 1.536618e+001 1.634916e+002 -1.074457e+001 -7.413918e+001
48721875 -1.827315e+001 -1.002732e+002 -1.935970e+001 1.204437e+001 1.534781e+001 1.633219e+002 -1.078689e+001 -7.416302e+001
49094062.5 -1.831155e+001 -1.001515e+002 -1.935019e+001 1.216571e+001 1.535191e+001 1.632970e+002 -1.085475e+001 -7.445515e+001
49466250 -1.841592e+001 -1.011870e+002 -1.933005e+001 1.206284e+001 1.533953e+001 1.633262e+002 -1.087430e+001 -7.477760e+001
49838437.5 -1.842974e+001 -1.020093e+002 -1.934744e+001 1.177395e+001 1.530605e+001 1.632474e+002 -1.095905e+001 -7.475058e+001
50210625 -1.847841e+001 -1.022455e+002 -1.941116e+001 1.142635e+001 1.529946e+001 1.631691e+002 -1.099743e+001 -7.462479e+001
50582812.5 -1.853941e+001 -1.030061e+002 -1.938355e+001 1.132185e+001 1.530887e+001 1.630758e+002 -1.105264e+001 -7.490315e+001
50955000 -1.857389e+001 -1.033345e+002 -1.934785e+001 1.130704e+001 1.529575e+001 1.630961e+002 -1.112310e+001 -7.519406e+001
51327187.5 -1.866315e+001 -1.038402e+002 -1.926488e+001 1.108975e+001 1.528776e+001 1.630323e+002 -1.120274e+001 -7.543430e+001
51699375 -1.865881e+001 -1.043628e+002 -1.932315e+001 1.056601e+001 1.527074e+001 1.630209e+002 -1.127431e+001 -7.519083e+001
52071562.5 -1.868336e+001 -1.046359e+002 -1.937125e+001 1.032811e+001 1.525674e+001 1.629412e+002 -1.129987e+001 -7.529936e+001
52443750 -1.884360e+001 -1.053976e+002 -1.932349e+001 1.011365e+001 1.525900e+001 1.628780e+002 -1.134910e+001 -7.524453e+001
52815937.5 -1.876135e+001 -1.060613e+002 -1.930569e+001 1.026300e+001 1.527162e+001 1.628492e+002 -1.140510e+001 -7.557343e+001
53188125 -1.879164e+001 -1.058315e+002 -1.931637e+001 1.000442e+001 1.524906e+001 1.627790e+002 -1.143367e+001 -7.571816e+001
53560312.5 -1.888589e+001 -1.066583e+002 -1.933657e+001 9.546677e+000 1.521366e+001 1.627701e+002 -1.153925e+001 -7.584058e+001
53932500 -1.895506e+001 -1.066834e+002 -1.931159e+001 9.575583e+000 1.522950e+001 1.626834e+002 -1.158566e+001 -7.568847e+001
54304687.5 -1.896105e+001 -1.075077e+002 -1.932393e+001 9.603395e+000 1.521184e+001 1.626908e+002 -1.164764e+001 -7.588864e+001
54676875 -1.899568e+001 -1.076734e+002 -1.929237e+001 9.028571e+000 1.520351e+001 1.626672e+002 -1.168952e+001 -7.604971e+001
55049062.5 -1.903395e+001 -1.081134e+002 -1.929378e+001 9.015175e+000 1.519757e+001 1.625859e+002 -1.171535e+001 -7.615254e+001
55421250 -1.911131e+001 -1.083278e+002 -1.927955e+001 8.805655e+000 1.519822e+001 1.626096e+002 -1.176597e+001 -7.615703e+001
55793437.5 -1.918174e+001 -1.087087e+002 -1.930284e+001 9.004597e+000 1.518425e+001 1.625004e+002 -1.185780e+001 -7.631725e+001
56165625 -1.909189e+001 -1.094392e+002 -1.927774e+001 8.515934e+000 1.519587e+001 1.623564e+002 -1.187492e+001 -7.650928e+001
56537812.5 -1.919884e+001 -1.101257e+002 -1.925934e+001 7.961558e+000 1.517094e+001 1.624465e+002 -1.196411e+001 -7.664321e+001
56910000 -1.921631e+001 -1.101654e+002 -1.922559e+001 8.098158e+000 1.516232e+001 1.622973e+002 -1.197022e+001 -7.634298e+001
57282187.5 -1.936180e+001 -1.108705e+002 -1.921127e+001 7.958688e+000 1.515890e+001 1.623143e+002 -1.202541e+001 -7.667981e+001
57654375 -1.941334e+001 -1.108830e+002 -1.924114e+001 7.796217e+000 1.516423e+001 1.623443e+002 -1.205920e+001 -7.651351e+001
58026562.5 -1.942968e+001 -1.116139e+002 -1.926481e+001 7.801685e+000 1.514066e+001 1.622079e+002 -1.210324e+001 -7.689792e+001
58398750 -1.940094e+001 -1.114935e+002 -1.927355e+001 7.500484e+000 1.514284e+001 1.622829e+002 -1.218357e+001 -7.671640e+001
58770937.5 -1.948242e+001 -1.117265e+002 -1.926772e+001 7.202388e+000 1.513252e+001 1.621384e+002 -1.226966e+001 -7.686455e+001
59143125 -1.941627e+001 -1.130062e+002 -1.922602e+001 7.137507e+000 1.512911e+001 1.620850e+002 -1.226891e+001 -7.705054e+001
59515312.5 -1.954506e+001 -1.131118e+002 -1.926442e+001 6.907806e+000 1.511742e+001 1.620593e+002 -1.232497e+001 -7.680943e+001
59887500 -1.958258e+001 -1.138393e+002 -1.925320e+001 6.736752e+000 1.510687e+001 1.620835e+002 -1.236813e+001 -7.710190e+001
60259687.5 -1.961719e+001 -1.138853e+002 -1.924826e+001 6.601429e+000 1.510051e+001 1.621816e+002 -1.243791e+001 -7.695262e+001
60631875 -1.965639e+001 -1.141214e+002 -1.925784e+001 6.084545e+000 1.510269e+001 1.619676e+002 -1.247364e+001 -7.732668e+001
61004062.5 -1.971774e+001 -1.141950e+002 -1.924788e+001 6.194699e+000 1.507542e+001 1.618548e+002 -1.252289e+001 -7.749120e+001
61376250 -1.968999e+001 -1.149327e+002 -1.922433e+001 6.055329e+000 1.509259e+001 1.618985e+002 -1.254717e+001 -7.726915e+001
61748437.5 -1.984043e+001 -1.152955e+002 -1.923949e+001 5.863878e+000 1.506940e+001 1.618711e+002 -1.262711e+001 -7.751986e+001
62120625 -1.978287e+001 -1.163061e+002 -1.923511e+001 5.703409e+000 1.508244e+001 1.617538e+002 -1.262024e+001 -7.747496e+001
62492812.5 -1.986485e+001 -1.161354e+002 -1.923608e+001 5.825070e+000 1.506286e+001 1.616906e+002 -1.271163e+001 -7.762930e+001
62865000 -1.991293e+001 -1.168457e+002 -1.926648e+001 5.420923e+000 1.507692e+001 1.617950e+002 -1.273628e+001 -7.754092e+001
63237187.5 -1.988193e+001 -1.168657e+002 -1.923190e+001 5.498330e+000 1.505979e+001 1.616050e+002 -1.280377e+001 -7.763426e+001
63609375 -1.994458e+001 -1.173724e+002 -1.924518e+001 5.196114e+000 1.505284e+001 1.614613e+002 -1.283667e+001 -7.788126e+001
63981562.5 -2.000974e+001 -1.173327e+002 -1.921562e+001 5.095578e+000 1.503920e+001 1.615336e+002 -1.290732e+001 -7.783985e+001
64353750 -2.008576e+001 -1.178419e+002 -1.923049e+001 4.838117e+000 1.502914e+001 1.614774e+002 -1.292425e+001 -7.805834e+001
64725937.5 -2.009763e+001 -1.182639e+002 -1.924123e+001 4.512661e+000 1.503952e+001 1.613774e+002 -1.295665e+001 -7.770158e+001
65098125 -2.016440e+001 -1.185736e+002 -1.923406e+001 4.578857e+000 1.502817e+001 1.613551e+002 -1.301532e+001 -7.812167e+001
65470312.5 -2.017943e+001 -1.186022e+002 -1.919081e+001 4.594320e+000 1.503272e+001 1.612281e+002 -1.307536e+001 -7.803349e+001
65842500 -2.011320e+001 -1.195359e+002 -1.923639e+001 4.302196e+000 1.501760e+001 1.612937e+002 -1.308027e+001 -7.794918e+001
66214687.5 -2.017692e+001 -1.199904e+002 -1.921709e+001 4.169663e+000 1.502077e+001 1.612951e+002 -1.317287e+001 -7.802983e+001
66586875 -2.024110e+001 -1.202732e+002 -1.926102e+001 3.990720e+000 1.501655e+001 1.611210e+002 -1.317956e+001 -7.815218e+001
66959062.5 -2.020699e+001 -1.198922e+002 -1.919493e+001 3.642305e+000 1.499203e+001 1.611621e+002 -1.323877e+001 -7.821503e+001
67331250 -2.029879e+001 -1.203762e+002 -1.924183e+001 3.571961e+000 1.499290e+001 1.610283e+002 -1.330699e+001 -7.833247e+001
67703437.5 -2.028548e+001 -1.216518e+002 -1.923686e+001 3.261953e+000 1.499119e+001 1.609999e+002 -1.331473e+001 -7.841040e+001
68075625 -2.043080e+001 -1.212507e+002 -1.918121e+001 3.487725e+000 1.499258e+001 1.610643e+002 -1.334326e+001 -7.817265e+001
68447812.5 -2.038291e+001 -1.220253e+002 -1.924202e+001 3.018149e+000 1.496905e+001 1.609240e+002 -1.339977e+001 -7.854268e+001
68820000 -2.051746e+001 -1.223960e+002 -1.924941e+001 3.555597e+000 1.497002e+001 1.608444e+002 -1.344534e+001 -7.842960e+001
69192187.5 -2.037782e+001 -1.223678e+002 -1.921323e+001 3.043716e+000 1.497050e+001 1.607306e+002 -1.348961e+001 -7.850545e+001
69564375 -2.044379e+001 -1.226744e+002 -1.923435e+001 2.952408e+000 1.496774e+001 1.607028e+002 -1.356142e+001 -7.877100e+001
69936562.5 -2.048033e+001 -1.228071e+002 -1.923228e+001 2.763651e+000 1.495882e+001 1.607411e+002 -1.357238e+001 -7.853326e+001
70308750 -2.056657e+001 -1.234732e+002 -1.922844e+001 2.511157e+000 1.495274e+001 1.606836e+002 -1.359566e+001 -7.858543e+001
70680937.5 -2.058720e+001 -1.236499e+002 -1.919239e+001 2.471719e+000 1.495221e+001 1.606589e+002 -1.362719e+001 -7.842461e+001
71053125 -2.062259e+001 -1.239645e+002 -1.921970e+001 2.260899e+000 1.494439e+001 1.606764e+002 -1.366028e+001 -7.872021e+001
71425312.5 -2.066445e+001 -1.239501e+002 -1.919714e+001 2.122835e+000 1.495843e+001 1.605176e+002 -1.368344e+001 -7.878800e+001
71797500 -2.061334e+001 -1.246679e+002 -1.916410e+001 1.921661e+000 1.494972e+001 1.604335e+002 -1.377861e+001 -7.874448e+001
72169687.5 -2.060675e+001 -1.247475e+002 -1.919293e+001 1.650761e+000 1.494635e+001 1.605390e+002 -1.378331e+001 -7.908192e+001
72541875 -2.072231e+001 -1.252593e+002 -1.920065e+001 1.657357e+000 1.493124e+001 1.603993e+002 -1.384253e+001 -7.868176e+001
72914062.5 -2.071670e+001 -1.252787e+002 -1.918610e+001 1.606684e+000 1.490061e+001 1.604406e+002 -1.391062e+001 -7.882142e+001
73286250 -2.081015e+001 -1.258815e+002 -1.919167e+001 1.583598e+000 1.491734e+001 1.603408e+002 -1.390445e+001 -7.920340e+001
73658437.5 -2.079161e+001 -1.260547e+002 -1.918462e+001 1.220739e+000 1.491207e+001 1.601924e+002 -1.396828e+001 -7.897038e+001
74030625 -2.087270e+001 -1.265156e+002 -1.917133e+001 1.126049e+000 1.491779e+001 1.602524e+002 -1.397311e+001 -7.911323e+001
74402812.5 -2.088742e+001 -1.270361e+002 -1.922230e+001 1.236699e+000 1.490416e+001 1.603464e+002 -1.400331e+001 -7.922369e+001
74775000 -2.085332e+001 -1.273237e+002 -1.922164e+001 9.952048e-001 1.490295e+001 1.600903e+002 -1.408368e+001 -7.912240e+001
75147187.5 -2.096136e+001 -1.271662e+002 -1.920312e+001 1.036224e+000 1.489134e+001 1.600780e+002 -1.410126e+001 -7.938191e+001
75519375 -2.093124e+001 -1.278500e+002 -1.919752e+001 5.280793e-001 1.488524e+001 1.600825e+002 -1.413025e+001 -7.937390e+001
75891562.5 -2.098956e+001 -1.280241e+002 -1.917939e+001 6.733075e-001 1.489809e+001 1.599258e+002 -1.415085e+001 -7.927319e+001
76263750 -2.102912e+001 -1.278493e+002 -1.916162e+001 2.396180e-001 1.490344e+001 1.598810e+002 -1.417351e+001 -7.945067e+001
76635937.5 -2.102764e+001 -1.287586e+002 -1.918649e+001 2.475846e-001 1.487938e+001 1.600056e+002 -1.421649e+001 -7.927391e+001
77008125 -2.101987e+001 -1.286695e+002 -1.916596e+001 1.979674e-002 1.487952e+001 1.598850e+002 -1.424925e+001 -7.939712e+001
77380312.5 -2.110916e+001 -1.290656e+002 -1.917137e+001 1.205005e-001 1.487338e+001 1.597430e+002 -1.432888e+001 -7.962318e+001
77752500 -2.110286e+001 -1.293831e+002 -1.919067e+001 7.514805e-002 1.487594e+001 1.597656e+002 -1.432446e+001 -7.944262e+001
78124687.5 -2.113775e+001 -1.298434e+002 -1.919992e+001 -1.776980e-001 1.488158e+001 1.598273e+002 -1.437213e+001 -7.961575e+001
78496875 -2.112726e+001 -1.299559e+002 -1.918579e+001 -3.708880e-001 1.486594e+001 1.596883e+002 -1.441632e+001 -7.971901e+001
78869062.5 -2.123444e+001 -1.302223e+002 -1.921854e+001 -3.883138e-001 1.484812e+001 1.595222e+002 -1.444194e+001 -7.960895e+001
79241250 -2.120532e+001 -1.302729e+002 -1.919115e+001 -7.006732e-001 1.485910e+001 1.596604e+002 -1.446716e+001 -7.968848e+001
79613437.5 -2.122849e+001 -1.310651e+002 -1.917667e+001 -8.327798e-001 1.484921e+001 1.595511e+002 -1.452007e+001 -7.982423e+001
79985625 -2.126648e+001 -1.307162e+002 -1.917218e+001 -7.222732e-001 1.486552e+001 1.595211e+002 -1.454128e+001 -7.988618e+001
80357812.5 -2.134196e+001 -1.313429e+002 -1.916263e+001 -8.010760e-001 1.485548e+001 1.594015e+002 -1.454579e+001 -7.970570e+001
80730000 -2.129268e+001 -1.311241e+002 -1.917358e+001 -1.022447e+000 1.486349e+001 1.593243e+002 -1.457895e+001 -7.987860e+001
81102187.5 -2.136277e+001 -1.316194e+002 -1.917198e+001 -9.627663e-001 1.485502e+001 1.594436e+002 -1.465864e+001 -8.003889e+001
81474375 -2.131355e+001 -1.317912e+002 -1.916896e+001 -1.347243e+000 1.483981e+001 1.593401e+002 -1.465264e+001 -7.991615e+001
81846562.5 -2.130171e+001 -1.320507e+002 -1.917452e+001 -1.320978e+000 1.486326e+001 1.591456e+002 -1.469742e+001 -8.011176e+001
82218750 -2.141745e+001 -1.325369e+002 -1.914553e+001 -1.579578e+000 1.484258e+001 1.590885e+002 -1.469403e+001 -8.006594e+001
82590937.5 -2.145286e+001 -1.327739e+002 -1.916149e+001 -1.655932e+000 1.483600e+001 1.591062e+002 -1.474957e+001 -8.006809e+001
82963125 -2.146336e+001 -1.332216e+002 -1.917996e+001 -1.901343e+000 1.484293e+001 1.589627e+002 -1.475005e+001 -8.023956e+001
83335312.5 -2.147405e+001 -1.333780e+002 -1.919611e+001 -1.793796e+000 1.482247e+001 1.589576e+002 -1.484843e+001 -8.020501e+001
83707500 -2.148689e+001 -1.336285e+002 -1.914969e+001 -1.852861e+000 1.483152e+001 1.589524e+002 -1.483078e+001 -8.015905e+001
84079687.5 -2.153207e+001 -1.340105e+002 -1.920672e+001 -2.141807e+000 1.483630e+001 1.587942e+002 -1.488865e+001 -8.013225e+001
84451875 -2.153958e+001 -1.340597e+002 -1.917936e+001 -2.111598e+000 1.482526e+001 1.588593e+002 -1.490044e+001 -8.012220e+001
84824062.5 -2.155463e+001 -1.345212e+002 -1.914994e+001 -2.208476e+000 1.483929e+001 1.588349e+002 -1.493650e+001 -8.022324e+001
85196250 -2.157094e+001 -1.345336e+002 -1.918063e+001 -2.307046e+000 1.481166e+001 1.586578e+002 -1.495201e+001 -8.041295e+001
85568437.5 -2.165565e+001 -1.347045e+002 -1.913768e+001 -2.730719e+000 1.480518e+001 1.587052e+002 -1.499412e+001 -8.040320e+001
85940625 -2.164623e+001 -1.351782e+002 -1.917811e+001 -2.695313e+000 1.482458e+001 1.586472e+002 -1.501151e+001 -8.038860e+001
86312812.5 -2.165236e+001 -1.353493e+002 -1.915311e+001 -2.740836e+000 1.480919e+001 1.586063e+002 -1.507624e+001 -8.041521e+001
86685000 -2.167085e+001 -1.356180e+002 -1.916881e+001 -2.716073e+000 1.481106e+001 1.584936e+002 -1.508848e+001 -8.037721e+001
87057187.5 -2.163533e+001 -1.358781e+002 -1.914783e+001 -3.043026e+000 1.477941e+001 1.584469e+002 -1.510679e+001 -8.019306e+001
87429375 -2.173458e+001 -1.357102e+002 -1.918849e+001 -3.147078e+000 1.479591e+001 1.585043e+002 -1.515774e+001 -8.055467e+001
87801562.5 -2.174255e+001 -1.361537e+002 -1.915668e+001 -3.299699e+000 1.480147e+001 1.584258e+002 -1.516392e+001 -8.045197e+001
88173750 -2.180017e+001 -1.363037e+002 -1.914722e+001 -3.194497e+000 1.478400e+001 1.583439e+002 -1.523471e+001 -8.059835e+001
88545937.5 -2.174570e+001 -1.369997e+002 -1.915799e+001 -3.572475e+000 1.480900e+001 1.581917e+002 -1.523242e+001 -8.072236e+001
88918125 -2.179298e+001 -1.375547e+002 -1.914752e+001 -3.744249e+000 1.479745e+001 1.581417e+002 -1.525714e+001 -8.076472e+001
89290312.5 -2.180659e+001 -1.377594e+002 -1.916763e+001 -3.525791e+000 1.479561e+001 1.582632e+002 -1.528531e+001 -8.080414e+001
89662500 -2.177903e+001 -1.371745e+002 -1.914479e+001 -3.740206e+000 1.478871e+001 1.580622e+002 -1.534168e+001 -8.082097e+001
90034687.5 -2.185524e+001 -1.378298e+002 -1.916840e+001 -3.943698e+000 1.478429e+001 1.582051e+002 -1.533298e+001 -8.081888e+001
90406875 -2.183175e+001 -1.377307e+002 -1.915267e+001 -4.211890e+000 1.477486e+001 1.580663e+002 -1.535714e+001 -8.087514e+001
90779062.5 -2.190459e+001 -1.383646e+002 -1.912845e+001 -4.172111e+000 1.478067e+001 1.579570e+002 -1.541144e+001 -8.106885e+001
91151250 -2.191299e+001 -1.386642e+002 -1.913276e+001 -4.304628e+000 1.476384e+001 1.580197e+002 -1.545655e+001 -8.093365e+001
91523437.5 -2.196534e+001 -1.386267e+002 -1.918619e+001 -4.147297e+000 1.476640e+001 1.576433e+002 -1.549047e+001 -8.089400e+001
91895625 -2.191310e+001 -1.388690e+002 -1.915029e+001 -4.190639e+000 1.476386e+001 1.578275e+002 -1.550110e+001 -8.094727e+001
92267812.5 -2.194663e+001 -1.390385e+002 -1.913781e+001 -4.454735e+000 1.478217e+001 1.578480e+002 -1.553019e+001 -8.095366e+001
92640000 -2.200540e+001 -1.395554e+002 -1.914288e+001 -4.465744e+000 1.476550e+001 1.577713e+002 -1.554416e+001 -8.127965e+001
93012187.5 -2.200438e+001 -1.391237e+002 -1.916204e+001 -4.520698e+000 1.477881e+001 1.576490e+002 -1.556792e+001 -8.126832e+001
93384375 -2.202137e+001 -1.397242e+002 -1.913605e+001 -4.980987e+000 1.476382e+001 1.575004e+002 -1.559032e+001 -8.117731e+001
93756562.5 -2.200507e+001 -1.398696e+002 -1.915281e+001 -5.193821e+000 1.477050e+001 1.574810e+002 -1.561249e+001 -8.140647e+001
94128750 -2.205796e+001 -1.404307e+002 -1.913539e+001 -5.045554e+000 1.475352e+001 1.573975e+002 -1.568530e+001 -8.154113e+001
94500937.5 -2.205250e+001 -1.401729e+002 -1.914149e+001 -5.067360e+000 1.474606e+001 1.574493e+002 -1.568191e+001 -8.117540e+001
94873125 -2.207370e+001 -1.408287e+002 -1.913379e+001 -5.149494e+000 1.476362e+001 1.574655e+002 -1.570774e+001 -8.133242e+001
95245312.5 -2.216237e+001 -1.410420e+002 -1.915013e+001 -5.387467e+000 1.475982e+001 1.572715e+002 -1.575101e+001 -8.140448e+001
95617500 -2.215991e+001 -1.411515e+002 -1.914228e+001 -5.434348e+000 1.475032e+001 1.572226e+002 -1.577997e+001 -8.150580e+001
95989687.5 -2.211100e+001 -1.413401e+002 -1.913634e+001 -5.361676e+000 1.473530e+001 1.572657e+002 -1.580230e+001 -8.132948e+001
96361875 -2.212907e+001 -1.413051e+002 -1.912448e+001 -5.649097e+000 1.474029e+001 1.572097e+002 -1.580861e+001 -8.132552e+001
96734062.5 -2.215429e+001 -1.419068e+002 -1.912605e+001 -5.723240e+000 1.474905e+001 1.572153e+002 -1.582583e+001 -8.160886e+001
97106250 -2.214590e+001 -1.422470e+002 -1.913343e+001 -5.793168e+000 1.474256e+001 1.570429e+002 -1.588379e+001 -8.151005e+001
97478437.5 -2.223501e+001 -1.420656e+002 -1.913764e+001 -5.847124e+000 1.476684e+001 1.570632e+002 -1.587560e+001 -8.143146e+001
97850625 -2.226110e+001 -1.422255e+002 -1.915072e+001 -6.057856e+000 1.474279e+001 1.567903e+002 -1.587852e+001 -8.172135e+001
98222812.5 -2.222221e+001 -1.429216e+002 -1.916734e+001 -6.330009e+000 1.474330e+001 1.568790e+002 -1.595042e+001 -8.155412e+001
98595000 -2.223900e+001 -1.431759e+002 -1.913528e+001 -6.334604e+000 1.474342e+001 1.568278e+002 -1.597918e+001 -8.157343e+001
98967187.5 -2.228124e+001 -1.433480e+002 -1.913206e+001 -6.458329e+000 1.474038e+001 1.566250e+002 -1.600486e+001 -8.164786e+001
99339375 -2.231319e+001 -1.432913e+002 -1.914087e+001 -6.327430e+000 1.473507e+001 1.566153e+002 -1.598191e+001 -8.179759e+001
99711562.5 -2.227009e+001 -1.436162e+002 -1.911370e+001 -6.264167e+000 1.475309e+001 1.566556e+002 -1.602841e+001 -8.190249e+001
100083750 -2.227120e+001 -1.441442e+002 -1.913235e+001 -6.394758e+000 1.474183e+001 1.565293e+002 -1.604412e+001 -8.178036e+001
100455937.5 -2.228492e+001 -1.440279e+002 -1.912086e+001 -6.638166e+000 1.474535e+001 1.565863e+002 -1.607390e+001 -8.182674e+001
100828125 -2.234818e+001 -1.439595e+002 -1.909966e+001 -6.787685e+000 1.472942e+001 1.565768e+002 -1.609902e+001 -8.180122e+001
101200312.5 -2.235024e+001 -1.444391e+002 -1.911379e+001 -6.997242e+000 1.474383e+001 1.563965e+002 -1.612644e+001 -8.187152e+001
101572500 -2.237913e+001 -1.446264e+002 -1.915877e+001 -6.942845e+000 1.472781e+001 1.564492e+002 -1.615273e+001 -8.203094e+001
