!Agilent Technologies,E8364A,US41440144,A.06.04.32
!Agilent E8364A: A.06.04.32
!Date: Thursday, November 08, 2018 14:21:03
!Correction: S11(Full 2 Port(1,2)) S21(Full 2 Port(1,2)) S12(Full 2 Port(1,2)) S22(Full 2 Port(1,2)) 
!S2P File: Measurements: S11, S21, S12, S22:
# Hz S  dB   R 50
45000000 -9.158248e-002 -1.958599e+001 -4.816800e+001 1.598600e+002 -1.379393e+001 -5.222542e+001 -8.543335e-002 -1.933199e+001
45372187.5 -9.513427e-002 -1.969145e+001 -4.836845e+001 1.604077e+002 -1.364742e+001 -5.191844e+001 -7.051604e-002 -1.955920e+001
45744375 -9.703135e-002 -1.984409e+001 -4.770267e+001 1.524915e+002 -1.356004e+001 -5.196053e+001 -7.064740e-002 -1.964766e+001
46116562.5 -8.552631e-002 -2.007020e+001 -4.774199e+001 1.489487e+002 -1.344188e+001 -5.177476e+001 -9.966826e-002 -1.983069e+001
46488750 -8.425292e-002 -2.020351e+001 -4.933567e+001 1.582077e+002 -1.329465e+001 -5.200594e+001 -7.772288e-002 -1.994636e+001
46860937.5 -8.878867e-002 -2.040342e+001 -4.736261e+001 1.587607e+002 -1.316377e+001 -5.196878e+001 -8.157374e-002 -2.016223e+001
47233125 -8.624086e-002 -2.058701e+001 -4.708909e+001 1.598900e+002 -1.304271e+001 -5.192363e+001 -9.006148e-002 -2.035025e+001
47605312.5 -8.815134e-002 -2.067937e+001 -4.610223e+001 1.647604e+002 -1.292529e+001 -5.176262e+001 -8.679332e-002 -2.054285e+001
47977500 -8.014953e-002 -2.088013e+001 -4.686650e+001 1.563288e+002 -1.276004e+001 -5.188914e+001 -8.638011e-002 -2.079631e+001
48349687.5 -1.061037e-001 -2.113617e+001 -4.886503e+001 1.589975e+002 -1.271571e+001 -5.231192e+001 -8.552031e-002 -2.087232e+001
48721875 -9.586237e-002 -2.126560e+001 -4.649146e+001 1.641206e+002 -1.260632e+001 -5.191817e+001 -9.205313e-002 -2.093968e+001
49094062.5 -9.465656e-002 -2.140260e+001 -4.533057e+001 1.533411e+002 -1.247379e+001 -5.231659e+001 -9.617319e-002 -2.116098e+001
49466250 -9.500001e-002 -2.158368e+001 -4.752585e+001 1.478423e+002 -1.232854e+001 -5.221606e+001 -9.629756e-002 -2.131083e+001
49838437.5 -8.487291e-002 -2.179170e+001 -4.664783e+001 1.512310e+002 -1.228316e+001 -5.187861e+001 -7.308818e-002 -2.154760e+001
50210625 -1.014300e-001 -2.192000e+001 -4.552931e+001 1.545956e+002 -1.206839e+001 -5.196990e+001 -9.752204e-002 -2.157075e+001
50582812.5 -1.069773e-001 -2.203506e+001 -4.643488e+001 1.594977e+002 -1.197043e+001 -5.203627e+001 -1.068476e-001 -2.171728e+001
50955000 -9.883653e-002 -2.220075e+001 -4.559267e+001 1.524373e+002 -1.188067e+001 -5.211263e+001 -1.091851e-001 -2.191028e+001
51327187.5 -1.047601e-001 -2.239426e+001 -4.708304e+001 1.554851e+002 -1.173476e+001 -5.242000e+001 -9.762865e-002 -2.217365e+001
51699375 -1.021599e-001 -2.248608e+001 -4.573655e+001 1.505348e+002 -1.167957e+001 -5.246971e+001 -1.179619e-001 -2.239425e+001
52071562.5 -9.803794e-002 -2.273188e+001 -4.625439e+001 1.598795e+002 -1.152740e+001 -5.241721e+001 -1.092511e-001 -2.246017e+001
52443750 -1.079977e-001 -2.287667e+001 -4.539835e+001 1.553436e+002 -1.143805e+001 -5.249234e+001 -9.113571e-002 -2.259381e+001
52815937.5 -1.103217e-001 -2.306981e+001 -4.534812e+001 1.486401e+002 -1.131691e+001 -5.250742e+001 -1.109782e-001 -2.277216e+001
53188125 -1.129447e-001 -2.322389e+001 -4.596287e+001 1.596185e+002 -1.120679e+001 -5.254878e+001 -1.170952e-001 -2.294214e+001
53560312.5 -1.166973e-001 -2.346616e+001 -4.568199e+001 1.609147e+002 -1.110350e+001 -5.260914e+001 -1.133052e-001 -2.315082e+001
53932500 -1.159756e-001 -2.356441e+001 -4.621907e+001 1.561449e+002 -1.100476e+001 -5.272188e+001 -1.299555e-001 -2.336063e+001
54304687.5 -1.070834e-001 -2.374485e+001 -4.560453e+001 1.508473e+002 -1.088758e+001 -5.269802e+001 -1.249782e-001 -2.336182e+001
54676875 -1.156840e-001 -2.391986e+001 -4.411408e+001 1.562939e+002 -1.078802e+001 -5.258253e+001 -1.191251e-001 -2.351988e+001
55049062.5 -1.143167e-001 -2.410406e+001 -4.541758e+001 1.544667e+002 -1.068089e+001 -5.285883e+001 -1.266838e-001 -2.376455e+001
55421250 -1.195301e-001 -2.429326e+001 -4.448678e+001 1.524335e+002 -1.055465e+001 -5.291615e+001 -1.266299e-001 -2.390310e+001
55793437.5 -1.229406e-001 -2.432162e+001 -4.417640e+001 1.517531e+002 -1.043988e+001 -5.300213e+001 -1.393789e-001 -2.415769e+001
56165625 -1.185076e-001 -2.463430e+001 -4.507787e+001 1.516192e+002 -1.034582e+001 -5.308253e+001 -1.285311e-001 -2.426759e+001
56537812.5 -1.209516e-001 -2.473351e+001 -4.526429e+001 1.528061e+002 -1.025331e+001 -5.307998e+001 -1.366052e-001 -2.447985e+001
56910000 -1.378716e-001 -2.495454e+001 -4.511541e+001 1.509898e+002 -1.016539e+001 -5.313815e+001 -1.473977e-001 -2.446964e+001
57282187.5 -1.277018e-001 -2.511347e+001 -4.554698e+001 1.504215e+002 -1.003249e+001 -5.323230e+001 -1.317764e-001 -2.480417e+001
57654375 -1.197997e-001 -2.521387e+001 -4.457551e+001 1.566248e+002 -9.942600e+000 -5.314755e+001 -1.228519e-001 -2.495812e+001
58026562.5 -1.323440e-001 -2.546266e+001 -4.410765e+001 1.546793e+002 -9.824843e+000 -5.314187e+001 -1.488087e-001 -2.503771e+001
58398750 -1.388493e-001 -2.559111e+001 -4.370885e+001 1.518931e+002 -9.693202e+000 -5.326317e+001 -1.485717e-001 -2.521269e+001
58770937.5 -1.457650e-001 -2.577593e+001 -4.474166e+001 1.549592e+002 -9.627248e+000 -5.357483e+001 -1.542670e-001 -2.539436e+001
59143125 -1.494053e-001 -2.593089e+001 -4.434207e+001 1.536981e+002 -9.527349e+000 -5.354823e+001 -1.540010e-001 -2.558170e+001
59515312.5 -1.465971e-001 -2.609679e+001 -4.327819e+001 1.553047e+002 -9.433838e+000 -5.359864e+001 -1.507937e-001 -2.566392e+001
59887500 -1.545270e-001 -2.620178e+001 -4.397659e+001 1.507329e+002 -9.315566e+000 -5.358573e+001 -1.412759e-001 -2.589244e+001
60259687.5 -1.399575e-001 -2.640685e+001 -4.312592e+001 1.504822e+002 -9.221118e+000 -5.382605e+001 -1.581100e-001 -2.605747e+001
60631875 -1.504320e-001 -2.660310e+001 -4.382258e+001 1.510262e+002 -9.119300e+000 -5.374484e+001 -1.521954e-001 -2.621780e+001
61004062.5 -1.411175e-001 -2.672893e+001 -4.375898e+001 1.541409e+002 -9.024754e+000 -5.389449e+001 -1.550938e-001 -2.643566e+001
61376250 -1.427528e-001 -2.689074e+001 -4.303833e+001 1.497448e+002 -8.941712e+000 -5.396935e+001 -1.592226e-001 -2.646489e+001
61748437.5 -1.579728e-001 -2.712708e+001 -4.439570e+001 1.511124e+002 -8.853052e+000 -5.417545e+001 -1.756262e-001 -2.679624e+001
62120625 -1.499971e-001 -2.730035e+001 -4.308198e+001 1.483430e+002 -8.758238e+000 -5.409285e+001 -1.512074e-001 -2.689453e+001
62492812.5 -1.660944e-001 -2.744597e+001 -4.296246e+001 1.470529e+002 -8.651537e+000 -5.427667e+001 -1.654700e-001 -2.703557e+001
62865000 -1.645718e-001 -2.757945e+001 -4.281810e+001 1.488072e+002 -8.524285e+000 -5.419765e+001 -1.726889e-001 -2.717669e+001
63237187.5 -1.686266e-001 -2.784746e+001 -4.304786e+001 1.453967e+002 -8.466173e+000 -5.452401e+001 -1.805960e-001 -2.740281e+001
63609375 -1.637113e-001 -2.792571e+001 -4.217000e+001 1.503823e+002 -8.351311e+000 -5.450981e+001 -1.622007e-001 -2.752200e+001
63981562.5 -1.549343e-001 -2.804709e+001 -4.242675e+001 1.429716e+002 -8.265697e+000 -5.457285e+001 -1.787281e-001 -2.765689e+001
64353750 -1.690669e-001 -2.817876e+001 -4.274941e+001 1.502082e+002 -8.185345e+000 -5.462416e+001 -1.911337e-001 -2.794582e+001
64725937.5 -1.696730e-001 -2.844134e+001 -4.224931e+001 1.529157e+002 -8.091600e+000 -5.479422e+001 -1.790717e-001 -2.805055e+001
65098125 -1.694737e-001 -2.862646e+001 -4.215397e+001 1.515056e+002 -7.982922e+000 -5.480249e+001 -1.773400e-001 -2.817702e+001
65470312.5 -1.709777e-001 -2.875007e+001 -4.199177e+001 1.443636e+002 -7.901293e+000 -5.496755e+001 -1.970348e-001 -2.829851e+001
65842500 -1.673211e-001 -2.897197e+001 -4.207924e+001 1.508922e+002 -7.818650e+000 -5.514334e+001 -1.908990e-001 -2.855005e+001
66214687.5 -1.756604e-001 -2.915029e+001 -4.218276e+001 1.504257e+002 -7.703170e+000 -5.525811e+001 -2.014378e-001 -2.878422e+001
66586875 -1.859459e-001 -2.928017e+001 -4.197426e+001 1.516941e+002 -7.623464e+000 -5.537409e+001 -1.966904e-001 -2.891688e+001
66959062.5 -1.757841e-001 -2.942211e+001 -4.171555e+001 1.503748e+002 -7.543722e+000 -5.543798e+001 -2.019557e-001 -2.911327e+001
67331250 -1.952415e-001 -2.958970e+001 -4.184345e+001 1.455821e+002 -7.457335e+000 -5.561489e+001 -2.040096e-001 -2.928172e+001
67703437.5 -1.934906e-001 -2.984344e+001 -4.207224e+001 1.463855e+002 -7.355106e+000 -5.563492e+001 -1.993388e-001 -2.938857e+001
68075625 -1.949645e-001 -2.994267e+001 -4.191211e+001 1.459652e+002 -7.283370e+000 -5.560637e+001 -2.286694e-001 -2.954191e+001
68447812.5 -1.962235e-001 -3.010496e+001 -4.123915e+001 1.493415e+002 -7.177851e+000 -5.576495e+001 -2.039197e-001 -2.967863e+001
68820000 -2.102649e-001 -3.029028e+001 -4.088244e+001 1.488341e+002 -7.093925e+000 -5.597639e+001 -2.208130e-001 -2.986681e+001
69192187.5 -1.976916e-001 -3.046961e+001 -4.082949e+001 1.459319e+002 -7.006899e+000 -5.609685e+001 -2.156068e-001 -3.006695e+001
69564375 -1.967133e-001 -3.055794e+001 -4.099439e+001 1.457059e+002 -6.908469e+000 -5.625092e+001 -2.160204e-001 -3.023863e+001
69936562.5 -2.062533e-001 -3.079977e+001 -4.078178e+001 1.463473e+002 -6.842189e+000 -5.615752e+001 -2.150394e-001 -3.033030e+001
70308750 -2.153868e-001 -3.095544e+001 -4.055941e+001 1.470450e+002 -6.753113e+000 -5.639757e+001 -2.257617e-001 -3.051620e+001
70680937.5 -2.125347e-001 -3.107002e+001 -4.100282e+001 1.452130e+002 -6.672183e+000 -5.651788e+001 -2.272057e-001 -3.066146e+001
71053125 -2.115167e-001 -3.128524e+001 -4.043707e+001 1.489721e+002 -6.593390e+000 -5.651414e+001 -2.290719e-001 -3.078817e+001
71425312.5 -2.109756e-001 -3.140473e+001 -4.082961e+001 1.478862e+002 -6.484876e+000 -5.677351e+001 -2.354416e-001 -3.098344e+001
71797500 -2.061690e-001 -3.170341e+001 -4.083163e+001 1.440961e+002 -6.412177e+000 -5.692414e+001 -2.439476e-001 -3.130254e+001
72169687.5 -2.217259e-001 -3.171627e+001 -4.033254e+001 1.490150e+002 -6.294796e+000 -5.685621e+001 -2.338646e-001 -3.140777e+001
72541875 -2.189031e-001 -3.187787e+001 -4.053243e+001 1.474908e+002 -6.267604e+000 -5.702331e+001 -2.576403e-001 -3.136295e+001
72914062.5 -2.186723e-001 -3.201636e+001 -4.005000e+001 1.447332e+002 -6.175745e+000 -5.716549e+001 -2.512907e-001 -3.166898e+001
73286250 -2.136216e-001 -3.223671e+001 -4.011615e+001 1.448955e+002 -6.079923e+000 -5.730035e+001 -2.490807e-001 -3.191220e+001
73658437.5 -2.313482e-001 -3.245985e+001 -4.031797e+001 1.436864e+002 -5.993387e+000 -5.747156e+001 -2.558699e-001 -3.204900e+001
74030625 -2.411966e-001 -3.271872e+001 -4.060785e+001 1.445723e+002 -5.905769e+000 -5.742301e+001 -2.526951e-001 -3.207280e+001
74402812.5 -2.208910e-001 -3.292380e+001 -3.979711e+001 1.416943e+002 -5.828641e+000 -5.748270e+001 -2.671389e-001 -3.243798e+001
74775000 -2.377953e-001 -3.308467e+001 -3.971964e+001 1.430620e+002 -5.766844e+000 -5.780128e+001 -2.774739e-001 -3.254913e+001
75147187.5 -2.284094e-001 -3.312833e+001 -3.987309e+001 1.419483e+002 -5.667392e+000 -5.785690e+001 -2.572225e-001 -3.278003e+001
75519375 -2.340620e-001 -3.336801e+001 -3.964716e+001 1.445835e+002 -5.613378e+000 -5.795124e+001 -2.890076e-001 -3.298029e+001
75891562.5 -2.816654e-001 -3.353208e+001 -3.940087e+001 1.416162e+002 -5.512159e+000 -5.818213e+001 -2.687806e-001 -3.305242e+001
76263750 -2.741370e-001 -3.371334e+001 -3.977579e+001 1.428034e+002 -5.431086e+000 -5.824661e+001 -2.766238e-001 -3.310734e+001
76635937.5 -2.355913e-001 -3.404141e+001 -3.946548e+001 1.418842e+002 -5.350965e+000 -5.810287e+001 -2.782338e-001 -3.328584e+001
77008125 -2.419472e-001 -3.382645e+001 -3.951619e+001 1.416625e+002 -5.287851e+000 -5.841892e+001 -2.887938e-001 -3.346949e+001
77380312.5 -2.581946e-001 -3.402000e+001 -3.944239e+001 1.416202e+002 -5.199116e+000 -5.879557e+001 -2.874362e-001 -3.373627e+001
77752500 -2.628642e-001 -3.427641e+001 -3.924319e+001 1.401516e+002 -5.110260e+000 -5.870691e+001 -2.718263e-001 -3.384644e+001
78124687.5 -2.782316e-001 -3.454481e+001 -3.943409e+001 1.418452e+002 -5.034694e+000 -5.883607e+001 -2.985388e-001 -3.416633e+001
78496875 -2.702531e-001 -3.466714e+001 -3.888647e+001 1.430241e+002 -4.970727e+000 -5.901286e+001 -3.045783e-001 -3.433390e+001
78869062.5 -2.837865e-001 -3.485499e+001 -3.859474e+001 1.432943e+002 -4.886097e+000 -5.918586e+001 -3.032975e-001 -3.451478e+001
79241250 -2.720258e-001 -3.496367e+001 -3.880898e+001 1.415134e+002 -4.809503e+000 -5.918854e+001 -3.148122e-001 -3.453326e+001
79613437.5 -2.683695e-001 -3.511998e+001 -3.874779e+001 1.429740e+002 -4.744402e+000 -5.934277e+001 -3.350772e-001 -3.474931e+001
79985625 -2.836266e-001 -3.525591e+001 -3.837910e+001 1.406285e+002 -4.647251e+000 -5.941610e+001 -3.075182e-001 -3.480010e+001
80357812.5 -2.735399e-001 -3.566588e+001 -3.859262e+001 1.399803e+002 -4.573438e+000 -5.959206e+001 -2.931991e-001 -3.507761e+001
80730000 -2.921125e-001 -3.571988e+001 -3.832281e+001 1.416678e+002 -4.483922e+000 -5.976149e+001 -3.140864e-001 -3.541621e+001
81102187.5 -3.242865e-001 -3.575558e+001 -3.834388e+001 1.406996e+002 -4.432230e+000 -5.981849e+001 -3.145675e-001 -3.537473e+001
81474375 -2.798388e-001 -3.598663e+001 -3.834597e+001 1.398106e+002 -4.362569e+000 -5.996823e+001 -3.204980e-001 -3.563444e+001
81846562.5 -2.913552e-001 -3.605218e+001 -3.818341e+001 1.389900e+002 -4.260495e+000 -6.014005e+001 -3.299125e-001 -3.574660e+001
82218750 -2.939764e-001 -3.641557e+001 -3.845330e+001 1.404457e+002 -4.205399e+000 -6.019450e+001 -3.257303e-001 -3.579509e+001
82590937.5 -3.114961e-001 -3.635723e+001 -3.808761e+001 1.394086e+002 -4.130399e+000 -6.028467e+001 -3.271346e-001 -3.598133e+001
82963125 -3.206271e-001 -3.670862e+001 -3.827353e+001 1.398730e+002 -4.027194e+000 -6.059096e+001 -2.926965e-001 -3.633875e+001
83335312.5 -2.991897e-001 -3.688272e+001 -3.770866e+001 1.399245e+002 -3.972934e+000 -6.066372e+001 -3.271940e-001 -3.635262e+001
83707500 -3.385335e-001 -3.726305e+001 -3.773524e+001 1.362234e+002 -3.891364e+000 -6.076730e+001 -3.269930e-001 -3.656376e+001
84079687.5 -3.071153e-001 -3.711304e+001 -3.775643e+001 1.403168e+002 -3.825447e+000 -6.107251e+001 -3.393365e-001 -3.676733e+001
84451875 -3.425514e-001 -3.739847e+001 -3.769599e+001 1.369798e+002 -3.772698e+000 -6.099635e+001 -3.629300e-001 -3.683159e+001
84824062.5 -3.401021e-001 -3.755465e+001 -3.762717e+001 1.364863e+002 -3.681552e+000 -6.127047e+001 -3.537514e-001 -3.709507e+001
85196250 -3.091962e-001 -3.772974e+001 -3.753319e+001 1.371066e+002 -3.616010e+000 -6.137672e+001 -3.425942e-001 -3.719404e+001
85568437.5 -3.355512e-001 -3.779547e+001 -3.772718e+001 1.396487e+002 -3.540520e+000 -6.142339e+001 -3.526800e-001 -3.742492e+001
85940625 -3.221447e-001 -3.808130e+001 -3.760452e+001 1.365100e+002 -3.469378e+000 -6.159383e+001 -3.704771e-001 -3.749837e+001
86312812.5 -3.534391e-001 -3.821764e+001 -3.727719e+001 1.359201e+002 -3.404474e+000 -6.174498e+001 -3.704514e-001 -3.769051e+001
86685000 -3.362646e-001 -3.837872e+001 -3.739435e+001 1.381294e+002 -3.339558e+000 -6.196721e+001 -3.808654e-001 -3.792907e+001
87057187.5 -3.535643e-001 -3.856540e+001 -3.693010e+001 1.372638e+002 -3.290127e+000 -6.212805e+001 -3.618370e-001 -3.815151e+001
87429375 -3.185765e-001 -3.875287e+001 -3.678550e+001 1.365960e+002 -3.190400e+000 -6.208008e+001 -3.740295e-001 -3.809919e+001
87801562.5 -3.302496e-001 -3.895228e+001 -3.693889e+001 1.367103e+002 -3.129104e+000 -6.246512e+001 -4.008643e-001 -3.843227e+001
88173750 -3.407881e-001 -3.899809e+001 -3.676260e+001 1.368976e+002 -3.071469e+000 -6.243018e+001 -3.870302e-001 -3.865965e+001
88545937.5 -3.387565e-001 -3.922278e+001 -3.682755e+001 1.362468e+002 -2.972703e+000 -6.269336e+001 -3.808265e-001 -3.877828e+001
88918125 -3.719007e-001 -3.949722e+001 -3.687958e+001 1.347591e+002 -2.921629e+000 -6.273460e+001 -3.899258e-001 -3.881711e+001
89290312.5 -3.494303e-001 -3.966924e+001 -3.673970e+001 1.361761e+002 -2.853683e+000 -6.274635e+001 -3.986029e-001 -3.903819e+001
89662500 -3.746489e-001 -3.984920e+001 -3.678440e+001 1.359890e+002 -2.794004e+000 -6.304631e+001 -4.241029e-001 -3.928362e+001
90034687.5 -3.600733e-001 -3.999113e+001 -3.640476e+001 1.354230e+002 -2.709526e+000 -6.307164e+001 -3.796652e-001 -3.942862e+001
90406875 -3.759935e-001 -4.018490e+001 -3.647851e+001 1.345332e+002 -2.658003e+000 -6.320295e+001 -3.929487e-001 -3.960013e+001
90779062.5 -3.858249e-001 -4.032203e+001 -3.649400e+001 1.336017e+002 -2.577686e+000 -6.343307e+001 -4.106594e-001 -3.978763e+001
91151250 -3.843785e-001 -4.044570e+001 -3.638447e+001 1.343410e+002 -2.533574e+000 -6.349054e+001 -4.507926e-001 -3.992340e+001
91523437.5 -3.724781e-001 -4.063722e+001 -3.637049e+001 1.339387e+002 -2.452427e+000 -6.392913e+001 -4.254583e-001 -4.015712e+001
91895625 -3.727050e-001 -4.081341e+001 -3.609263e+001 1.337293e+002 -2.394561e+000 -6.392132e+001 -4.365149e-001 -4.021887e+001
92267812.5 -3.701958e-001 -4.105749e+001 -3.600690e+001 1.335377e+002 -2.299145e+000 -6.390858e+001 -4.316439e-001 -4.026605e+001
92640000 -3.762224e-001 -4.112720e+001 -3.626933e+001 1.335080e+002 -2.243342e+000 -6.413184e+001 -4.588069e-001 -4.064658e+001
93012187.5 -4.081022e-001 -4.123074e+001 -3.599708e+001 1.326685e+002 -2.174485e+000 -6.432848e+001 -4.451444e-001 -4.090678e+001
93384375 -3.936602e-001 -4.148721e+001 -3.595842e+001 1.332390e+002 -2.118193e+000 -6.460946e+001 -4.514391e-001 -4.108827e+001
93756562.5 -3.696715e-001 -4.150026e+001 -3.607747e+001 1.342603e+002 -2.048626e+000 -6.457749e+001 -4.609480e-001 -4.114733e+001
94128750 -3.956948e-001 -4.177425e+001 -3.610165e+001 1.324693e+002 -1.980411e+000 -6.479277e+001 -4.483866e-001 -4.130932e+001
94500937.5 -4.155160e-001 -4.181074e+001 -3.585069e+001 1.331826e+002 -1.931474e+000 -6.491016e+001 -4.683093e-001 -4.147003e+001
94873125 -4.014160e-001 -4.214709e+001 -3.582568e+001 1.333497e+002 -1.848260e+000 -6.493198e+001 -4.452565e-001 -4.156014e+001
95245312.5 -4.117895e-001 -4.242801e+001 -3.565396e+001 1.320903e+002 -1.787539e+000 -6.532491e+001 -4.969254e-001 -4.184855e+001
95617500 -4.004157e-001 -4.256326e+001 -3.576105e+001 1.332219e+002 -1.753357e+000 -6.541182e+001 -5.091360e-001 -4.191665e+001
95989687.5 -4.070906e-001 -4.275337e+001 -3.560540e+001 1.318840e+002 -1.682590e+000 -6.542546e+001 -4.785180e-001 -4.209953e+001
96361875 -4.336561e-001 -4.287273e+001 -3.540454e+001 1.330316e+002 -1.598502e+000 -6.566029e+001 -4.890925e-001 -4.233055e+001
96734062.5 -4.244423e-001 -4.286986e+001 -3.521077e+001 1.316885e+002 -1.524451e+000 -6.554605e+001 -4.820414e-001 -4.234312e+001
97106250 -4.416997e-001 -4.318034e+001 -3.542472e+001 1.309425e+002 -1.467414e+000 -6.614271e+001 -5.004904e-001 -4.275833e+001
97478437.5 -4.383100e-001 -4.335090e+001 -3.541513e+001 1.308316e+002 -1.394401e+000 -6.618385e+001 -4.860981e-001 -4.305480e+001
97850625 -4.344812e-001 -4.357469e+001 -3.518763e+001 1.317495e+002 -1.339944e+000 -6.633540e+001 -4.811206e-001 -4.299965e+001
98222812.5 -4.650784e-001 -4.364952e+001 -3.526469e+001 1.317518e+002 -1.298076e+000 -6.646790e+001 -5.247635e-001 -4.321251e+001
98595000 -4.710071e-001 -4.396689e+001 -3.511941e+001 1.314566e+002 -1.196796e+000 -6.664296e+001 -4.858739e-001 -4.339561e+001
98967187.5 -4.517685e-001 -4.407076e+001 -3.501192e+001 1.307146e+002 -1.160868e+000 -6.688565e+001 -5.242912e-001 -4.355991e+001
99339375 -4.612062e-001 -4.423300e+001 -3.495755e+001 1.300500e+002 -1.095470e+000 -6.708439e+001 -5.127337e-001 -4.360413e+001
99711562.5 -4.770307e-001 -4.447241e+001 -3.490105e+001 1.296442e+002 -1.035049e+000 -6.705046e+001 -5.377221e-001 -4.384715e+001
100083750 -4.817276e-001 -4.457660e+001 -3.471875e+001 1.286900e+002 -9.629183e-001 -6.742427e+001 -5.202531e-001 -4.398362e+001
100455937.5 -4.819975e-001 -4.475859e+001 -3.481001e+001 1.292104e+002 -9.211301e-001 -6.732845e+001 -5.431056e-001 -4.415358e+001
100828125 -4.619496e-001 -4.510311e+001 -3.473710e+001 1.299795e+002 -8.472582e-001 -6.747512e+001 -5.407896e-001 -4.426916e+001
