!Agilent Technologies,E8364A,US41440144,A.06.04.32
!Agilent E8364A: A.06.04.32
!Date: Wednesday, November 28, 2018 16:45:30
!Correction: S11(Full 2 Port(1,2)) S21(Full 2 Port(1,2)) S12(Full 2 Port(1,2)) S22(Full 2 Port(1,2)) 
!S2P File: Measurements: S11, S21, S12, S22:
# Hz S  dB   R 50
45000000 -5.984106e-002 -1.952495e+001 -5.178316e+001 1.744669e+002 -1.820726e+001 -2.378187e+001 -7.202744e-002 -1.657104e+001
45372187.5 -5.136067e-002 -1.972104e+001 -5.139574e+001 -1.709252e+002 -1.802355e+001 -2.405744e+001 -5.882955e-002 -1.678551e+001
45744375 -6.150889e-002 -1.990150e+001 -5.132926e+001 1.555149e+002 -1.795527e+001 -2.393168e+001 -5.064819e-002 -1.690255e+001
46116562.5 -4.818190e-002 -2.001865e+001 -5.187069e+001 -1.710449e+002 -1.775600e+001 -2.422342e+001 -8.365627e-002 -1.704404e+001
46488750 -5.646706e-002 -2.020470e+001 -5.342208e+001 -1.760417e+002 -1.763249e+001 -2.461343e+001 -5.150552e-002 -1.718465e+001
46860937.5 -6.400856e-002 -2.036215e+001 -5.368148e+001 -1.659128e+002 -1.751212e+001 -2.460446e+001 -6.078392e-002 -1.726135e+001
47233125 -6.094677e-002 -2.051159e+001 -5.450001e+001 -1.766281e+002 -1.735126e+001 -2.492068e+001 -6.655022e-002 -1.745590e+001
47605312.5 -8.299921e-002 -2.066455e+001 -5.015659e+001 1.785565e+002 -1.723665e+001 -2.481030e+001 -6.173840e-002 -1.770778e+001
47977500 -6.813902e-002 -2.089254e+001 -5.201688e+001 -1.737156e+002 -1.707570e+001 -2.506936e+001 -7.020176e-002 -1.779387e+001
48349687.5 -8.179890e-002 -2.108237e+001 -5.162656e+001 -1.753138e+002 -1.699751e+001 -2.562589e+001 -6.126231e-002 -1.799141e+001
48721875 -7.227290e-002 -2.115526e+001 -5.101547e+001 -1.632328e+002 -1.685870e+001 -2.534166e+001 -5.632758e-002 -1.809680e+001
49094062.5 -7.376114e-002 -2.134979e+001 -5.270031e+001 -1.780536e+002 -1.674512e+001 -2.577029e+001 -6.379713e-002 -1.814035e+001
49466250 -4.771380e-002 -2.162460e+001 -5.160759e+001 -1.741690e+002 -1.658458e+001 -2.582117e+001 -5.395524e-002 -1.834377e+001
49838437.5 -6.163270e-002 -2.170966e+001 -4.975613e+001 -1.764585e+002 -1.665489e+001 -2.506915e+001 -5.754113e-002 -1.834962e+001
50210625 -6.824445e-002 -2.189965e+001 -5.082132e+001 -1.651521e+002 -1.635783e+001 -2.566736e+001 -6.275046e-002 -1.856023e+001
50582812.5 -6.777241e-002 -2.201834e+001 -5.003819e+001 -1.787275e+002 -1.617931e+001 -2.600247e+001 -6.589196e-002 -1.864429e+001
50955000 -6.803385e-002 -2.215719e+001 -5.089445e+001 1.725624e+002 -1.604901e+001 -2.626588e+001 -6.751499e-002 -1.887656e+001
51327187.5 -7.830790e-002 -2.230301e+001 -5.064590e+001 1.699238e+002 -1.590397e+001 -2.652274e+001 -5.933135e-002 -1.902132e+001
51699375 -6.346153e-002 -2.241871e+001 -4.968367e+001 1.761236e+002 -1.582712e+001 -2.667965e+001 -7.000793e-002 -1.926063e+001
52071562.5 -6.650133e-002 -2.263729e+001 -4.990372e+001 -1.764073e+002 -1.569649e+001 -2.669476e+001 -7.537208e-002 -1.934925e+001
52443750 -7.068423e-002 -2.289757e+001 -4.926047e+001 -1.765837e+002 -1.559708e+001 -2.697516e+001 -6.782677e-002 -1.943389e+001
52815937.5 -6.197895e-002 -2.310757e+001 -5.013438e+001 -1.799603e+002 -1.544219e+001 -2.724090e+001 -7.262367e-002 -1.963800e+001
53188125 -7.076224e-002 -2.323863e+001 -4.904253e+001 -1.724096e+002 -1.530192e+001 -2.717537e+001 -6.670711e-002 -1.965242e+001
53560312.5 -7.806293e-002 -2.343316e+001 -4.840761e+001 -1.796660e+002 -1.523228e+001 -2.726494e+001 -8.674956e-002 -1.985900e+001
53932500 -7.344688e-002 -2.352194e+001 -5.086687e+001 -1.692770e+002 -1.506989e+001 -2.762057e+001 -7.779454e-002 -2.003835e+001
54304687.5 -6.839421e-002 -2.371066e+001 -4.798987e+001 1.723055e+002 -1.496492e+001 -2.760766e+001 -7.233762e-002 -2.000619e+001
54676875 -7.051152e-002 -2.388511e+001 -4.890984e+001 1.798557e+002 -1.487900e+001 -2.766898e+001 -7.329938e-002 -2.016624e+001
55049062.5 -7.769629e-002 -2.403894e+001 -5.043290e+001 1.779066e+002 -1.474740e+001 -2.799935e+001 -7.424980e-002 -2.045844e+001
55421250 -7.868972e-002 -2.420450e+001 -4.987365e+001 1.779052e+002 -1.459065e+001 -2.810808e+001 -8.125848e-002 -2.058160e+001
55793437.5 -8.564231e-002 -2.426237e+001 -4.939078e+001 1.725842e+002 -1.449864e+001 -2.832770e+001 -8.665022e-002 -2.074137e+001
56165625 -8.152147e-002 -2.459515e+001 -5.001641e+001 -1.720736e+002 -1.438503e+001 -2.859352e+001 -7.401434e-002 -2.101903e+001
56537812.5 -8.819468e-002 -2.470288e+001 -4.947793e+001 -1.777851e+002 -1.428991e+001 -2.860700e+001 -8.394185e-002 -2.103384e+001
56910000 -7.965133e-002 -2.480547e+001 -4.982633e+001 -1.780804e+002 -1.419251e+001 -2.863966e+001 -8.520319e-002 -2.104114e+001
57282187.5 -8.793844e-002 -2.503352e+001 -4.989503e+001 1.771199e+002 -1.407116e+001 -2.891769e+001 -9.676670e-002 -2.129597e+001
57654375 -8.885276e-002 -2.519075e+001 -4.923623e+001 1.751106e+002 -1.398031e+001 -2.910467e+001 -8.298254e-002 -2.137733e+001
58026562.5 -8.384778e-002 -2.538529e+001 -4.779473e+001 1.697815e+002 -1.380316e+001 -2.908505e+001 -7.020222e-002 -2.147411e+001
58398750 -8.076311e-002 -2.556408e+001 -4.827277e+001 1.769204e+002 -1.372765e+001 -2.953165e+001 -8.891850e-002 -2.163567e+001
58770937.5 -9.943048e-002 -2.575135e+001 -4.969469e+001 1.776887e+002 -1.363115e+001 -2.964562e+001 -9.500412e-002 -2.170993e+001
59143125 -9.109764e-002 -2.592179e+001 -4.845287e+001 1.756595e+002 -1.349712e+001 -2.957729e+001 -8.813198e-002 -2.194613e+001
59515312.5 -8.931456e-002 -2.598767e+001 -4.793779e+001 -1.780934e+002 -1.341065e+001 -2.969216e+001 -9.141687e-002 -2.203124e+001
59887500 -1.013448e-001 -2.618113e+001 -4.796896e+001 1.761619e+002 -1.330748e+001 -2.995277e+001 -8.191315e-002 -2.216090e+001
60259687.5 -9.044337e-002 -2.634090e+001 -4.702728e+001 1.720654e+002 -1.320090e+001 -3.044065e+001 -9.874686e-002 -2.243641e+001
60631875 -9.671149e-002 -2.654515e+001 -4.758326e+001 1.785975e+002 -1.310341e+001 -3.037228e+001 -9.306836e-002 -2.254013e+001
61004062.5 -8.707982e-002 -2.662197e+001 -4.722599e+001 1.772959e+002 -1.297219e+001 -3.044822e+001 -1.002634e-001 -2.258958e+001
61376250 -8.441895e-002 -2.690759e+001 -4.837049e+001 1.739711e+002 -1.287672e+001 -3.077074e+001 -9.146491e-002 -2.273507e+001
61748437.5 -1.008751e-001 -2.700113e+001 -4.762304e+001 1.743063e+002 -1.278992e+001 -3.088676e+001 -1.033002e-001 -2.295392e+001
62120625 -8.755929e-002 -2.723287e+001 -4.718963e+001 1.727633e+002 -1.267333e+001 -3.100362e+001 -8.228552e-002 -2.308549e+001
62492812.5 -1.084616e-001 -2.738860e+001 -4.804326e+001 1.668582e+002 -1.258139e+001 -3.113091e+001 -9.292480e-002 -2.320303e+001
62865000 -9.341897e-002 -2.756968e+001 -4.785049e+001 1.747534e+002 -1.244751e+001 -3.127529e+001 -8.631691e-002 -2.325283e+001
63237187.5 -9.770565e-002 -2.775661e+001 -4.729263e+001 1.720395e+002 -1.237090e+001 -3.161878e+001 -9.721554e-002 -2.352407e+001
63609375 -1.026156e-001 -2.792314e+001 -4.617991e+001 1.767088e+002 -1.226055e+001 -3.169706e+001 -9.636733e-002 -2.364143e+001
63981562.5 -9.989747e-002 -2.798009e+001 -4.683875e+001 1.679162e+002 -1.218286e+001 -3.186292e+001 -1.044734e-001 -2.369696e+001
64353750 -1.127218e-001 -2.817775e+001 -4.644117e+001 1.697317e+002 -1.208454e+001 -3.192334e+001 -1.119774e-001 -2.397479e+001
64725937.5 -9.808183e-002 -2.829865e+001 -4.616344e+001 1.769560e+002 -1.198834e+001 -3.223229e+001 -1.015300e-001 -2.416506e+001
65098125 -1.071231e-001 -2.858295e+001 -4.660983e+001 1.761609e+002 -1.185710e+001 -3.227850e+001 -9.160380e-002 -2.418766e+001
65470312.5 -1.009730e-001 -2.868729e+001 -4.597692e+001 1.645906e+002 -1.177697e+001 -3.255284e+001 -9.812016e-002 -2.424327e+001
65842500 -1.112555e-001 -2.892244e+001 -4.573569e+001 1.735111e+002 -1.170734e+001 -3.255959e+001 -1.068928e-001 -2.447742e+001
66214687.5 -1.032683e-001 -2.914070e+001 -4.623044e+001 1.710200e+002 -1.157591e+001 -3.282381e+001 -1.051299e-001 -2.463870e+001
66586875 -1.077695e-001 -2.921738e+001 -4.476950e+001 1.713532e+002 -1.152303e+001 -3.301021e+001 -1.233143e-001 -2.475531e+001
66959062.5 -1.047508e-001 -2.939775e+001 -4.583531e+001 1.725665e+002 -1.138966e+001 -3.316337e+001 -1.037157e-001 -2.492519e+001
67331250 -1.273141e-001 -2.952599e+001 -4.589807e+001 1.742830e+002 -1.131570e+001 -3.337542e+001 -1.239715e-001 -2.510195e+001
67703437.5 -1.190948e-001 -2.971744e+001 -4.570175e+001 1.695316e+002 -1.120074e+001 -3.334272e+001 -1.101320e-001 -2.505853e+001
68075625 -1.184126e-001 -2.987232e+001 -4.585910e+001 1.714293e+002 -1.110958e+001 -3.356135e+001 -1.211894e-001 -2.525627e+001
68447812.5 -1.241642e-001 -3.008267e+001 -4.527458e+001 1.721641e+002 -1.099932e+001 -3.384453e+001 -1.171394e-001 -2.542736e+001
68820000 -1.237906e-001 -3.019717e+001 -4.392435e+001 1.671201e+002 -1.092785e+001 -3.410323e+001 -1.112728e-001 -2.562507e+001
69192187.5 -1.218642e-001 -3.042213e+001 -4.454984e+001 1.626066e+002 -1.083216e+001 -3.422747e+001 -1.101772e-001 -2.579667e+001
69564375 -1.122436e-001 -3.050278e+001 -4.460746e+001 1.683342e+002 -1.073644e+001 -3.437042e+001 -1.269362e-001 -2.585450e+001
69936562.5 -1.231140e-001 -3.072924e+001 -4.412358e+001 1.651586e+002 -1.067189e+001 -3.432296e+001 -1.245898e-001 -2.602582e+001
70308750 -1.311595e-001 -3.094304e+001 -4.453273e+001 1.719251e+002 -1.058307e+001 -3.473153e+001 -1.126080e-001 -2.616255e+001
70680937.5 -1.328310e-001 -3.104941e+001 -4.464429e+001 1.683875e+002 -1.048767e+001 -3.488435e+001 -1.234503e-001 -2.628875e+001
71053125 -1.252378e-001 -3.118406e+001 -4.411369e+001 1.707184e+002 -1.040309e+001 -3.492298e+001 -1.162114e-001 -2.641117e+001
71425312.5 -1.193668e-001 -3.135172e+001 -4.439472e+001 1.690952e+002 -1.028242e+001 -3.512843e+001 -1.276969e-001 -2.654430e+001
71797500 -1.031201e-001 -3.162967e+001 -4.512219e+001 1.688825e+002 -1.019278e+001 -3.524019e+001 -1.352923e-001 -2.668169e+001
72169687.5 -1.250230e-001 -3.172221e+001 -4.392754e+001 1.697099e+002 -1.010386e+001 -3.537174e+001 -1.281582e-001 -2.687085e+001
72541875 -1.458598e-001 -3.187020e+001 -4.414429e+001 1.679558e+002 -1.005370e+001 -3.560070e+001 -1.437156e-001 -2.687523e+001
72914062.5 -1.524264e-001 -3.197794e+001 -4.418204e+001 1.663769e+002 -9.950740e+000 -3.572752e+001 -1.325017e-001 -2.709110e+001
73286250 -1.358201e-001 -3.237016e+001 -4.418111e+001 1.644242e+002 -9.861191e+000 -3.605397e+001 -1.207090e-001 -2.732019e+001
73658437.5 -1.386117e-001 -3.230783e+001 -4.436238e+001 1.652757e+002 -9.778397e+000 -3.630159e+001 -1.322888e-001 -2.745663e+001
74030625 -1.380027e-001 -3.243535e+001 -4.448251e+001 1.655094e+002 -9.685312e+000 -3.621402e+001 -1.367907e-001 -2.744235e+001
74402812.5 -1.454252e-001 -3.273680e+001 -4.353151e+001 1.630315e+002 -9.590241e+000 -3.619531e+001 -1.238968e-001 -2.786247e+001
74775000 -1.428267e-001 -3.296172e+001 -4.291350e+001 1.637772e+002 -9.514581e+000 -3.670156e+001 -1.308685e-001 -2.796815e+001
75147187.5 -1.404185e-001 -3.309327e+001 -4.372658e+001 1.614099e+002 -9.436604e+000 -3.676085e+001 -1.340876e-001 -2.806760e+001
75519375 -1.450062e-001 -3.325438e+001 -4.416922e+001 1.673116e+002 -9.368502e+000 -3.691511e+001 -1.347944e-001 -2.813150e+001
75891562.5 -1.654414e-001 -3.332875e+001 -4.337647e+001 1.631382e+002 -9.264091e+000 -3.720504e+001 -1.158705e-001 -2.818897e+001
76263750 -1.586839e-001 -3.340401e+001 -4.339257e+001 1.645756e+002 -9.174472e+000 -3.714226e+001 -1.380412e-001 -2.835008e+001
76635937.5 -1.427423e-001 -3.381734e+001 -4.309505e+001 1.592082e+002 -9.080118e+000 -3.717265e+001 -1.294024e-001 -2.855740e+001
77008125 -1.371601e-001 -3.389160e+001 -4.400257e+001 1.610411e+002 -9.027570e+000 -3.747710e+001 -1.708317e-001 -2.868779e+001
77380312.5 -1.502282e-001 -3.404637e+001 -4.338857e+001 1.643298e+002 -8.945009e+000 -3.799077e+001 -1.488567e-001 -2.881101e+001
77752500 -1.457739e-001 -3.422387e+001 -4.291845e+001 1.610859e+002 -8.847549e+000 -3.803006e+001 -1.417895e-001 -2.899203e+001
78124687.5 -1.685475e-001 -3.440535e+001 -4.332199e+001 1.625617e+002 -8.760689e+000 -3.788987e+001 -1.393183e-001 -2.901822e+001
78496875 -1.435398e-001 -3.454229e+001 -4.304633e+001 1.612863e+002 -8.684484e+000 -3.818417e+001 -1.466669e-001 -2.925286e+001
78869062.5 -1.526164e-001 -3.487166e+001 -4.207222e+001 1.643766e+002 -8.602591e+000 -3.853807e+001 -1.604487e-001 -2.949570e+001
79241250 -1.641327e-001 -3.496531e+001 -4.267861e+001 1.635229e+002 -8.522260e+000 -3.856448e+001 -1.645074e-001 -2.959903e+001
79613437.5 -1.491356e-001 -3.505103e+001 -4.256407e+001 1.637207e+002 -8.446492e+000 -3.882703e+001 -1.620312e-001 -2.978480e+001
79985625 -1.690592e-001 -3.517567e+001 -4.240826e+001 1.620535e+002 -8.369214e+000 -3.894488e+001 -1.746459e-001 -2.978649e+001
80357812.5 -1.687718e-001 -3.546407e+001 -4.255713e+001 1.605080e+002 -8.288332e+000 -3.909542e+001 -1.521568e-001 -2.999047e+001
80730000 -1.657610e-001 -3.550848e+001 -4.223842e+001 1.611993e+002 -8.193958e+000 -3.912535e+001 -1.466075e-001 -3.001301e+001
81102187.5 -1.787997e-001 -3.560630e+001 -4.204956e+001 1.598874e+002 -8.128759e+000 -3.931194e+001 -1.425491e-001 -3.030927e+001
81474375 -1.634054e-001 -3.588882e+001 -4.252198e+001 1.611897e+002 -8.048396e+000 -3.961330e+001 -1.545003e-001 -3.052998e+001
81846562.5 -1.677229e-001 -3.594057e+001 -4.180781e+001 1.607966e+002 -7.953393e+000 -3.986035e+001 -1.677643e-001 -3.059173e+001
82218750 -1.695576e-001 -3.617682e+001 -4.215645e+001 1.595564e+002 -7.898060e+000 -3.990412e+001 -1.511416e-001 -3.063621e+001
82590937.5 -1.894603e-001 -3.627734e+001 -4.139825e+001 1.599432e+002 -7.802020e+000 -3.990442e+001 -1.484191e-001 -3.062702e+001
82963125 -1.854401e-001 -3.647926e+001 -4.202195e+001 1.573159e+002 -7.721218e+000 -4.023295e+001 -1.430821e-001 -3.093347e+001
83335312.5 -1.784740e-001 -3.671218e+001 -4.162368e+001 1.610664e+002 -7.653610e+000 -4.043280e+001 -1.310054e-001 -3.097997e+001
83707500 -1.796099e-001 -3.689068e+001 -4.176933e+001 1.594264e+002 -7.570157e+000 -4.053148e+001 -1.484857e-001 -3.130961e+001
84079687.5 -1.723727e-001 -3.693691e+001 -4.145578e+001 1.591570e+002 -7.503237e+000 -4.074122e+001 -1.684652e-001 -3.126555e+001
84451875 -2.070985e-001 -3.724326e+001 -4.150366e+001 1.571268e+002 -7.433381e+000 -4.076870e+001 -1.678320e-001 -3.139978e+001
84824062.5 -2.258184e-001 -3.737453e+001 -4.140669e+001 1.592684e+002 -7.349126e+000 -4.111729e+001 -1.627608e-001 -3.171154e+001
85196250 -1.932977e-001 -3.750592e+001 -4.175429e+001 1.560755e+002 -7.295901e+000 -4.122519e+001 -1.617051e-001 -3.174944e+001
85568437.5 -1.956655e-001 -3.775737e+001 -4.134959e+001 1.591968e+002 -7.210354e+000 -4.136129e+001 -1.643932e-001 -3.187164e+001
85940625 -1.877277e-001 -3.791120e+001 -4.157930e+001 1.576947e+002 -7.131076e+000 -4.156368e+001 -1.804600e-001 -3.211361e+001
86312812.5 -1.972767e-001 -3.813047e+001 -4.100543e+001 1.575574e+002 -7.070874e+000 -4.167217e+001 -1.842835e-001 -3.218551e+001
86685000 -1.887625e-001 -3.823467e+001 -4.105469e+001 1.584783e+002 -6.976312e+000 -4.185413e+001 -1.831489e-001 -3.230718e+001
87057187.5 -1.881902e-001 -3.838052e+001 -4.080168e+001 1.548425e+002 -6.952327e+000 -4.212299e+001 -2.001270e-001 -3.268592e+001
87429375 -1.914994e-001 -3.848295e+001 -4.040846e+001 1.535854e+002 -6.842170e+000 -4.213855e+001 -1.883181e-001 -3.265763e+001
87801562.5 -1.862762e-001 -3.884149e+001 -4.065997e+001 1.557742e+002 -6.787957e+000 -4.245077e+001 -1.932262e-001 -3.266446e+001
88173750 -1.941711e-001 -3.876042e+001 -4.038987e+001 1.568901e+002 -6.711535e+000 -4.250287e+001 -1.777257e-001 -3.294566e+001
88545937.5 -1.603585e-001 -3.918723e+001 -4.053391e+001 1.569568e+002 -6.622735e+000 -4.283544e+001 -1.943172e-001 -3.313396e+001
88918125 -2.018979e-001 -3.924324e+001 -4.083587e+001 1.540014e+002 -6.572162e+000 -4.294586e+001 -1.962284e-001 -3.316896e+001
89290312.5 -2.102569e-001 -3.955602e+001 -4.045403e+001 1.541073e+002 -6.488522e+000 -4.297342e+001 -1.903490e-001 -3.342975e+001
89662500 -2.043840e-001 -3.959694e+001 -4.081741e+001 1.551753e+002 -6.420219e+000 -4.324752e+001 -2.018802e-001 -3.354057e+001
90034687.5 -1.923928e-001 -3.979622e+001 -4.018379e+001 1.538993e+002 -6.355185e+000 -4.331387e+001 -1.841405e-001 -3.353265e+001
90406875 -2.130425e-001 -3.998402e+001 -4.023003e+001 1.549919e+002 -6.277886e+000 -4.336375e+001 -1.894615e-001 -3.381039e+001
90779062.5 -2.212583e-001 -4.017352e+001 -4.043580e+001 1.535614e+002 -6.212003e+000 -4.373220e+001 -2.029869e-001 -3.399448e+001
91151250 -2.161297e-001 -4.020047e+001 -4.034038e+001 1.533185e+002 -6.158243e+000 -4.375578e+001 -2.266261e-001 -3.409999e+001
91523437.5 -2.152123e-001 -4.036126e+001 -3.992521e+001 1.538087e+002 -6.070594e+000 -4.423047e+001 -2.268597e-001 -3.424057e+001
91895625 -2.160261e-001 -4.059970e+001 -3.970150e+001 1.543221e+002 -6.011520e+000 -4.421902e+001 -1.945974e-001 -3.440465e+001
92267812.5 -1.969163e-001 -4.064377e+001 -3.993223e+001 1.538059e+002 -5.922741e+000 -4.426556e+001 -2.090533e-001 -3.441907e+001
92640000 -2.453033e-001 -4.087229e+001 -4.001991e+001 1.548776e+002 -5.852377e+000 -4.438537e+001 -2.075153e-001 -3.453167e+001
93012187.5 -2.257555e-001 -4.109406e+001 -3.966284e+001 1.529088e+002 -5.776814e+000 -4.469332e+001 -2.184528e-001 -3.506684e+001
93384375 -2.171146e-001 -4.118161e+001 -3.967671e+001 1.526705e+002 -5.715626e+000 -4.491115e+001 -1.941741e-001 -3.493365e+001
93756562.5 -2.163199e-001 -4.131100e+001 -3.965681e+001 1.548977e+002 -5.647710e+000 -4.504965e+001 -2.345609e-001 -3.509157e+001
94128750 -2.367828e-001 -4.158963e+001 -3.980026e+001 1.516731e+002 -5.606043e+000 -4.530407e+001 -2.517988e-001 -3.538763e+001
94500937.5 -2.408201e-001 -4.160500e+001 -3.961668e+001 1.528343e+002 -5.535135e+000 -4.534718e+001 -2.324190e-001 -3.532244e+001
94873125 -2.309007e-001 -4.192524e+001 -3.951971e+001 1.530472e+002 -5.458385e+000 -4.548447e+001 -2.004378e-001 -3.556804e+001
95245312.5 -2.435804e-001 -4.205500e+001 -3.938165e+001 1.515636e+002 -5.377687e+000 -4.586893e+001 -2.228440e-001 -3.566280e+001
95617500 -2.431537e-001 -4.238409e+001 -3.942416e+001 1.517186e+002 -5.352092e+000 -4.595008e+001 -2.580680e-001 -3.592065e+001
95989687.5 -2.138248e-001 -4.249115e+001 -3.925480e+001 1.503405e+002 -5.255296e+000 -4.603076e+001 -2.227833e-001 -3.602174e+001
96361875 -2.350858e-001 -4.263163e+001 -3.922826e+001 1.514825e+002 -5.202029e+000 -4.618591e+001 -2.308239e-001 -3.602428e+001
96734062.5 -2.365257e-001 -4.269650e+001 -3.900869e+001 1.514014e+002 -5.123312e+000 -4.625303e+001 -2.288094e-001 -3.617740e+001
97106250 -2.481252e-001 -4.296533e+001 -3.908649e+001 1.492968e+002 -5.060935e+000 -4.665385e+001 -2.341588e-001 -3.645298e+001
97478437.5 -2.326831e-001 -4.311047e+001 -3.907427e+001 1.496975e+002 -4.985862e+000 -4.675493e+001 -2.301850e-001 -3.674945e+001
97850625 -2.410490e-001 -4.321021e+001 -3.883585e+001 1.517895e+002 -4.913944e+000 -4.695634e+001 -2.037705e-001 -3.671318e+001
98222812.5 -2.577959e-001 -4.341899e+001 -3.883916e+001 1.515461e+002 -4.873521e+000 -4.705031e+001 -2.250864e-001 -3.672481e+001
98595000 -2.604794e-001 -4.374786e+001 -3.894157e+001 1.516771e+002 -4.788215e+000 -4.723418e+001 -2.225053e-001 -3.686786e+001
98967187.5 -2.567581e-001 -4.374653e+001 -3.882066e+001 1.514968e+002 -4.736825e+000 -4.750928e+001 -2.493624e-001 -3.697495e+001
99339375 -2.532505e-001 -4.404987e+001 -3.883436e+001 1.490675e+002 -4.684451e+000 -4.763161e+001 -2.312141e-001 -3.711732e+001
99711562.5 -2.564323e-001 -4.414026e+001 -3.848072e+001 1.466519e+002 -4.601082e+000 -4.771757e+001 -2.606573e-001 -3.742438e+001
100083750 -2.527478e-001 -4.438761e+001 -3.864524e+001 1.493158e+002 -4.541615e+000 -4.797701e+001 -2.358911e-001 -3.741000e+001
100455937.5 -2.613136e-001 -4.450561e+001 -3.826878e+001 1.496755e+002 -4.475640e+000 -4.799842e+001 -2.666295e-001 -3.765960e+001
100828125 -2.343943e-001 -4.482175e+001 -3.836443e+001 1.478312e+002 -4.410697e+000 -4.811654e+001 -2.537689e-001 -3.776049e+001
