!Agilent Technologies,E8364A,US41440144,A.06.04.32
!Agilent E8364A: A.06.04.32
!Date: Wednesday, November 28, 2018 16:43:25
!Correction: S11(Full 2 Port(1,2)) S21(Full 2 Port(1,2)) S12(Full 2 Port(1,2)) S22(Full 2 Port(1,2)) 
!S2P File: Measurements: S11, S21, S12, S22:
# Hz S  dB   R 50
45000000 -1.013887e+001 -7.547167e+001 -6.990894e+001 -1.624608e+002 -6.305209e+001 -1.230787e+002 -1.700276e-002 -1.378592e-001
45372187.5 -1.017958e+001 -7.494418e+001 -6.323230e+001 1.028383e+002 -6.098052e+001 -8.211957e+001 -2.394323e-003 -2.211041e-001
45744375 -1.025150e+001 -7.530981e+001 -6.244024e+001 1.182659e+002 -6.185834e+001 1.222547e+002 7.313424e-003 -1.049735e-001
46116562.5 -1.033596e+001 -7.615139e+001 -6.154202e+001 2.969928e+001 -7.651865e+001 -1.273643e+002 -3.175060e-002 -1.375017e-001
46488750 -1.040064e+001 -7.534523e+001 -6.310110e+001 -1.580062e+001 -6.849628e+001 1.268057e+002 2.091206e-003 -1.721563e-001
46860937.5 -1.047571e+001 -7.551508e+001 -7.458038e+001 9.203874e+001 -6.255041e+001 -1.571534e+002 -2.511586e-002 -7.301529e-002
47233125 -1.048919e+001 -7.534303e+001 -7.259697e+001 -4.608353e+001 -7.499126e+001 9.476138e+000 -2.845834e-002 -2.412962e-001
47605312.5 -1.057601e+001 -7.525603e+001 -6.838184e+001 -1.460510e+002 -7.018314e+001 -1.150914e+002 -1.512433e-002 -3.112039e-001
47977500 -1.066203e+001 -7.551392e+001 -6.380293e+001 1.732408e+002 -6.991787e+001 -3.046944e+001 -2.075601e-002 -1.676322e-001
48349687.5 -1.068528e+001 -7.561501e+001 -6.415267e+001 3.378447e+001 -6.407128e+001 -1.627916e+002 -2.144294e-002 -2.010201e-001
48721875 -1.077088e+001 -7.549703e+001 -6.067747e+001 -8.388054e+001 -6.219677e+001 7.057872e+001 -2.669223e-002 -1.532200e-001
49094062.5 -1.077521e+001 -7.543951e+001 -6.875070e+001 -5.312334e+001 -7.763811e+001 -1.787774e+002 -1.769016e-002 -1.377319e-001
49466250 -1.086153e+001 -7.543607e+001 -7.136342e+001 4.757719e+001 -5.845638e+001 -1.688451e+002 -2.221747e-002 -1.543412e-001
49838437.5 -1.096528e+001 -7.539203e+001 -6.615162e+001 1.050677e+002 -6.306696e+001 -7.244762e+001 1.410488e-002 -1.457699e-001
50210625 -1.099433e+001 -7.559428e+001 -7.465121e+001 1.766573e+002 -6.195614e+001 1.390415e+000 -1.791217e-002 -1.447507e-001
50582812.5 -1.107015e+001 -7.567612e+001 -7.902683e+001 -1.730240e+002 -8.376386e+001 -4.058464e+001 -1.834477e-002 -4.674556e-002
50955000 -1.114248e+001 -7.591219e+001 -9.412329e+001 1.659763e+002 -7.067019e+001 4.919345e+001 -1.782182e-002 -1.528464e-001
51327187.5 -1.125257e+001 -7.728163e+001 -6.564995e+001 4.159977e+001 -7.922398e+001 -1.124431e+001 -1.087027e-003 -1.718855e-001
51699375 -1.130940e+001 -7.698837e+001 -7.130134e+001 1.413837e+002 -6.349570e+001 -1.114482e+002 -7.741620e-003 -3.864852e-001
52071562.5 -1.133156e+001 -7.677555e+001 -7.225256e+001 -1.234372e+002 -8.503929e+001 -4.292466e+001 -1.335759e-002 -2.416541e-001
52443750 -1.143269e+001 -7.644311e+001 -7.023810e+001 -6.930433e+001 -7.339544e+001 1.864984e+001 -1.461883e-002 -2.763146e-001
52815937.5 -1.146006e+001 -7.639317e+001 -6.853234e+001 8.427866e+001 -6.416854e+001 1.875846e+001 -1.632572e-002 -2.860523e-001
53188125 -1.148937e+001 -7.607317e+001 -6.640821e+001 -1.762933e+002 -6.738107e+001 1.139676e+002 -1.634581e-002 -1.888520e-001
53560312.5 -1.156464e+001 -7.593298e+001 -6.863517e+001 -7.833934e+001 -8.159098e+001 -1.678433e+001 -1.017349e-002 -2.121852e-001
53932500 -1.160074e+001 -7.580813e+001 -7.492221e+001 -5.858614e+001 -6.897478e+001 9.014198e+000 -1.421212e-002 -2.317723e-001
54304687.5 -1.165719e+001 -7.584359e+001 -7.197775e+001 2.576355e+001 -6.894090e+001 -1.119771e+002 -2.083913e-002 -1.406862e-001
54676875 -1.169789e+001 -7.585008e+001 -6.521086e+001 -1.777145e+002 -6.422808e+001 1.028061e+002 -2.204204e-002 -1.166857e-001
55049062.5 -1.176873e+001 -7.578317e+001 -7.184027e+001 -3.904428e+001 -6.215479e+001 -1.710478e+001 -1.689647e-002 -2.126877e-001
55421250 -1.184647e+001 -7.569174e+001 -6.290566e+001 1.428194e+002 -6.492603e+001 -1.307611e+002 -1.608480e-002 -5.998721e-002
55793437.5 -1.189283e+001 -7.555028e+001 -7.340409e+001 1.296571e+002 -7.383340e+001 -1.246638e+001 -7.934432e-003 -2.223853e-001
56165625 -1.193693e+001 -7.567200e+001 -6.561388e+001 -5.700047e+001 -6.864990e+001 1.441859e+002 -1.532569e-002 -2.557012e-001
56537812.5 -1.197028e+001 -7.570973e+001 -6.719186e+001 -6.811927e+001 -7.276057e+001 1.489861e+002 -2.758036e-002 -2.027246e-001
56910000 -1.201183e+001 -7.551885e+001 -6.645779e+001 -1.877747e+001 -6.573219e+001 1.028403e+002 -1.109680e-002 -2.201425e-001
57282187.5 -1.209982e+001 -7.555779e+001 -6.169427e+001 -3.341521e+001 -7.840072e+001 -4.171128e+001 -1.789329e-002 -2.158617e-001
57654375 -1.214666e+001 -7.550139e+001 -6.391852e+001 -1.961645e+001 -6.508160e+001 1.709764e+002 -5.579770e-003 -2.026443e-001
58026562.5 -1.222117e+001 -7.547443e+001 -6.274452e+001 1.414093e+002 -6.032046e+001 2.864183e+001 -1.339313e-002 -1.861921e-001
58398750 -1.225526e+001 -7.546238e+001 -7.616426e+001 4.284850e+001 -7.019502e+001 -5.384187e+001 -1.764827e-002 -1.222739e-001
58770937.5 -1.237664e+001 -7.638942e+001 -6.696343e+001 -7.215903e+001 -6.763023e+001 -1.239950e+002 -1.191178e-002 -2.380324e-001
59143125 -1.247985e+001 -7.751926e+001 -6.111550e+001 -2.767869e+001 -6.704103e+001 9.012827e+001 -1.388729e-002 -3.050815e-001
59515312.5 -1.253085e+001 -7.695782e+001 -6.248317e+001 -1.554018e+002 -7.195150e+001 1.523334e+002 -1.434348e-002 -1.183592e-001
59887500 -1.253147e+001 -7.657362e+001 -7.471716e+001 1.668823e+002 -7.873492e+001 -1.165842e+002 -1.566613e-002 -1.786353e-001
60259687.5 -1.256212e+001 -7.612353e+001 -7.258807e+001 -4.297633e+001 -6.230575e+001 -1.128394e+002 -2.695487e-002 -2.369802e-001
60631875 -1.263279e+001 -7.598118e+001 -7.496004e+001 -1.094775e+002 -7.165883e+001 8.804558e+001 -2.387693e-002 -2.772554e-001
61004062.5 -1.264207e+001 -7.559492e+001 -6.608616e+001 -1.261619e+002 -6.493264e+001 -7.994244e+001 -2.583167e-002 -2.658022e-001
61376250 -1.273206e+001 -7.548160e+001 -8.622606e+001 2.726406e+000 -6.764438e+001 1.549147e+002 -9.386549e-003 -1.991347e-001
61748437.5 -1.277492e+001 -7.519642e+001 -6.675157e+001 -1.545964e+000 -6.793768e+001 -1.249907e+002 -2.278296e-002 -2.499909e-001
62120625 -1.283451e+001 -7.532216e+001 -6.725723e+001 7.592967e+001 -6.483406e+001 1.399317e+002 -1.539533e-002 -1.809417e-001
62492812.5 -1.287746e+001 -7.490763e+001 -6.615692e+001 9.079898e+001 -7.229301e+001 -5.557964e+001 -2.823323e-003 -2.135573e-001
62865000 -1.290386e+001 -7.471443e+001 -7.179130e+001 -9.548109e+001 -6.923346e+001 -8.976369e+001 -1.363605e-002 -1.702795e-001
63237187.5 -1.294022e+001 -7.468040e+001 -6.588696e+001 -1.091512e+001 -6.877115e+001 6.126672e+001 -9.428108e-003 -1.979630e-001
63609375 -1.299981e+001 -7.478501e+001 -7.058109e+001 8.291116e+001 -7.412163e+001 2.144013e+001 -1.942277e-002 -2.488538e-001
63981562.5 -1.302686e+001 -7.464671e+001 -6.293940e+001 5.053299e+001 -7.032481e+001 7.161916e+000 -1.487210e-002 -1.576367e-001
64353750 -1.309596e+001 -7.433321e+001 -8.442476e+001 -9.400571e+001 -6.582616e+001 -3.182955e+001 -1.782365e-002 -3.308053e-001
64725937.5 -1.314953e+001 -7.425450e+001 -6.926836e+001 -1.610794e+002 -7.133176e+001 -1.203853e+002 -8.407975e-003 -2.243111e-001
65098125 -1.320360e+001 -7.414445e+001 -7.669945e+001 1.413345e+002 -6.490987e+001 8.723535e+001 -1.050805e-002 -2.217102e-001
65470312.5 -1.322310e+001 -7.407686e+001 -6.203328e+001 5.072644e+001 -7.966676e+001 7.459867e+001 -1.217532e-002 -1.208297e-001
65842500 -1.326600e+001 -7.427470e+001 -7.493955e+001 -3.180690e+001 -7.613285e+001 -5.170101e+000 -1.974823e-002 -3.104132e-001
66214687.5 -1.335717e+001 -7.433047e+001 -7.661887e+001 1.156715e+002 -6.721870e+001 -1.296117e+002 -1.290324e-002 -3.087719e-001
66586875 -1.350736e+001 -7.594966e+001 -7.344036e+001 1.655967e+002 -8.630083e+001 -1.369465e+002 -1.768738e-002 -3.141875e-001
66959062.5 -1.354597e+001 -7.576591e+001 -6.580630e+001 -1.287140e+001 -6.947765e+001 -1.257392e+001 -1.213611e-002 -2.580173e-001
67331250 -1.358127e+001 -7.530378e+001 -7.264004e+001 -3.884112e+001 -7.153459e+001 1.528909e+002 -2.136504e-002 -2.170734e-001
67703437.5 -1.362628e+001 -7.503672e+001 -6.339599e+001 -7.541830e+001 -7.273671e+001 3.156238e+001 -1.916203e-002 -2.244095e-001
68075625 -1.361809e+001 -7.461185e+001 -6.357265e+001 9.834903e+000 -7.173441e+001 -1.144947e+002 -2.734594e-002 -3.011780e-001
68447812.5 -1.363084e+001 -7.413759e+001 -7.305949e+001 -1.460568e+002 -7.510787e+001 7.603753e+001 -1.323136e-002 -2.013546e-001
68820000 -1.367534e+001 -7.383395e+001 -6.873156e+001 1.632988e+002 -6.516048e+001 -8.824207e+001 -2.367236e-002 -2.258065e-001
69192187.5 -1.366084e+001 -7.364589e+001 -7.253948e+001 1.200260e+002 -6.895260e+001 9.802007e+001 -2.738405e-002 -3.092857e-001
69564375 -1.374158e+001 -7.348456e+001 -7.120686e+001 4.817189e+001 -6.653422e+001 -1.417855e+002 -1.636425e-002 -2.354698e-001
69936562.5 -1.377148e+001 -7.316450e+001 -6.973548e+001 1.344646e+002 -6.974226e+001 7.748804e+001 -2.225759e-002 -2.279364e-001
70308750 -1.380103e+001 -7.310085e+001 -6.427263e+001 -1.784305e+002 -9.090656e+001 -1.706869e+002 -2.676009e-002 -2.225116e-001
70680937.5 -1.379776e+001 -7.292219e+001 -7.659038e+001 1.638719e+002 -6.627222e+001 -9.849887e+001 -1.264346e-002 -2.850417e-001
71053125 -1.384125e+001 -7.289233e+001 -6.252134e+001 -1.765214e+002 -7.135003e+001 -9.945053e+001 -1.306256e-002 -2.416454e-001
71425312.5 -1.387253e+001 -7.266515e+001 -6.760880e+001 -1.452896e+002 -7.140153e+001 -9.513026e+001 -2.165582e-002 -2.480580e-001
71797500 -1.391066e+001 -7.268443e+001 -7.135652e+001 -2.050009e+001 -7.436595e+001 1.169589e+002 -2.514193e-002 -3.410533e-001
72169687.5 -1.395941e+001 -7.263562e+001 -6.411092e+001 -1.089619e+002 -7.790042e+001 -1.713735e+002 -1.704917e-002 -3.580847e-001
72541875 -1.399565e+001 -7.263240e+001 -6.387162e+001 -1.118022e+002 -7.453749e+001 8.219186e+001 -4.231297e-002 -1.883374e-001
72914062.5 -1.402523e+001 -7.226166e+001 -7.224752e+001 1.561211e+002 -6.501575e+001 4.054849e+000 -1.064001e-002 -2.587688e-001
73286250 -1.407845e+001 -7.249295e+001 -7.507324e+001 -9.396992e+001 -6.615598e+001 1.675897e+002 -2.375877e-002 -3.122670e-001
73658437.5 -1.411595e+001 -7.240067e+001 -7.370340e+001 7.228871e+001 -8.250422e+001 8.629372e+001 -3.143978e-002 -1.539196e-001
74030625 -1.423086e+001 -7.294272e+001 -7.171441e+001 -7.808126e+001 -8.052652e+001 -1.348336e+002 -1.546751e-002 -1.953442e-001
74402812.5 -1.436992e+001 -7.421956e+001 -7.631190e+001 6.905389e+001 -6.332904e+001 -1.706565e+001 -2.426297e-002 -3.202235e-001
74775000 -1.438035e+001 -7.396914e+001 -7.034613e+001 -1.379566e+002 -7.551212e+001 5.816273e+001 -9.982413e-003 -3.126926e-001
75147187.5 -1.437422e+001 -7.337018e+001 -7.199902e+001 5.833516e+001 -6.970900e+001 7.691278e+001 -2.507559e-002 -3.918057e-001
75519375 -1.437224e+001 -7.313335e+001 -6.768826e+001 -8.642011e+001 -7.200835e+001 -1.505050e+001 -3.573706e-002 -4.329232e-001
75891562.5 -1.438883e+001 -7.264867e+001 -6.594609e+001 9.704906e+001 -7.131931e+001 -1.552021e+002 -8.429326e-003 -2.450096e-001
76263750 -1.440877e+001 -7.260793e+001 -7.359891e+001 -2.692921e+001 -6.793658e+001 6.408509e+001 -3.299821e-002 -1.819593e-001
76635937.5 -1.442855e+001 -7.238777e+001 -6.576421e+001 2.110296e+001 -6.762941e+001 -6.001725e+000 -2.027949e-002 -2.230850e-001
77008125 -1.442384e+001 -7.209360e+001 -7.028378e+001 -3.466245e+000 -7.450338e+001 -5.618362e+001 -5.456963e-002 -2.275873e-001
77380312.5 -1.450042e+001 -7.182020e+001 -6.695546e+001 1.446850e+001 -7.502966e+001 1.164801e+001 -1.506578e-002 -2.472491e-001
77752500 -1.451746e+001 -7.179533e+001 -6.726857e+001 5.422790e+001 -7.174032e+001 6.087910e+001 -2.104451e-002 -2.617998e-001
78124687.5 -1.454837e+001 -7.169730e+001 -7.146615e+001 -2.920084e+001 -7.211182e+001 -1.045024e+002 -1.744025e-002 -2.849791e-001
78496875 -1.453569e+001 -7.172295e+001 -6.627948e+001 1.276297e+002 -6.764551e+001 1.159106e+002 -1.638973e-002 -3.126419e-001
78869062.5 -1.458000e+001 -7.129170e+001 -8.148136e+001 -1.433526e+001 -6.907849e+001 1.175199e+002 -4.787770e-003 -4.320549e-001
79241250 -1.461770e+001 -7.146035e+001 -8.223903e+001 -1.551743e+002 -7.477512e+001 -2.211863e+001 -7.012903e-003 -3.856357e-001
79613437.5 -1.465779e+001 -7.128499e+001 -8.017951e+001 1.138365e-002 -6.942107e+001 -7.762865e+001 -4.167649e-002 -3.583993e-001
79985625 -1.467943e+001 -7.128553e+001 -7.202296e+001 -1.755823e+002 -6.591119e+001 1.762029e+002 -1.685698e-002 -2.547429e-001
80357812.5 -1.472635e+001 -7.113615e+001 -7.159450e+001 -7.134433e+000 -6.779831e+001 -8.570620e+001 -2.270553e-003 -2.035939e-001
80730000 -1.476187e+001 -7.109663e+001 -8.614174e+001 -1.355427e+002 -7.068169e+001 -7.820360e+001 -1.921981e-002 -1.771951e-001
81102187.5 -1.479210e+001 -7.088982e+001 -6.947565e+001 1.202678e+002 -6.872960e+001 1.564480e+002 6.960453e-003 -2.164728e-001
81474375 -1.481701e+001 -7.115758e+001 -6.811977e+001 -1.835070e+001 -7.008490e+001 8.711893e+001 -2.040718e-004 -4.382778e-001
81846562.5 -1.498030e+001 -7.245741e+001 -7.707494e+001 -7.645515e+001 -8.267170e+001 1.405052e+002 -3.259397e-002 -2.733001e-001
82218750 -1.505318e+001 -7.264104e+001 -6.390758e+001 -6.878435e+001 -7.016753e+001 8.995773e+000 -9.989931e-003 -2.076523e-001
82590937.5 -1.506467e+001 -7.204177e+001 -7.388840e+001 1.789869e+002 -7.375650e+001 8.023296e+001 -1.361981e-002 -3.581643e-001
82963125 -1.508990e+001 -7.200060e+001 -6.682238e+001 -6.137946e+001 -7.593267e+001 -1.118387e+002 8.070183e-003 -3.070853e-001
83335312.5 -1.505431e+001 -7.155836e+001 -7.449835e+001 1.510512e+002 -6.563106e+001 -3.334568e+001 -2.087505e-002 -2.681129e-001
83707500 -1.508768e+001 -7.126305e+001 -7.143433e+001 2.651057e+000 -7.541240e+001 4.546487e+001 -2.325473e-003 -3.025479e-001
84079687.5 -1.510364e+001 -7.103633e+001 -7.408687e+001 -1.891567e+001 -7.762254e+001 2.607525e+001 4.264876e-003 -2.972139e-001
84451875 -1.513962e+001 -7.084265e+001 -7.615489e+001 -1.185581e+002 -7.683320e+001 -8.085758e+001 -2.058972e-002 -3.272764e-001
84824062.5 -1.517240e+001 -7.066061e+001 -7.431338e+001 1.101445e+002 -8.370702e+001 7.779826e+001 3.413103e-003 -3.320605e-001
85196250 -1.517018e+001 -7.052857e+001 -6.967425e+001 9.936537e+001 -7.525732e+001 -8.653072e+001 -2.070226e-002 -3.653072e-001
85568437.5 -1.521589e+001 -7.034989e+001 -6.609455e+001 -9.710447e+001 -6.224527e+001 -4.980810e+001 -9.723389e-003 -2.716191e-001
85940625 -1.523197e+001 -7.029900e+001 -7.627025e+001 -1.265623e+002 -7.797953e+001 -2.436466e+001 -1.624827e-002 -2.497008e-001
86312812.5 -1.525659e+001 -7.013513e+001 -7.152712e+001 -1.613457e+002 -7.784487e+001 3.706469e+001 2.069744e-003 -3.335072e-001
86685000 -1.524000e+001 -6.995953e+001 -7.565775e+001 -1.310117e+002 -7.726722e+001 2.167583e+001 -1.805645e-002 -1.963592e-001
87057187.5 -1.528255e+001 -6.995299e+001 -6.822640e+001 1.527067e+002 -6.948663e+001 1.818771e+000 -1.566707e-002 -4.381034e-001
87429375 -1.532533e+001 -6.976009e+001 -6.893914e+001 7.987601e+001 -7.124595e+001 -1.095237e+002 -3.799387e-002 -3.192326e-001
87801562.5 -1.535180e+001 -6.971490e+001 -6.861433e+001 1.436044e+002 -9.480595e+001 -1.190664e+002 4.428207e-003 -3.270606e-001
88173750 -1.540102e+001 -6.945361e+001 -7.690965e+001 -1.781014e+002 -6.575291e+001 2.245778e+001 -4.683754e-003 -4.492907e-001
88545937.5 -1.543041e+001 -6.960558e+001 -8.265670e+001 -1.799309e+001 -7.711895e+001 6.868240e+001 -6.093819e-003 -4.251811e-001
88918125 -1.550031e+001 -6.942144e+001 -6.643836e+001 3.749180e+001 -6.950855e+001 -9.234696e+001 -1.945113e-002 -2.972282e-001
89290312.5 -1.553552e+001 -6.990213e+001 -8.816483e+001 1.114750e+002 -7.191154e+001 6.226967e+001 -2.080264e-002 -3.585778e-001
89662500 -1.571115e+001 -7.121789e+001 -7.510345e+001 1.990513e+001 -7.395114e+001 1.392752e+001 -5.884895e-002 -4.347008e-001
90034687.5 -1.572403e+001 -7.062553e+001 -7.448361e+001 1.363397e+002 -6.772307e+001 -1.596922e+002 -6.851372e-003 -3.278613e-001
90406875 -1.569172e+001 -7.023965e+001 -7.969127e+001 -1.356893e+002 -7.107877e+001 3.732175e+001 -1.776245e-002 -3.193274e-001
90779062.5 -1.572828e+001 -6.976954e+001 -6.848193e+001 1.839100e+001 -8.543961e+001 9.237751e+001 -3.545579e-002 -4.186370e-001
91151250 -1.572736e+001 -6.961911e+001 -7.044781e+001 -8.701977e+001 -7.198625e+001 1.191218e+001 -6.101805e-002 -3.343694e-001
91523437.5 -1.575331e+001 -6.939767e+001 -8.483281e+001 1.159344e+002 -7.339211e+001 1.519498e+001 -3.966904e-002 -2.234679e-001
91895625 -1.577233e+001 -6.917891e+001 -9.396922e+001 1.458361e+002 -7.715048e+001 -1.229291e+002 -1.442418e-002 -4.279097e-001
92267812.5 -1.578864e+001 -6.861717e+001 -6.990680e+001 8.499747e+001 -7.413358e+001 -4.144116e+001 -7.978022e-003 -1.329713e-001
92640000 -1.582433e+001 -6.856623e+001 -8.330217e+001 -9.474404e+001 -8.241196e+001 1.184213e+001 -2.672929e-002 -3.434198e-001
93012187.5 -1.585010e+001 -6.826256e+001 -7.422705e+001 -4.108896e+001 -8.019482e+001 7.213059e-001 -6.680355e-003 -4.905894e-001
93384375 -1.583120e+001 -6.809853e+001 -6.443566e+001 -3.559199e+001 -7.159745e+001 4.591801e+001 -1.075684e-002 -3.510445e-001
93756562.5 -1.585647e+001 -6.808113e+001 -7.982516e+001 -7.714890e+001 -7.615307e+001 -1.146810e+002 -3.007007e-002 -3.458703e-001
94128750 -1.589411e+001 -6.787537e+001 -7.183553e+001 6.295626e+001 -7.571624e+001 1.112310e+002 -1.919343e-002 -4.938780e-001
94500937.5 -1.591121e+001 -6.757703e+001 -7.772198e+001 -1.136416e+002 -6.687378e+001 5.045629e+000 -7.815029e-003 -2.754334e-001
94873125 -1.594194e+001 -6.752097e+001 -7.645444e+001 1.664865e+002 -7.490942e+001 1.728289e+002 -1.516008e-002 -3.930690e-001
95245312.5 -1.600098e+001 -6.735909e+001 -7.332285e+001 3.903568e+001 -7.103559e+001 -6.702599e+001 -1.901760e-002 -3.142353e-001
95617500 -1.600955e+001 -6.722990e+001 -8.955396e+001 1.386359e+002 -7.732826e+001 -1.389965e+002 -4.881872e-002 -3.901509e-001
95989687.5 -1.601815e+001 -6.719391e+001 -7.337641e+001 1.981684e+001 -6.773104e+001 4.347231e+001 -1.746327e-002 -5.256891e-001
96361875 -1.604650e+001 -6.687298e+001 -7.277915e+001 -1.716241e+002 -7.597627e+001 1.064405e+002 -1.815175e-002 -5.234300e-001
96734062.5 -1.610103e+001 -6.687743e+001 -7.705016e+001 5.862250e+001 -6.759858e+001 -2.529686e+001 -2.266215e-002 -3.742720e-001
97106250 -1.626829e+001 -6.754116e+001 -6.979041e+001 -3.119172e+001 -7.815685e+001 -9.849172e+001 -1.832364e-002 -3.157976e-001
97478437.5 -1.632965e+001 -6.776730e+001 -6.948862e+001 -3.767186e+001 -7.117462e+001 5.199051e+001 3.504545e-002 -5.067051e-001
97850625 -1.629109e+001 -6.745494e+001 -7.389423e+001 -3.691566e+001 -7.099715e+001 4.843068e+001 -6.750884e-003 -3.360864e-001
98222812.5 -1.632191e+001 -6.712720e+001 -6.624357e+001 -8.621133e+001 -6.882303e+001 3.016906e+001 -1.093229e-002 -4.514041e-001
98595000 -1.629034e+001 -6.681299e+001 -6.472755e+001 -1.021612e+002 -6.789802e+001 -1.455654e+002 -3.632316e-003 -1.525897e-001
98967187.5 -1.630434e+001 -6.615283e+001 -7.338982e+001 -1.645660e+002 -7.107928e+001 -1.238996e+002 -2.635773e-002 -4.434372e-001
99339375 -1.630368e+001 -6.590040e+001 -7.427798e+001 -1.003553e+001 -7.268442e+001 -3.986533e+001 1.205457e-002 -2.810755e-001
99711562.5 -1.629069e+001 -6.554807e+001 -7.188025e+001 -3.963057e+001 -7.408242e+001 -1.130430e+002 -1.371548e-002 -4.972422e-001
100083750 -1.631270e+001 -6.525331e+001 -6.776291e+001 2.958304e+001 -8.558534e+001 2.164879e+001 -1.184161e-002 -2.595688e-001
100455937.5 -1.633877e+001 -6.491991e+001 -7.828207e+001 1.776367e+002 -7.158810e+001 6.195529e+001 -1.420021e-002 -3.909947e-001
100828125 -1.631658e+001 -6.488876e+001 -7.586784e+001 -9.949465e+000 -9.170641e+001 6.568812e+000 -1.931930e-002 -3.544368e-001
