!Agilent Technologies,E8364A,US41440144,A.06.04.32
!Agilent E8364A: A.06.04.32
!Date: Wednesday, November 28, 2018 16:42:06
!Correction: S11(Full 2 Port(1,2)) S21(Full 2 Port(1,2)) S12(Full 2 Port(1,2)) S22(Full 2 Port(1,2)) 
!S2P File: Measurements: S11, S21, S12, S22:
# Hz S  dB   R 50
45000000 -1.018738e+001 -7.451775e+001 -5.481577e+001 2.691129e+001 -6.763781e+001 9.078477e+001 -2.245959e+000 -2.117200e+001
45372187.5 -1.023235e+001 -7.471608e+001 -5.557278e+001 4.934429e+001 -8.186533e+001 2.156250e+001 -2.234863e+000 -2.136520e+001
45744375 -1.033235e+001 -7.481230e+001 -5.321402e+001 4.035969e+001 -6.594102e+001 1.121610e+002 -2.232649e+000 -2.156123e+001
46116562.5 -1.039801e+001 -7.476075e+001 -5.562393e+001 4.115560e+001 -6.645309e+001 1.182714e+002 -2.265753e+000 -2.163912e+001
46488750 -1.046181e+001 -7.498462e+001 -5.269333e+001 2.425466e+001 -6.860447e+001 -1.674876e+002 -2.265511e+000 -2.176364e+001
46860937.5 -1.052652e+001 -7.502132e+001 -5.346441e+001 2.960431e+001 -7.067207e+001 1.533938e+002 -2.251148e+000 -2.195715e+001
47233125 -1.057675e+001 -7.492450e+001 -5.575429e+001 2.743298e+001 -6.486970e+001 5.223075e+001 -2.274432e+000 -2.212478e+001
47605312.5 -1.065430e+001 -7.491640e+001 -5.614778e+001 3.544957e+001 -6.346459e+001 4.085606e+001 -2.263926e+000 -2.227337e+001
47977500 -1.070943e+001 -7.495544e+001 -5.650176e+001 4.745116e+001 -6.239938e+001 1.037462e+001 -2.270896e+000 -2.240959e+001
48349687.5 -1.077292e+001 -7.503785e+001 -5.348716e+001 2.297183e+001 -7.278218e+001 1.423481e+002 -2.278415e+000 -2.255177e+001
48721875 -1.085897e+001 -7.514365e+001 -5.408756e+001 1.037895e+001 -6.468834e+001 6.599440e+001 -2.272949e+000 -2.263524e+001
49094062.5 -1.091836e+001 -7.504755e+001 -5.232518e+001 1.289923e+001 -7.104595e+001 6.600508e+001 -2.294093e+000 -2.267420e+001
49466250 -1.097047e+001 -7.516724e+001 -5.346578e+001 2.781282e+001 -6.136766e+001 -1.660408e+002 -2.282609e+000 -2.297053e+001
49838437.5 -1.103873e+001 -7.530192e+001 -5.379489e+001 1.928301e+001 -7.325575e+001 -7.968920e+001 -2.264138e+000 -2.297050e+001
50210625 -1.108893e+001 -7.514697e+001 -5.296345e+001 9.818477e+000 -6.132537e+001 7.898182e+000 -2.293720e+000 -2.312611e+001
50582812.5 -1.116042e+001 -7.509792e+001 -5.463545e+001 1.259750e+001 -7.085809e+001 8.733847e+001 -2.283895e+000 -2.320282e+001
50955000 -1.122222e+001 -7.502924e+001 -5.096743e+001 3.114225e+001 -5.677687e+001 5.178371e+001 -2.303103e+000 -2.348608e+001
51327187.5 -1.131595e+001 -7.511842e+001 -5.266542e+001 1.160631e+001 -8.058803e+001 -1.348150e+001 -2.301744e+000 -2.359004e+001
51699375 -1.133472e+001 -7.498610e+001 -5.357559e+001 1.169304e+001 -6.621661e+001 -3.893348e+001 -2.318448e+000 -2.380244e+001
52071562.5 -1.139687e+001 -7.502158e+001 -5.426471e+001 -1.057352e+001 -6.600705e+001 4.722519e+001 -2.314785e+000 -2.388470e+001
52443750 -1.147955e+001 -7.505027e+001 -5.467733e+001 9.117022e+000 -6.636020e+001 1.342820e+002 -2.311198e+000 -2.410124e+001
52815937.5 -1.153028e+001 -7.519896e+001 -5.340422e+001 7.716704e+000 -6.682505e+001 -9.616251e+001 -2.331137e+000 -2.425581e+001
53188125 -1.154107e+001 -7.512383e+001 -5.331942e+001 2.967176e-001 -6.892360e+001 1.411736e+002 -2.333538e+000 -2.435586e+001
53560312.5 -1.165877e+001 -7.502838e+001 -5.329050e+001 1.138154e+001 -6.967996e+001 1.339821e+002 -2.340880e+000 -2.449217e+001
53932500 -1.170905e+001 -7.486940e+001 -5.234684e+001 -3.442914e+000 -5.989890e+001 5.442846e+001 -2.344450e+000 -2.461228e+001
54304687.5 -1.174791e+001 -7.510748e+001 -5.253888e+001 5.576572e+000 -6.920084e+001 3.970798e+001 -2.351073e+000 -2.468841e+001
54676875 -1.179581e+001 -7.489366e+001 -5.337419e+001 5.476747e+000 -6.125329e+001 6.795824e+001 -2.354083e+000 -2.482084e+001
55049062.5 -1.186439e+001 -7.496330e+001 -5.153765e+001 8.084972e+000 -6.835243e+001 -2.527918e+001 -2.330202e+000 -2.505969e+001
55421250 -1.192095e+001 -7.476992e+001 -5.201984e+001 9.477527e+000 -7.402011e+001 -1.079528e+002 -2.351050e+000 -2.511689e+001
55793437.5 -1.198569e+001 -7.477012e+001 -5.301951e+001 1.336819e+001 -6.512321e+001 -4.870520e+001 -2.366214e+000 -2.528409e+001
56165625 -1.202504e+001 -7.504861e+001 -5.168181e+001 -4.704823e-001 -7.325392e+001 -5.326207e+001 -2.362854e+000 -2.554128e+001
56537812.5 -1.206546e+001 -7.494839e+001 -5.240467e+001 -1.249366e+001 -7.313873e+001 -2.119888e+001 -2.363746e+000 -2.566190e+001
56910000 -1.214261e+001 -7.486271e+001 -5.092076e+001 -1.728989e+000 -7.365578e+001 1.069724e+002 -2.367425e+000 -2.577629e+001
57282187.5 -1.219258e+001 -7.476966e+001 -5.209505e+001 3.806865e+000 -6.701985e+001 1.207921e+002 -2.372917e+000 -2.599809e+001
57654375 -1.224885e+001 -7.447579e+001 -5.118981e+001 2.976823e+000 -7.224334e+001 1.294192e+002 -2.363925e+000 -2.609407e+001
58026562.5 -1.231738e+001 -7.457941e+001 -5.232923e+001 3.841609e+000 -6.662336e+001 3.434990e+001 -2.370167e+000 -2.618536e+001
58398750 -1.234961e+001 -7.449451e+001 -5.217541e+001 -1.528720e+000 -6.391975e+001 5.019493e+000 -2.378982e+000 -2.630341e+001
58770937.5 -1.241773e+001 -7.440607e+001 -4.999717e+001 -1.342571e+001 -6.725951e+001 4.292974e+000 -2.384645e+000 -2.640020e+001
59143125 -1.245750e+001 -7.446790e+001 -5.104335e+001 -1.247250e+001 -6.400680e+001 9.669715e+001 -2.389728e+000 -2.670510e+001
59515312.5 -1.253748e+001 -7.437564e+001 -5.205872e+001 -1.260824e+001 -8.214826e+001 -1.550620e+002 -2.399911e+000 -2.672088e+001
59887500 -1.258112e+001 -7.432674e+001 -5.130931e+001 -4.241021e+000 -6.880865e+001 8.781026e+001 -2.384641e+000 -2.690299e+001
60259687.5 -1.263213e+001 -7.423550e+001 -5.125434e+001 -1.003271e+001 -6.418520e+001 -1.787327e+002 -2.400535e+000 -2.706984e+001
60631875 -1.270355e+001 -7.409202e+001 -5.040666e+001 -7.424139e+000 -7.030289e+001 7.459936e+001 -2.410559e+000 -2.725015e+001
61004062.5 -1.271552e+001 -7.393774e+001 -5.036351e+001 -1.114817e+001 -7.199593e+001 4.188386e+001 -2.412009e+000 -2.734262e+001
61376250 -1.277647e+001 -7.389596e+001 -5.092379e+001 -1.712569e+001 -6.536700e+001 9.267080e+001 -2.408366e+000 -2.745165e+001
61748437.5 -1.285489e+001 -7.383780e+001 -4.928162e+001 -1.739442e+001 -6.607648e+001 1.489693e+002 -2.424542e+000 -2.779317e+001
62120625 -1.291673e+001 -7.389517e+001 -5.098816e+001 -9.695560e+000 -6.586918e+001 1.496883e+002 -2.419436e+000 -2.786962e+001
62492812.5 -1.294705e+001 -7.361349e+001 -5.015904e+001 -1.408194e+001 -8.187657e+001 -1.741703e+002 -2.419822e+000 -2.789435e+001
62865000 -1.302686e+001 -7.362986e+001 -5.084872e+001 -1.671198e+001 -6.974710e+001 6.637278e+000 -2.414478e+000 -2.805393e+001
63237187.5 -1.304746e+001 -7.359375e+001 -5.016632e+001 -1.070558e+001 -7.370457e+001 7.196835e+001 -2.420356e+000 -2.822045e+001
63609375 -1.313904e+001 -7.346732e+001 -5.258125e+001 -2.804315e+001 -7.445784e+001 9.314923e+001 -2.457808e+000 -2.836332e+001
63981562.5 -1.315992e+001 -7.329662e+001 -4.943195e+001 -8.332538e+000 -6.321403e+001 4.011337e+001 -2.441729e+000 -2.851128e+001
64353750 -1.317144e+001 -7.308357e+001 -5.088690e+001 -2.283657e+001 -6.494949e+001 7.886333e+001 -2.454382e+000 -2.873233e+001
64725937.5 -1.326252e+001 -7.274698e+001 -5.125788e+001 -2.625115e+001 -7.112277e+001 7.291247e+001 -2.453988e+000 -2.882005e+001
65098125 -1.328593e+001 -7.289571e+001 -5.054044e+001 -3.276538e+001 -7.337456e+001 2.023884e+001 -2.445277e+000 -2.891457e+001
65470312.5 -1.331081e+001 -7.272624e+001 -5.057402e+001 -9.169426e+000 -6.977782e+001 1.281766e+002 -2.465283e+000 -2.907939e+001
65842500 -1.336156e+001 -7.287112e+001 -5.067397e+001 -3.243513e+001 -6.797205e+001 -8.310369e+000 -2.469362e+000 -2.926465e+001
66214687.5 -1.343573e+001 -7.262836e+001 -5.094496e+001 -2.777926e+001 -8.702596e+001 2.365622e+001 -2.492697e+000 -2.945751e+001
66586875 -1.346286e+001 -7.254179e+001 -5.182047e+001 -3.035486e+001 -7.210807e+001 1.063301e+002 -2.475851e+000 -2.953868e+001
66959062.5 -1.348595e+001 -7.232320e+001 -5.017579e+001 -3.393663e+001 -8.024865e+001 1.121180e+002 -2.476555e+000 -2.969734e+001
67331250 -1.355049e+001 -7.228189e+001 -4.886235e+001 -3.371874e+001 -7.013997e+001 3.950643e+001 -2.505768e+000 -2.980959e+001
67703437.5 -1.360666e+001 -7.217083e+001 -5.023351e+001 -3.019479e+001 -6.467995e+001 9.459557e+001 -2.498674e+000 -2.987931e+001
68075625 -1.362862e+001 -7.205280e+001 -4.936044e+001 -3.028016e+001 -6.979102e+001 6.751248e+001 -2.493339e+000 -3.005215e+001
68447812.5 -1.365843e+001 -7.179148e+001 -5.220542e+001 -3.907667e+001 -7.517287e+001 4.544235e+001 -2.493957e+000 -3.024756e+001
68820000 -1.372306e+001 -7.176676e+001 -5.255227e+001 -3.184716e+001 -6.556821e+001 7.461668e+001 -2.506555e+000 -3.045588e+001
69192187.5 -1.374984e+001 -7.172684e+001 -5.020747e+001 -3.902472e+001 -6.257961e+001 1.294718e+002 -2.515411e+000 -3.053199e+001
69564375 -1.378027e+001 -7.163785e+001 -5.015330e+001 -1.955536e+001 -7.581669e+001 1.510405e+002 -2.518463e+000 -3.064370e+001
69936562.5 -1.382604e+001 -7.155425e+001 -5.117894e+001 -3.204310e+001 -6.368732e+001 7.279064e+001 -2.518087e+000 -3.082285e+001
70308750 -1.385763e+001 -7.135204e+001 -5.133101e+001 -3.088310e+001 -6.744299e+001 7.374184e+001 -2.527595e+000 -3.095480e+001
70680937.5 -1.388685e+001 -7.127828e+001 -5.039842e+001 -3.826400e+001 -6.754518e+001 4.214513e+001 -2.534536e+000 -3.103923e+001
71053125 -1.391588e+001 -7.120283e+001 -5.109684e+001 -4.854731e+001 -6.972593e+001 1.407544e+002 -2.534271e+000 -3.129794e+001
71425312.5 -1.396281e+001 -7.087428e+001 -4.992383e+001 -3.917070e+001 -6.664473e+001 1.981909e+001 -2.539629e+000 -3.141541e+001
71797500 -1.397900e+001 -7.087746e+001 -5.020717e+001 -3.356021e+001 -6.350093e+001 9.840805e+001 -2.554304e+000 -3.161183e+001
72169687.5 -1.401395e+001 -7.077312e+001 -5.104379e+001 -5.106299e+001 -7.038934e+001 1.235856e+002 -2.555622e+000 -3.179084e+001
72541875 -1.405374e+001 -7.080832e+001 -4.998209e+001 -3.696346e+001 -6.611311e+001 1.040089e+002 -2.562721e+000 -3.175398e+001
72914062.5 -1.407011e+001 -7.062737e+001 -5.063169e+001 -3.501633e+001 -7.153001e+001 8.495844e+001 -2.561514e+000 -3.200291e+001
73286250 -1.415932e+001 -7.058149e+001 -5.072839e+001 -4.244917e+001 -6.885403e+001 1.505921e+002 -2.567208e+000 -3.225971e+001
73658437.5 -1.416852e+001 -7.049714e+001 -4.909704e+001 -2.900105e+001 -7.168951e+001 1.368516e+002 -2.575977e+000 -3.233849e+001
74030625 -1.421534e+001 -7.042876e+001 -4.929703e+001 -3.458183e+001 -6.550514e+001 9.612401e+001 -2.569750e+000 -3.244102e+001
74402812.5 -1.425571e+001 -7.041803e+001 -5.125143e+001 -3.377610e+001 -7.179132e+001 1.089553e+001 -2.579405e+000 -3.269828e+001
74775000 -1.427371e+001 -7.024026e+001 -5.071894e+001 -3.675327e+001 -6.973370e+001 4.496214e-002 -2.594183e+000 -3.278121e+001
75147187.5 -1.430585e+001 -7.017638e+001 -4.985271e+001 -3.679556e+001 -7.461602e+001 3.799036e+001 -2.579484e+000 -3.307294e+001
75519375 -1.433767e+001 -7.014033e+001 -4.952990e+001 -4.213110e+001 -6.938895e+001 7.836164e+001 -2.590796e+000 -3.319930e+001
75891562.5 -1.439616e+001 -7.008363e+001 -5.008612e+001 -3.752792e+001 -6.851039e+001 6.255171e+001 -2.588311e+000 -3.315931e+001
76263750 -1.438058e+001 -6.992291e+001 -4.824580e+001 -4.109946e+001 -6.384412e+001 6.575722e+001 -2.599856e+000 -3.328500e+001
76635937.5 -1.444580e+001 -6.985352e+001 -4.990094e+001 -4.334370e+001 -7.152233e+001 3.614615e+001 -2.607069e+000 -3.347691e+001
77008125 -1.446509e+001 -6.982118e+001 -4.885637e+001 -3.672496e+001 -6.156648e+001 1.238823e+002 -2.626095e+000 -3.357573e+001
77380312.5 -1.452998e+001 -6.967200e+001 -4.892192e+001 -4.417333e+001 -7.273673e+001 -1.522659e+002 -2.619390e+000 -3.385546e+001
77752500 -1.451210e+001 -6.969004e+001 -4.911400e+001 -3.441600e+001 -7.201008e+001 1.086526e+002 -2.615871e+000 -3.393115e+001
78124687.5 -1.456902e+001 -6.951665e+001 -4.907397e+001 -3.741289e+001 -7.013125e+001 5.335489e+001 -2.618951e+000 -3.406596e+001
78496875 -1.460470e+001 -6.962747e+001 -4.988727e+001 -4.256919e+001 -6.125258e+001 9.843823e+001 -2.637882e+000 -3.431280e+001
78869062.5 -1.466008e+001 -6.938628e+001 -4.970897e+001 -5.048930e+001 -6.540006e+001 8.324605e+001 -2.641627e+000 -3.452756e+001
79241250 -1.465088e+001 -6.942306e+001 -4.943958e+001 -4.536434e+001 -7.564066e+001 -1.811292e+000 -2.645091e+000 -3.457801e+001
79613437.5 -1.468506e+001 -6.939206e+001 -4.863020e+001 -4.538186e+001 -6.835716e+001 -3.018627e+001 -2.671169e+000 -3.480279e+001
79985625 -1.473001e+001 -6.926416e+001 -4.921319e+001 -3.992624e+001 -7.229935e+001 1.125894e+002 -2.661529e+000 -3.488905e+001
80357812.5 -1.477020e+001 -6.914633e+001 -4.835282e+001 -4.246761e+001 -7.839055e+001 -4.001687e+001 -2.654081e+000 -3.505615e+001
80730000 -1.478456e+001 -6.898996e+001 -4.891594e+001 -4.327903e+001 -7.054742e+001 8.000560e+001 -2.662498e+000 -3.517762e+001
81102187.5 -1.482553e+001 -6.894224e+001 -4.907069e+001 -3.938266e+001 -7.524247e+001 1.192968e+002 -2.672389e+000 -3.534495e+001
81474375 -1.486250e+001 -6.893078e+001 -4.822113e+001 -4.388993e+001 -6.580387e+001 1.350271e+002 -2.676909e+000 -3.551546e+001
81846562.5 -1.487053e+001 -6.873212e+001 -4.854502e+001 -4.622010e+001 -6.279318e+001 1.519522e+002 -2.691890e+000 -3.564196e+001
82218750 -1.495291e+001 -6.867365e+001 -4.742799e+001 -4.832124e+001 -6.645488e+001 3.618378e+001 -2.660586e+000 -3.561221e+001
82590937.5 -1.496581e+001 -6.854312e+001 -4.877082e+001 -4.570655e+001 -6.927769e+001 9.081005e+001 -2.696532e+000 -3.592870e+001
82963125 -1.501169e+001 -6.860666e+001 -4.768667e+001 -4.652903e+001 -7.046533e+001 8.923984e+001 -2.666961e+000 -3.615276e+001
83335312.5 -1.502447e+001 -6.848322e+001 -4.816512e+001 -5.070323e+001 -6.825350e+001 4.791589e+001 -2.697220e+000 -3.625111e+001
83707500 -1.506423e+001 -6.840736e+001 -4.727124e+001 -4.475782e+001 -6.575970e+001 4.057038e+001 -2.691183e+000 -3.641906e+001
84079687.5 -1.510406e+001 -6.817588e+001 -4.767794e+001 -4.784382e+001 -7.240218e+001 8.959000e+001 -2.691854e+000 -3.652514e+001
84451875 -1.510349e+001 -6.805275e+001 -4.769487e+001 -4.710663e+001 -6.968536e+001 5.537393e+001 -2.712024e+000 -3.660460e+001
84824062.5 -1.515914e+001 -6.808983e+001 -4.695301e+001 -4.718940e+001 -7.529639e+001 -3.986716e+001 -2.717218e+000 -3.683159e+001
85196250 -1.516491e+001 -6.793144e+001 -4.753853e+001 -4.381739e+001 -7.609966e+001 1.260299e+002 -2.727042e+000 -3.699485e+001
85568437.5 -1.521830e+001 -6.774016e+001 -4.675902e+001 -5.425661e+001 -6.559851e+001 2.744419e+001 -2.722071e+000 -3.706208e+001
85940625 -1.524801e+001 -6.777959e+001 -4.679907e+001 -4.865936e+001 -7.335686e+001 4.750926e+001 -2.734624e+000 -3.720338e+001
86312812.5 -1.526934e+001 -6.765516e+001 -4.706655e+001 -4.942433e+001 -6.591470e+001 4.838454e+001 -2.739031e+000 -3.749215e+001
86685000 -1.529746e+001 -6.757783e+001 -4.666074e+001 -4.937894e+001 -7.417401e+001 9.077087e+001 -2.763553e+000 -3.751112e+001
87057187.5 -1.532039e+001 -6.753220e+001 -4.647672e+001 -5.142087e+001 -6.663514e+001 6.201513e-001 -2.762691e+000 -3.774876e+001
87429375 -1.535425e+001 -6.726759e+001 -4.722100e+001 -5.311221e+001 -7.590232e+001 -1.507676e+002 -2.765113e+000 -3.776366e+001
87801562.5 -1.539052e+001 -6.720865e+001 -4.580287e+001 -5.594738e+001 -6.639824e+001 1.284544e+002 -2.775562e+000 -3.790473e+001
88173750 -1.542961e+001 -6.710503e+001 -4.580355e+001 -5.703376e+001 -6.670637e+001 5.548600e+001 -2.773550e+000 -3.814036e+001
88545937.5 -1.544024e+001 -6.714514e+001 -4.597904e+001 -5.849120e+001 -7.063973e+001 5.907475e+001 -2.777130e+000 -3.830465e+001
88918125 -1.547548e+001 -6.713749e+001 -4.588508e+001 -5.035430e+001 -6.488972e+001 1.588434e+002 -2.791029e+000 -3.845263e+001
89290312.5 -1.550342e+001 -6.687366e+001 -4.597235e+001 -5.447247e+001 -7.854038e+001 1.398260e+002 -2.786276e+000 -3.859738e+001
89662500 -1.553386e+001 -6.673662e+001 -4.532940e+001 -5.446376e+001 -8.365652e+001 9.525861e+000 -2.819175e+000 -3.875940e+001
90034687.5 -1.554264e+001 -6.664341e+001 -4.623269e+001 -5.887271e+001 -6.722816e+001 1.392608e+002 -2.787802e+000 -3.898435e+001
90406875 -1.556108e+001 -6.643715e+001 -4.452725e+001 -5.640997e+001 -6.676202e+001 5.535521e+001 -2.806324e+000 -3.907294e+001
90779062.5 -1.562479e+001 -6.631383e+001 -4.480888e+001 -5.770923e+001 -7.235056e+001 1.550740e+002 -2.820670e+000 -3.917706e+001
91151250 -1.566336e+001 -6.611324e+001 -4.437294e+001 -5.938723e+001 -8.286891e+001 7.789046e+001 -2.861776e+000 -3.930769e+001
91523437.5 -1.569124e+001 -6.611382e+001 -4.457342e+001 -6.008575e+001 -7.226440e+001 6.179789e+001 -2.849646e+000 -3.948318e+001
91895625 -1.568081e+001 -6.605070e+001 -4.460093e+001 -6.140411e+001 -8.557560e+001 -1.135627e+002 -2.823269e+000 -3.965702e+001
92267812.5 -1.573503e+001 -6.595628e+001 -4.471066e+001 -5.926120e+001 -7.005340e+001 -8.238092e+000 -2.826528e+000 -3.960555e+001
92640000 -1.577392e+001 -6.573888e+001 -4.395713e+001 -6.200896e+001 -6.676656e+001 6.632912e+001 -2.868657e+000 -3.990073e+001
93012187.5 -1.581431e+001 -6.545635e+001 -4.400330e+001 -6.273732e+001 -7.098096e+001 8.113969e+001 -2.856285e+000 -4.022371e+001
93384375 -1.582835e+001 -6.552956e+001 -4.347556e+001 -6.051212e+001 -7.579311e+001 1.338079e+002 -2.857941e+000 -4.030150e+001
93756562.5 -1.582674e+001 -6.527158e+001 -4.319062e+001 -6.875539e+001 -7.066054e+001 -1.092903e+002 -2.880498e+000 -4.037486e+001
94128750 -1.587468e+001 -6.529029e+001 -4.336749e+001 -6.549789e+001 -7.533841e+001 -1.673821e+002 -2.888194e+000 -4.057648e+001
94500937.5 -1.588986e+001 -6.501771e+001 -4.322469e+001 -6.614501e+001 -6.948990e+001 9.482514e+001 -2.888142e+000 -4.055442e+001
94873125 -1.592901e+001 -6.497205e+001 -4.301863e+001 -6.828188e+001 -6.575710e+001 9.525784e+001 -2.892736e+000 -4.081029e+001
95245312.5 -1.598840e+001 -6.473643e+001 -4.301139e+001 -6.800614e+001 -6.715363e+001 1.592730e+002 -2.895934e+000 -4.099199e+001
95617500 -1.598917e+001 -6.491108e+001 -4.275654e+001 -6.972240e+001 -6.969225e+001 1.725892e+002 -2.927229e+000 -4.116166e+001
95989687.5 -1.599734e+001 -6.445991e+001 -4.294616e+001 -7.085615e+001 -6.805681e+001 -2.197781e+001 -2.915152e+000 -4.122355e+001
96361875 -1.600914e+001 -6.439012e+001 -4.248693e+001 -7.301362e+001 -6.770279e+001 -1.689705e+002 -2.913569e+000 -4.143145e+001
96734062.5 -1.607720e+001 -6.420424e+001 -4.248191e+001 -7.569437e+001 -9.316850e+001 3.085021e+001 -2.916456e+000 -4.151273e+001
97106250 -1.609624e+001 -6.411819e+001 -4.193042e+001 -7.314058e+001 -7.046656e+001 9.345232e+001 -2.921906e+000 -4.182469e+001
97478437.5 -1.611293e+001 -6.374609e+001 -4.173372e+001 -7.471674e+001 -7.439165e+001 1.074481e+002 -2.919189e+000 -4.196204e+001
97850625 -1.613768e+001 -6.364333e+001 -4.177348e+001 -7.752699e+001 -6.754681e+001 6.140654e+001 -2.930405e+000 -4.194139e+001
98222812.5 -1.617210e+001 -6.351177e+001 -4.111639e+001 -8.264217e+001 -7.647652e+001 5.986094e+001 -2.943842e+000 -4.215195e+001
98595000 -1.619720e+001 -6.335390e+001 -4.106205e+001 -8.169910e+001 -6.550465e+001 1.558919e+002 -2.940858e+000 -4.227912e+001
98967187.5 -1.621664e+001 -6.314768e+001 -4.128264e+001 -8.132899e+001 -6.715344e+001 -1.600390e+002 -2.969122e+000 -4.236514e+001
99339375 -1.625258e+001 -6.282629e+001 -4.109223e+001 -8.224519e+001 -6.502148e+001 1.408460e+002 -2.949441e+000 -4.256491e+001
99711562.5 -1.627336e+001 -6.272763e+001 -4.092598e+001 -8.213721e+001 -7.129541e+001 1.271262e+002 -2.979753e+000 -4.283463e+001
100083750 -1.628853e+001 -6.270885e+001 -4.104786e+001 -8.614068e+001 -7.158614e+001 1.163960e+002 -2.976638e+000 -4.290435e+001
100455937.5 -1.629008e+001 -6.251915e+001 -4.047947e+001 -8.632773e+001 -7.210108e+001 1.099239e+002 -2.969508e+000 -4.304047e+001
100828125 -1.630549e+001 -6.234520e+001 -4.046771e+001 -8.731614e+001 -6.744958e+001 1.169427e+002 -2.984221e+000 -4.326022e+001
