!Agilent Technologies,E8364A,US41440144,A.06.04.32
!Agilent E8364A: A.06.04.32
!Date: Wednesday, November 28, 2018 16:47:19
!Correction: S11(Full 2 Port(1,2)) S21(Full 2 Port(1,2)) S12(Full 2 Port(1,2)) S22(Full 2 Port(1,2)) 
!S2P File: Measurements: S11, S21, S12, S22:
# Hz S  dB   R 50
45000000 -7.612226e+000 -1.269516e+001 -4.837234e+000 -9.711802e+000 -4.795423e+000 -9.899319e+000 -7.608238e+000 -1.310802e+001
45372187.5 -7.622295e+000 -1.266470e+001 -4.843262e+000 -9.687618e+000 -4.809438e+000 -9.805869e+000 -7.614700e+000 -1.309775e+001
45744375 -7.627316e+000 -1.289211e+001 -4.810804e+000 -9.828844e+000 -4.814412e+000 -9.892864e+000 -7.605170e+000 -1.336794e+001
46116562.5 -7.606954e+000 -1.307115e+001 -4.828054e+000 -9.901721e+000 -4.799996e+000 -1.007784e+001 -7.637851e+000 -1.324647e+001
46488750 -7.609195e+000 -1.310906e+001 -4.826780e+000 -1.003916e+001 -4.794603e+000 -9.991952e+000 -7.587479e+000 -1.340206e+001
46860937.5 -7.623896e+000 -1.307304e+001 -4.812124e+000 -9.965648e+000 -4.800946e+000 -1.017953e+001 -7.598589e+000 -1.353281e+001
47233125 -7.607495e+000 -1.341451e+001 -4.808671e+000 -1.011745e+001 -4.795962e+000 -1.023904e+001 -7.596704e+000 -1.368382e+001
47605312.5 -7.612402e+000 -1.338427e+001 -4.826456e+000 -1.007823e+001 -4.794038e+000 -1.028168e+001 -7.594261e+000 -1.376832e+001
47977500 -7.629478e+000 -1.339268e+001 -4.833152e+000 -1.030956e+001 -4.800620e+000 -1.045197e+001 -7.602088e+000 -1.385151e+001
48349687.5 -7.629028e+000 -1.366489e+001 -4.829416e+000 -1.029401e+001 -4.814770e+000 -1.054380e+001 -7.600498e+000 -1.397863e+001
48721875 -7.626140e+000 -1.370996e+001 -4.831348e+000 -1.058007e+001 -4.808591e+000 -1.047770e+001 -7.599586e+000 -1.411318e+001
49094062.5 -7.618771e+000 -1.384526e+001 -4.827273e+000 -1.058756e+001 -4.792603e+000 -1.065600e+001 -7.604771e+000 -1.411249e+001
49466250 -7.605508e+000 -1.403575e+001 -4.824762e+000 -1.067150e+001 -4.811608e+000 -1.062285e+001 -7.596840e+000 -1.430945e+001
49838437.5 -7.623223e+000 -1.403301e+001 -4.825444e+000 -1.067407e+001 -4.813547e+000 -1.093449e+001 -7.598659e+000 -1.439523e+001
50210625 -7.615903e+000 -1.409861e+001 -4.833784e+000 -1.076618e+001 -4.803801e+000 -1.081487e+001 -7.595265e+000 -1.450932e+001
50582812.5 -7.634656e+000 -1.420739e+001 -4.830794e+000 -1.087900e+001 -4.790976e+000 -1.094119e+001 -7.601385e+000 -1.459408e+001
50955000 -7.627701e+000 -1.429618e+001 -4.826391e+000 -1.095487e+001 -4.796662e+000 -1.102780e+001 -7.625153e+000 -1.483356e+001
51327187.5 -7.620303e+000 -1.434025e+001 -4.825578e+000 -1.101675e+001 -4.802923e+000 -1.095003e+001 -7.611120e+000 -1.473245e+001
51699375 -7.620760e+000 -1.447599e+001 -4.840349e+000 -1.111987e+001 -4.816073e+000 -1.121014e+001 -7.610793e+000 -1.498373e+001
52071562.5 -7.621644e+000 -1.469717e+001 -4.836741e+000 -1.119592e+001 -4.806911e+000 -1.130262e+001 -7.599458e+000 -1.504442e+001
52443750 -7.615180e+000 -1.469396e+001 -4.825150e+000 -1.133658e+001 -4.809131e+000 -1.134379e+001 -7.602916e+000 -1.518736e+001
52815937.5 -7.623616e+000 -1.491701e+001 -4.824113e+000 -1.139807e+001 -4.789176e+000 -1.143521e+001 -7.608909e+000 -1.523499e+001
53188125 -7.623305e+000 -1.509810e+001 -4.836294e+000 -1.151684e+001 -4.811296e+000 -1.152712e+001 -7.619720e+000 -1.533487e+001
53560312.5 -7.624931e+000 -1.510233e+001 -4.819610e+000 -1.154142e+001 -4.809699e+000 -1.161516e+001 -7.617021e+000 -1.553296e+001
53932500 -7.618590e+000 -1.517793e+001 -4.825338e+000 -1.158009e+001 -4.813402e+000 -1.163334e+001 -7.620611e+000 -1.561229e+001
54304687.5 -7.625522e+000 -1.530485e+001 -4.837647e+000 -1.173182e+001 -4.821617e+000 -1.170146e+001 -7.619024e+000 -1.557229e+001
54676875 -7.612300e+000 -1.536082e+001 -4.830335e+000 -1.176370e+001 -4.802213e+000 -1.172222e+001 -7.600833e+000 -1.569846e+001
55049062.5 -7.619140e+000 -1.550157e+001 -4.829700e+000 -1.193423e+001 -4.814892e+000 -1.193681e+001 -7.607897e+000 -1.592408e+001
55421250 -7.625042e+000 -1.566204e+001 -4.836970e+000 -1.199686e+001 -4.812553e+000 -1.198641e+001 -7.614532e+000 -1.590893e+001
55793437.5 -7.616153e+000 -1.572702e+001 -4.821891e+000 -1.197812e+001 -4.809820e+000 -1.196706e+001 -7.617264e+000 -1.599651e+001
56165625 -7.632786e+000 -1.589763e+001 -4.822658e+000 -1.204088e+001 -4.786515e+000 -1.224727e+001 -7.597252e+000 -1.628299e+001
56537812.5 -7.625235e+000 -1.588855e+001 -4.811343e+000 -1.211806e+001 -4.810896e+000 -1.215560e+001 -7.615914e+000 -1.620191e+001
56910000 -7.629556e+000 -1.602402e+001 -4.838533e+000 -1.221612e+001 -4.811840e+000 -1.226424e+001 -7.608708e+000 -1.630776e+001
57282187.5 -7.628635e+000 -1.617440e+001 -4.838533e+000 -1.235365e+001 -4.806625e+000 -1.234263e+001 -7.614454e+000 -1.639438e+001
57654375 -7.616826e+000 -1.620365e+001 -4.824994e+000 -1.239064e+001 -4.795943e+000 -1.246172e+001 -7.594239e+000 -1.657459e+001
58026562.5 -7.627177e+000 -1.629640e+001 -4.826895e+000 -1.249270e+001 -4.790868e+000 -1.252805e+001 -7.600148e+000 -1.669199e+001
58398750 -7.614676e+000 -1.642578e+001 -4.840625e+000 -1.246143e+001 -4.799580e+000 -1.257344e+001 -7.609335e+000 -1.666606e+001
58770937.5 -7.625960e+000 -1.650156e+001 -4.820748e+000 -1.264797e+001 -4.793501e+000 -1.270274e+001 -7.601977e+000 -1.678729e+001
59143125 -7.634120e+000 -1.662338e+001 -4.835282e+000 -1.264962e+001 -4.808812e+000 -1.276218e+001 -7.609025e+000 -1.706822e+001
59515312.5 -7.612434e+000 -1.667393e+001 -4.842889e+000 -1.280255e+001 -4.807768e+000 -1.271711e+001 -7.620258e+000 -1.706984e+001
59887500 -7.626580e+000 -1.686037e+001 -4.851711e+000 -1.281552e+001 -4.811075e+000 -1.282678e+001 -7.594163e+000 -1.722832e+001
60259687.5 -7.614045e+000 -1.698535e+001 -4.837001e+000 -1.292262e+001 -4.806646e+000 -1.303146e+001 -7.607219e+000 -1.730593e+001
60631875 -7.613805e+000 -1.707108e+001 -4.838754e+000 -1.298020e+001 -4.803513e+000 -1.300918e+001 -7.597818e+000 -1.743993e+001
61004062.5 -7.612096e+000 -1.705780e+001 -4.841835e+000 -1.313255e+001 -4.811613e+000 -1.308027e+001 -7.607504e+000 -1.756530e+001
61376250 -7.605185e+000 -1.726078e+001 -4.833055e+000 -1.318436e+001 -4.813669e+000 -1.322723e+001 -7.612969e+000 -1.759593e+001
61748437.5 -7.612799e+000 -1.726284e+001 -4.842874e+000 -1.319757e+001 -4.833256e+000 -1.332549e+001 -7.605499e+000 -1.784347e+001
62120625 -7.606147e+000 -1.742326e+001 -4.839088e+000 -1.335786e+001 -4.823135e+000 -1.343924e+001 -7.612284e+000 -1.788517e+001
62492812.5 -7.616975e+000 -1.759876e+001 -4.839856e+000 -1.337622e+001 -4.816236e+000 -1.349409e+001 -7.594516e+000 -1.786882e+001
62865000 -7.626058e+000 -1.761017e+001 -4.846104e+000 -1.350395e+001 -4.800920e+000 -1.349150e+001 -7.608661e+000 -1.798490e+001
63237187.5 -7.634549e+000 -1.775511e+001 -4.848057e+000 -1.354927e+001 -4.809877e+000 -1.361661e+001 -7.599947e+000 -1.813723e+001
63609375 -7.615107e+000 -1.789114e+001 -4.836559e+000 -1.364726e+001 -4.817168e+000 -1.377913e+001 -7.616122e+000 -1.828363e+001
63981562.5 -7.613583e+000 -1.800179e+001 -4.836902e+000 -1.367882e+001 -4.804001e+000 -1.377664e+001 -7.609655e+000 -1.826717e+001
64353750 -7.629639e+000 -1.787885e+001 -4.836902e+000 -1.373700e+001 -4.822929e+000 -1.388945e+001 -7.637668e+000 -1.864530e+001
64725937.5 -7.626122e+000 -1.814691e+001 -4.838998e+000 -1.390043e+001 -4.824327e+000 -1.403011e+001 -7.616084e+000 -1.859178e+001
65098125 -7.629631e+000 -1.822322e+001 -4.839638e+000 -1.399442e+001 -4.802932e+000 -1.404140e+001 -7.601962e+000 -1.869840e+001
65470312.5 -7.622721e+000 -1.826993e+001 -4.846371e+000 -1.397702e+001 -4.819817e+000 -1.418130e+001 -7.618101e+000 -1.872052e+001
65842500 -7.633672e+000 -1.855066e+001 -4.849717e+000 -1.415213e+001 -4.821464e+000 -1.421660e+001 -7.612113e+000 -1.891233e+001
66214687.5 -7.636725e+000 -1.858648e+001 -4.829639e+000 -1.419517e+001 -4.807818e+000 -1.432638e+001 -7.603066e+000 -1.909752e+001
66586875 -7.625441e+000 -1.871117e+001 -4.844575e+000 -1.434596e+001 -4.818855e+000 -1.442973e+001 -7.607113e+000 -1.915618e+001
66959062.5 -7.627161e+000 -1.870838e+001 -4.832877e+000 -1.432253e+001 -4.833302e+000 -1.446755e+001 -7.625694e+000 -1.915750e+001
67331250 -7.627128e+000 -1.891544e+001 -4.846385e+000 -1.451180e+001 -4.815071e+000 -1.457371e+001 -7.625731e+000 -1.937680e+001
67703437.5 -7.634973e+000 -1.893874e+001 -4.844113e+000 -1.462383e+001 -4.826254e+000 -1.459474e+001 -7.633196e+000 -1.938740e+001
68075625 -7.638144e+000 -1.904938e+001 -4.847046e+000 -1.455115e+001 -4.817075e+000 -1.468578e+001 -7.617560e+000 -1.951656e+001
68447812.5 -7.629421e+000 -1.919722e+001 -4.845548e+000 -1.471787e+001 -4.828095e+000 -1.473539e+001 -7.621399e+000 -1.959360e+001
68820000 -7.632205e+000 -1.936690e+001 -4.866111e+000 -1.480596e+001 -4.825498e+000 -1.493165e+001 -7.617898e+000 -1.969999e+001
69192187.5 -7.638175e+000 -1.939990e+001 -4.860632e+000 -1.480642e+001 -4.824335e+000 -1.488478e+001 -7.614404e+000 -1.975607e+001
69564375 -7.625189e+000 -1.954023e+001 -4.854143e+000 -1.487166e+001 -4.805490e+000 -1.500094e+001 -7.615192e+000 -1.991940e+001
69936562.5 -7.627231e+000 -1.966453e+001 -4.868495e+000 -1.502753e+001 -4.828623e+000 -1.502675e+001 -7.611939e+000 -2.005245e+001
70308750 -7.633932e+000 -1.970880e+001 -4.858015e+000 -1.508200e+001 -4.838785e+000 -1.513233e+001 -7.622795e+000 -2.013687e+001
70680937.5 -7.626639e+000 -1.980749e+001 -4.847892e+000 -1.513114e+001 -4.835780e+000 -1.528325e+001 -7.623664e+000 -2.020183e+001
71053125 -7.626627e+000 -1.991425e+001 -4.850121e+000 -1.523109e+001 -4.835083e+000 -1.527223e+001 -7.611366e+000 -2.025080e+001
71425312.5 -7.630027e+000 -1.995022e+001 -4.851973e+000 -1.524994e+001 -4.806814e+000 -1.549171e+001 -7.611982e+000 -2.045591e+001
71797500 -7.614085e+000 -2.015233e+001 -4.856304e+000 -1.541038e+001 -4.828534e+000 -1.547744e+001 -7.633742e+000 -2.053425e+001
72169687.5 -7.624676e+000 -2.016916e+001 -4.856667e+000 -1.549182e+001 -4.819356e+000 -1.536451e+001 -7.624513e+000 -2.063695e+001
72541875 -7.631230e+000 -2.031602e+001 -4.854461e+000 -1.554350e+001 -4.853236e+000 -1.571813e+001 -7.639771e+000 -2.070196e+001
72914062.5 -7.619668e+000 -2.044141e+001 -4.856793e+000 -1.566508e+001 -4.849779e+000 -1.570487e+001 -7.624441e+000 -2.085506e+001
73286250 -7.636236e+000 -2.057323e+001 -4.853173e+000 -1.570645e+001 -4.841091e+000 -1.571074e+001 -7.606771e+000 -2.098523e+001
73658437.5 -7.629815e+000 -2.062093e+001 -4.845112e+000 -1.583966e+001 -4.835869e+000 -1.599714e+001 -7.623760e+000 -2.109696e+001
74030625 -7.637519e+000 -2.067085e+001 -4.864010e+000 -1.581930e+001 -4.824121e+000 -1.589925e+001 -7.621230e+000 -2.109298e+001
74402812.5 -7.630844e+000 -2.081909e+001 -4.861599e+000 -1.599329e+001 -4.832536e+000 -1.591434e+001 -7.616328e+000 -2.135811e+001
74775000 -7.639359e+000 -2.102950e+001 -4.857481e+000 -1.607346e+001 -4.843105e+000 -1.627140e+001 -7.629345e+000 -2.147502e+001
75147187.5 -7.632453e+000 -2.105755e+001 -4.859121e+000 -1.612798e+001 -4.822432e+000 -1.616217e+001 -7.603351e+000 -2.144240e+001
75519375 -7.628703e+000 -2.116601e+001 -4.846530e+000 -1.618139e+001 -4.851346e+000 -1.624093e+001 -7.618425e+000 -2.171134e+001
75891562.5 -7.630759e+000 -2.125206e+001 -4.842636e+000 -1.633646e+001 -4.833694e+000 -1.645139e+001 -7.612160e+000 -2.171215e+001
76263750 -7.639110e+000 -2.124054e+001 -4.855304e+000 -1.636280e+001 -4.837979e+000 -1.649024e+001 -7.618392e+000 -2.177328e+001
76635937.5 -7.628125e+000 -2.145041e+001 -4.858914e+000 -1.640983e+001 -4.835055e+000 -1.638417e+001 -7.617566e+000 -2.180994e+001
77008125 -7.619444e+000 -2.148048e+001 -4.862761e+000 -1.657026e+001 -4.856540e+000 -1.645532e+001 -7.633058e+000 -2.193264e+001
77380312.5 -7.628249e+000 -2.149301e+001 -4.869480e+000 -1.656582e+001 -4.846907e+000 -1.679908e+001 -7.628182e+000 -2.212246e+001
77752500 -7.631899e+000 -2.170882e+001 -4.878271e+000 -1.663104e+001 -4.828550e+000 -1.680293e+001 -7.612953e+000 -2.213581e+001
78124687.5 -7.644363e+000 -2.175917e+001 -4.861593e+000 -1.676687e+001 -4.837508e+000 -1.670661e+001 -7.623987e+000 -2.228226e+001
78496875 -7.641480e+000 -2.206896e+001 -4.862660e+000 -1.678405e+001 -4.848143e+000 -1.675419e+001 -7.626267e+000 -2.234026e+001
78869062.5 -7.635997e+000 -2.206061e+001 -4.872434e+000 -1.698437e+001 -4.850967e+000 -1.703358e+001 -7.615198e+000 -2.260036e+001
79241250 -7.629192e+000 -2.211143e+001 -4.871343e+000 -1.693372e+001 -4.831079e+000 -1.705946e+001 -7.622459e+000 -2.264734e+001
79613437.5 -7.628429e+000 -2.220198e+001 -4.862771e+000 -1.703417e+001 -4.856289e+000 -1.718310e+001 -7.648468e+000 -2.274929e+001
79985625 -7.644341e+000 -2.226224e+001 -4.866014e+000 -1.714243e+001 -4.841961e+000 -1.712117e+001 -7.638010e+000 -2.277095e+001
80357812.5 -7.641000e+000 -2.243108e+001 -4.865887e+000 -1.719386e+001 -4.840809e+000 -1.727829e+001 -7.612474e+000 -2.295856e+001
80730000 -7.628764e+000 -2.246443e+001 -4.861768e+000 -1.736613e+001 -4.840202e+000 -1.733864e+001 -7.622375e+000 -2.296156e+001
81102187.5 -7.633613e+000 -2.262467e+001 -4.892143e+000 -1.725840e+001 -4.849304e+000 -1.734900e+001 -7.628244e+000 -2.316818e+001
81474375 -7.636932e+000 -2.266110e+001 -4.888436e+000 -1.741873e+001 -4.840399e+000 -1.749231e+001 -7.603366e+000 -2.331581e+001
81846562.5 -7.637722e+000 -2.272144e+001 -4.872236e+000 -1.754049e+001 -4.831585e+000 -1.761772e+001 -7.618338e+000 -2.333225e+001
82218750 -7.637606e+000 -2.297608e+001 -4.880655e+000 -1.760258e+001 -4.836187e+000 -1.767773e+001 -7.601077e+000 -2.344252e+001
82590937.5 -7.652544e+000 -2.293552e+001 -4.885024e+000 -1.773054e+001 -4.850008e+000 -1.767734e+001 -7.638085e+000 -2.351885e+001
82963125 -7.650858e+000 -2.308098e+001 -4.877542e+000 -1.774403e+001 -4.835082e+000 -1.786730e+001 -7.606426e+000 -2.376438e+001
83335312.5 -7.636599e+000 -2.317355e+001 -4.876268e+000 -1.799374e+001 -4.835951e+000 -1.789844e+001 -7.631459e+000 -2.369764e+001
83707500 -7.652164e+000 -2.329114e+001 -4.885740e+000 -1.785407e+001 -4.826522e+000 -1.795767e+001 -7.609330e+000 -2.385034e+001
84079687.5 -7.657004e+000 -2.331098e+001 -4.897485e+000 -1.803367e+001 -4.843935e+000 -1.821606e+001 -7.628148e+000 -2.400598e+001
84451875 -7.644415e+000 -2.341331e+001 -4.889207e+000 -1.805366e+001 -4.859334e+000 -1.822114e+001 -7.631873e+000 -2.415050e+001
84824062.5 -7.655170e+000 -2.356472e+001 -4.869804e+000 -1.811023e+001 -4.837377e+000 -1.816323e+001 -7.634513e+000 -2.417997e+001
85196250 -7.644217e+000 -2.366277e+001 -4.890576e+000 -1.823376e+001 -4.863034e+000 -1.831739e+001 -7.625623e+000 -2.417281e+001
85568437.5 -7.648723e+000 -2.375673e+001 -4.868877e+000 -1.836739e+001 -4.852532e+000 -1.837288e+001 -7.621285e+000 -2.434579e+001
85940625 -7.643309e+000 -2.389067e+001 -4.878721e+000 -1.846214e+001 -4.845519e+000 -1.845655e+001 -7.622424e+000 -2.445779e+001
86312812.5 -7.661951e+000 -2.403523e+001 -4.871199e+000 -1.852171e+001 -4.851767e+000 -1.850428e+001 -7.630216e+000 -2.460187e+001
86685000 -7.626484e+000 -2.404156e+001 -4.877766e+000 -1.845052e+001 -4.843939e+000 -1.862029e+001 -7.628444e+000 -2.453851e+001
87057187.5 -7.651921e+000 -2.418056e+001 -4.874341e+000 -1.871864e+001 -4.872459e+000 -1.872565e+001 -7.613646e+000 -2.476395e+001
87429375 -7.635192e+000 -2.425680e+001 -4.896068e+000 -1.868467e+001 -4.850100e+000 -1.875232e+001 -7.634960e+000 -2.489588e+001
87801562.5 -7.637873e+000 -2.438545e+001 -4.870529e+000 -1.880344e+001 -4.861646e+000 -1.887008e+001 -7.636335e+000 -2.489904e+001
88173750 -7.636043e+000 -2.448154e+001 -4.867080e+000 -1.894036e+001 -4.850400e+000 -1.884220e+001 -7.618937e+000 -2.505411e+001
88545937.5 -7.631140e+000 -2.452477e+001 -4.871320e+000 -1.904760e+001 -4.840162e+000 -1.913138e+001 -7.616240e+000 -2.524154e+001
88918125 -7.643847e+000 -2.466039e+001 -4.886879e+000 -1.911160e+001 -4.857821e+000 -1.911394e+001 -7.623705e+000 -2.522158e+001
89290312.5 -7.632697e+000 -2.481130e+001 -4.885998e+000 -1.920704e+001 -4.846161e+000 -1.909289e+001 -7.612651e+000 -2.546256e+001
89662500 -7.640666e+000 -2.501255e+001 -4.890373e+000 -1.912931e+001 -4.876491e+000 -1.932456e+001 -7.655991e+000 -2.556098e+001
90034687.5 -7.634616e+000 -2.501310e+001 -4.875635e+000 -1.936089e+001 -4.871564e+000 -1.918245e+001 -7.612310e+000 -2.555274e+001
90406875 -7.625705e+000 -2.509893e+001 -4.859750e+000 -1.937763e+001 -4.864693e+000 -1.932828e+001 -7.613001e+000 -2.577737e+001
90779062.5 -7.645761e+000 -2.513091e+001 -4.881352e+000 -1.945938e+001 -4.860692e+000 -1.946135e+001 -7.622596e+000 -2.580723e+001
91151250 -7.629071e+000 -2.525401e+001 -4.871727e+000 -1.938068e+001 -4.867069e+000 -1.944399e+001 -7.646225e+000 -2.578633e+001
91523437.5 -7.644491e+000 -2.532563e+001 -4.887014e+000 -1.940858e+001 -4.865534e+000 -1.969246e+001 -7.638357e+000 -2.592311e+001
91895625 -7.637321e+000 -2.555559e+001 -4.892334e+000 -1.953946e+001 -4.853904e+000 -1.965856e+001 -7.600191e+000 -2.611489e+001
92267812.5 -7.637843e+000 -2.546160e+001 -4.895185e+000 -1.970515e+001 -4.849448e+000 -1.967524e+001 -7.624238e+000 -2.606347e+001
92640000 -7.648228e+000 -2.568394e+001 -4.892399e+000 -1.967230e+001 -4.855771e+000 -1.984599e+001 -7.636242e+000 -2.635037e+001
93012187.5 -7.646889e+000 -2.562502e+001 -4.900197e+000 -1.978189e+001 -4.846020e+000 -1.986177e+001 -7.628769e+000 -2.643237e+001
93384375 -7.629076e+000 -2.578381e+001 -4.888104e+000 -2.003703e+001 -4.861111e+000 -2.003966e+001 -7.631896e+000 -2.657232e+001
93756562.5 -7.635960e+000 -2.589586e+001 -4.898966e+000 -2.014521e+001 -4.855714e+000 -2.010291e+001 -7.628929e+000 -2.664916e+001
94128750 -7.641476e+000 -2.598307e+001 -4.897797e+000 -2.010082e+001 -4.866826e+000 -2.016537e+001 -7.636592e+000 -2.678331e+001
94500937.5 -7.639617e+000 -2.606518e+001 -4.895813e+000 -2.012926e+001 -4.881852e+000 -2.021028e+001 -7.629411e+000 -2.674331e+001
94873125 -7.643340e+000 -2.615969e+001 -4.900793e+000 -2.018529e+001 -4.873692e+000 -2.018776e+001 -7.624763e+000 -2.691610e+001
95245312.5 -7.633991e+000 -2.630557e+001 -4.892496e+000 -2.034147e+001 -4.856591e+000 -2.056534e+001 -7.627947e+000 -2.711187e+001
95617500 -7.652001e+000 -2.649711e+001 -4.895320e+000 -2.035948e+001 -4.882870e+000 -2.043560e+001 -7.654315e+000 -2.716718e+001
95989687.5 -7.622956e+000 -2.654732e+001 -4.882048e+000 -2.035038e+001 -4.868632e+000 -2.052960e+001 -7.627412e+000 -2.726119e+001
96361875 -7.632571e+000 -2.660362e+001 -4.882940e+000 -2.059248e+001 -4.878122e+000 -2.058868e+001 -7.612792e+000 -2.735853e+001
96734062.5 -7.635280e+000 -2.668579e+001 -4.884852e+000 -2.065341e+001 -4.872074e+000 -2.067329e+001 -7.620459e+000 -2.746197e+001
97106250 -7.655783e+000 -2.680169e+001 -4.905035e+000 -2.064288e+001 -4.872345e+000 -2.080737e+001 -7.630920e+000 -2.757023e+001
97478437.5 -7.622310e+000 -2.682707e+001 -4.905237e+000 -2.078667e+001 -4.867289e+000 -2.089813e+001 -7.631295e+000 -2.772619e+001
97850625 -7.645011e+000 -2.704405e+001 -4.914800e+000 -2.079298e+001 -4.873708e+000 -2.094272e+001 -7.616241e+000 -2.768240e+001
98222812.5 -7.644485e+000 -2.707764e+001 -4.900090e+000 -2.100448e+001 -4.878499e+000 -2.100289e+001 -7.615726e+000 -2.777548e+001
98595000 -7.635471e+000 -2.723598e+001 -4.890524e+000 -2.095504e+001 -4.860338e+000 -2.115063e+001 -7.611552e+000 -2.793385e+001
98967187.5 -7.645388e+000 -2.728216e+001 -4.904868e+000 -2.109740e+001 -4.874289e+000 -2.131053e+001 -7.637901e+000 -2.798028e+001
99339375 -7.640289e+000 -2.739517e+001 -4.910243e+000 -2.111212e+001 -4.884573e+000 -2.131105e+001 -7.611401e+000 -2.802878e+001
99711562.5 -7.647304e+000 -2.742048e+001 -4.897806e+000 -2.120509e+001 -4.868983e+000 -2.135620e+001 -7.645490e+000 -2.830416e+001
100083750 -7.638540e+000 -2.759340e+001 -4.905846e+000 -2.125750e+001 -4.869205e+000 -2.148526e+001 -7.616236e+000 -2.836743e+001
100455937.5 -7.631350e+000 -2.773638e+001 -4.883762e+000 -2.145387e+001 -4.865804e+000 -2.135698e+001 -7.619598e+000 -2.841384e+001
