!Agilent Technologies,E8364A,US41440144,A.06.04.32
!Agilent E8364A: A.06.04.32
!Date: Thursday, November 08, 2018 14:22:25
!Correction: S11(Full 2 Port(1,2)) S21(Full 2 Port(1,2)) S12(Full 2 Port(1,2)) S22(Full 2 Port(1,2)) 
!S2P File: Measurements: S11, S21, S12, S22:
# Hz S  dB   R 50
45000000 -7.581144e+000 -1.170226e+001 -4.802100e+000 -9.474659e+000 -4.660499e+000 -9.741032e+000 -7.744205e+000 -1.295657e+001
45372187.5 -7.509453e+000 -1.218903e+001 -4.866086e+000 -9.432899e+000 -4.807968e+000 -9.948794e+000 -7.635003e+000 -1.330202e+001
45744375 -7.548578e+000 -1.297686e+001 -4.830484e+000 -9.611408e+000 -4.856334e+000 -9.632714e+000 -7.623469e+000 -1.331126e+001
46116562.5 -7.637722e+000 -1.263820e+001 -4.878289e+000 -9.954515e+000 -4.754439e+000 -1.012298e+001 -7.421455e+000 -1.293555e+001
46488750 -7.657502e+000 -1.360750e+001 -4.791440e+000 -9.933846e+000 -4.814073e+000 -1.049129e+001 -7.551773e+000 -1.312632e+001
46860937.5 -7.619384e+000 -1.261778e+001 -4.845605e+000 -9.667898e+000 -4.740962e+000 -1.010049e+001 -7.529735e+000 -1.369089e+001
47233125 -7.631657e+000 -1.302355e+001 -4.811013e+000 -1.047209e+001 -4.779711e+000 -1.012993e+001 -7.656540e+000 -1.360837e+001
47605312.5 -7.648367e+000 -1.294996e+001 -4.760466e+000 -9.754550e+000 -4.735734e+000 -1.018771e+001 -7.629134e+000 -1.310784e+001
47977500 -7.699331e+000 -1.305621e+001 -4.799021e+000 -1.068628e+001 -4.774889e+000 -1.065828e+001 -7.465286e+000 -1.328127e+001
48349687.5 -7.635082e+000 -1.416466e+001 -4.831208e+000 -1.015773e+001 -4.741583e+000 -1.063151e+001 -7.528385e+000 -1.335280e+001
48721875 -7.627247e+000 -1.337227e+001 -4.832129e+000 -1.050633e+001 -4.901403e+000 -1.062765e+001 -7.585771e+000 -1.461702e+001
49094062.5 -7.645187e+000 -1.442232e+001 -4.722409e+000 -1.080416e+001 -4.779454e+000 -1.128364e+001 -7.665466e+000 -1.400395e+001
49466250 -7.568599e+000 -1.423041e+001 -4.783330e+000 -1.075752e+001 -4.795054e+000 -1.080902e+001 -7.592847e+000 -1.456947e+001
49838437.5 -7.571333e+000 -1.386639e+001 -4.823356e+000 -1.073915e+001 -4.730567e+000 -1.135609e+001 -7.658641e+000 -1.386725e+001
50210625 -7.579179e+000 -1.330497e+001 -4.829256e+000 -1.057304e+001 -4.787065e+000 -1.091734e+001 -7.565641e+000 -1.403540e+001
50582812.5 -7.590998e+000 -1.397502e+001 -4.768408e+000 -1.082858e+001 -4.834977e+000 -1.056386e+001 -7.622768e+000 -1.454477e+001
50955000 -7.722938e+000 -1.342330e+001 -4.801977e+000 -1.084013e+001 -4.731710e+000 -1.068886e+001 -7.629294e+000 -1.547264e+001
51327187.5 -7.563505e+000 -1.454538e+001 -4.761248e+000 -1.122055e+001 -4.721961e+000 -1.125820e+001 -7.571240e+000 -1.451557e+001
51699375 -7.562174e+000 -1.343163e+001 -4.788571e+000 -1.072725e+001 -4.762928e+000 -1.111676e+001 -7.593518e+000 -1.520697e+001
52071562.5 -7.638885e+000 -1.421205e+001 -4.850245e+000 -1.111219e+001 -4.869894e+000 -1.155506e+001 -7.610545e+000 -1.532999e+001
52443750 -7.614199e+000 -1.346593e+001 -4.783741e+000 -1.130185e+001 -4.725414e+000 -1.147243e+001 -7.640919e+000 -1.507690e+001
52815937.5 -7.550391e+000 -1.489019e+001 -4.857967e+000 -1.145148e+001 -4.795952e+000 -1.147097e+001 -7.587961e+000 -1.497359e+001
53188125 -7.615623e+000 -1.520283e+001 -4.821918e+000 -1.161646e+001 -4.762219e+000 -1.183653e+001 -7.644422e+000 -1.557641e+001
53560312.5 -7.761081e+000 -1.499129e+001 -4.799860e+000 -1.148222e+001 -4.784723e+000 -1.165025e+001 -7.568861e+000 -1.508848e+001
53932500 -7.554301e+000 -1.494802e+001 -4.771393e+000 -1.169298e+001 -4.870666e+000 -1.205404e+001 -7.639745e+000 -1.508654e+001
54304687.5 -7.626048e+000 -1.468285e+001 -4.829733e+000 -1.203331e+001 -4.736945e+000 -1.210610e+001 -7.692464e+000 -1.486026e+001
54676875 -7.684599e+000 -1.583762e+001 -4.813008e+000 -1.148804e+001 -4.854335e+000 -1.159266e+001 -7.625244e+000 -1.542859e+001
55049062.5 -7.604290e+000 -1.561880e+001 -4.809536e+000 -1.176378e+001 -4.765996e+000 -1.200609e+001 -7.632734e+000 -1.607010e+001
55421250 -7.641644e+000 -1.567495e+001 -4.821826e+000 -1.198264e+001 -4.824236e+000 -1.163862e+001 -7.570436e+000 -1.589089e+001
55793437.5 -7.652953e+000 -1.527164e+001 -4.767479e+000 -1.167863e+001 -4.820246e+000 -1.206181e+001 -7.595243e+000 -1.642184e+001
56165625 -7.760193e+000 -1.602627e+001 -4.778133e+000 -1.191230e+001 -4.805274e+000 -1.255280e+001 -7.662371e+000 -1.611651e+001
56537812.5 -7.644729e+000 -1.561206e+001 -4.752651e+000 -1.214301e+001 -4.810289e+000 -1.247942e+001 -7.614351e+000 -1.604108e+001
56910000 -7.561697e+000 -1.637007e+001 -4.798272e+000 -1.231899e+001 -4.734787e+000 -1.265573e+001 -7.572390e+000 -1.664076e+001
57282187.5 -7.627751e+000 -1.640165e+001 -4.782002e+000 -1.226701e+001 -4.752968e+000 -1.239148e+001 -7.667625e+000 -1.630500e+001
57654375 -7.659293e+000 -1.629528e+001 -4.801628e+000 -1.253219e+001 -4.729006e+000 -1.252080e+001 -7.575886e+000 -1.685457e+001
58026562.5 -7.656592e+000 -1.565956e+001 -4.808564e+000 -1.225989e+001 -4.766795e+000 -1.224897e+001 -7.667084e+000 -1.630619e+001
58398750 -7.568128e+000 -1.657082e+001 -4.826059e+000 -1.257345e+001 -4.777898e+000 -1.209288e+001 -7.637888e+000 -1.688058e+001
58770937.5 -7.580778e+000 -1.623285e+001 -4.785336e+000 -1.279541e+001 -4.832737e+000 -1.293861e+001 -7.596133e+000 -1.690865e+001
59143125 -7.631526e+000 -1.667845e+001 -4.799933e+000 -1.252245e+001 -4.816792e+000 -1.292452e+001 -7.655131e+000 -1.708535e+001
59515312.5 -7.587732e+000 -1.660855e+001 -4.823173e+000 -1.261607e+001 -4.808873e+000 -1.309864e+001 -7.689138e+000 -1.709838e+001
59887500 -7.634756e+000 -1.670238e+001 -4.790315e+000 -1.299392e+001 -4.816302e+000 -1.304950e+001 -7.656174e+000 -1.718232e+001
60259687.5 -7.594513e+000 -1.751381e+001 -4.737390e+000 -1.283698e+001 -4.779704e+000 -1.289411e+001 -7.615085e+000 -1.719700e+001
60631875 -7.564356e+000 -1.752532e+001 -4.800889e+000 -1.320651e+001 -4.800796e+000 -1.325095e+001 -7.548285e+000 -1.716956e+001
61004062.5 -7.649960e+000 -1.715535e+001 -4.817103e+000 -1.298523e+001 -4.842769e+000 -1.321970e+001 -7.633956e+000 -1.749347e+001
61376250 -7.634616e+000 -1.720195e+001 -4.803158e+000 -1.336034e+001 -4.779736e+000 -1.305763e+001 -7.678082e+000 -1.789088e+001
61748437.5 -7.593570e+000 -1.713430e+001 -4.806294e+000 -1.283198e+001 -4.786090e+000 -1.372948e+001 -7.600080e+000 -1.690639e+001
62120625 -7.606914e+000 -1.726417e+001 -4.737734e+000 -1.352377e+001 -4.788101e+000 -1.353098e+001 -7.745761e+000 -1.812957e+001
62492812.5 -7.573097e+000 -1.694708e+001 -4.802132e+000 -1.323822e+001 -4.826718e+000 -1.361893e+001 -7.640665e+000 -1.804991e+001
62865000 -7.526476e+000 -1.734284e+001 -4.789815e+000 -1.353666e+001 -4.795104e+000 -1.339032e+001 -7.586306e+000 -1.768696e+001
63237187.5 -7.561660e+000 -1.775522e+001 -4.873719e+000 -1.357663e+001 -4.764526e+000 -1.326488e+001 -7.603370e+000 -1.794544e+001
63609375 -7.628169e+000 -1.753741e+001 -4.840721e+000 -1.344605e+001 -4.772475e+000 -1.382066e+001 -7.614564e+000 -1.791020e+001
63981562.5 -7.524019e+000 -1.790137e+001 -4.794300e+000 -1.371680e+001 -4.803135e+000 -1.362249e+001 -7.577226e+000 -1.842916e+001
64353750 -7.582618e+000 -1.749404e+001 -4.824212e+000 -1.341307e+001 -4.784448e+000 -1.371558e+001 -7.578848e+000 -1.803294e+001
64725937.5 -7.664193e+000 -1.780171e+001 -4.869470e+000 -1.376181e+001 -4.765983e+000 -1.346072e+001 -7.623649e+000 -1.825011e+001
65098125 -7.664402e+000 -1.837384e+001 -4.783867e+000 -1.420143e+001 -4.773550e+000 -1.411287e+001 -7.609523e+000 -1.859261e+001
65470312.5 -7.581152e+000 -1.856392e+001 -4.793387e+000 -1.374844e+001 -4.808733e+000 -1.428045e+001 -7.644073e+000 -1.849242e+001
65842500 -7.654608e+000 -1.899042e+001 -4.825379e+000 -1.413073e+001 -4.839087e+000 -1.379663e+001 -7.645679e+000 -1.821666e+001
66214687.5 -7.619996e+000 -1.800468e+001 -4.752939e+000 -1.431888e+001 -4.830702e+000 -1.391585e+001 -7.665199e+000 -1.880221e+001
66586875 -7.567250e+000 -1.893267e+001 -4.811864e+000 -1.438235e+001 -4.834953e+000 -1.452622e+001 -7.534029e+000 -1.921391e+001
66959062.5 -7.581407e+000 -1.891125e+001 -4.861708e+000 -1.395150e+001 -4.794342e+000 -1.450185e+001 -7.587194e+000 -1.878691e+001
67331250 -7.602454e+000 -1.871437e+001 -4.795615e+000 -1.465231e+001 -4.771515e+000 -1.466775e+001 -7.715707e+000 -1.903319e+001
67703437.5 -7.616057e+000 -1.852464e+001 -4.797345e+000 -1.463431e+001 -4.776641e+000 -1.487061e+001 -7.593962e+000 -1.966712e+001
68075625 -7.638793e+000 -1.845017e+001 -4.793242e+000 -1.460407e+001 -4.821394e+000 -1.472426e+001 -7.613705e+000 -1.988560e+001
68447812.5 -7.618752e+000 -1.940299e+001 -4.813623e+000 -1.484495e+001 -4.775808e+000 -1.433733e+001 -7.701735e+000 -1.901413e+001
68820000 -7.617768e+000 -1.935035e+001 -4.794281e+000 -1.485639e+001 -4.834200e+000 -1.490382e+001 -7.672918e+000 -1.954637e+001
69192187.5 -7.670530e+000 -1.946713e+001 -4.815989e+000 -1.460366e+001 -4.749463e+000 -1.491257e+001 -7.498813e+000 -2.001315e+001
69564375 -7.644431e+000 -1.942345e+001 -4.801943e+000 -1.475653e+001 -4.807644e+000 -1.496542e+001 -7.645413e+000 -1.958771e+001
69936562.5 -7.635270e+000 -1.943963e+001 -4.845218e+000 -1.488633e+001 -4.837177e+000 -1.509692e+001 -7.633604e+000 -1.967414e+001
70308750 -7.711087e+000 -1.986591e+001 -4.866442e+000 -1.499856e+001 -4.862493e+000 -1.505294e+001 -7.577090e+000 -2.023096e+001
70680937.5 -7.683231e+000 -2.001342e+001 -4.813121e+000 -1.504633e+001 -4.818029e+000 -1.534613e+001 -7.613659e+000 -2.023738e+001
71053125 -7.615364e+000 -1.960410e+001 -4.865355e+000 -1.487442e+001 -4.817060e+000 -1.548794e+001 -7.723808e+000 -2.047964e+001
71425312.5 -7.630230e+000 -1.952882e+001 -4.849488e+000 -1.504391e+001 -4.728419e+000 -1.540515e+001 -7.580198e+000 -1.978493e+001
71797500 -7.636925e+000 -1.995973e+001 -4.815751e+000 -1.524947e+001 -4.786736e+000 -1.555366e+001 -7.730814e+000 -2.000014e+001
72169687.5 -7.603273e+000 -2.019627e+001 -4.758708e+000 -1.544882e+001 -4.849274e+000 -1.541172e+001 -7.633395e+000 -2.104716e+001
72541875 -7.636044e+000 -2.020460e+001 -4.831017e+000 -1.575584e+001 -4.760047e+000 -1.562015e+001 -7.620491e+000 -2.048419e+001
72914062.5 -7.649729e+000 -2.037114e+001 -4.819894e+000 -1.550712e+001 -4.803300e+000 -1.594689e+001 -7.620567e+000 -2.028354e+001
73286250 -7.704079e+000 -2.047976e+001 -4.803375e+000 -1.548884e+001 -4.759553e+000 -1.559770e+001 -7.658096e+000 -2.105050e+001
73658437.5 -7.650400e+000 -2.049828e+001 -4.859803e+000 -1.617028e+001 -4.796051e+000 -1.618000e+001 -7.647093e+000 -2.110736e+001
74030625 -7.650492e+000 -2.003803e+001 -4.834948e+000 -1.600596e+001 -4.832294e+000 -1.596072e+001 -7.582245e+000 -2.081147e+001
74402812.5 -7.685992e+000 -2.064079e+001 -4.826795e+000 -1.577672e+001 -4.790815e+000 -1.579887e+001 -7.583158e+000 -2.069766e+001
74775000 -7.627591e+000 -2.085398e+001 -4.829357e+000 -1.625714e+001 -4.767615e+000 -1.630326e+001 -7.606994e+000 -2.134153e+001
75147187.5 -7.637676e+000 -2.090370e+001 -4.814758e+000 -1.593977e+001 -4.771822e+000 -1.615700e+001 -7.655484e+000 -2.110163e+001
75519375 -7.592821e+000 -2.094614e+001 -4.779170e+000 -1.617413e+001 -4.829022e+000 -1.584252e+001 -7.633211e+000 -2.150695e+001
75891562.5 -7.679917e+000 -2.069031e+001 -4.859006e+000 -1.596044e+001 -4.820075e+000 -1.641598e+001 -7.533801e+000 -2.172201e+001
76263750 -7.677889e+000 -2.117861e+001 -4.842718e+000 -1.638381e+001 -4.848022e+000 -1.658375e+001 -7.670793e+000 -2.112190e+001
76635937.5 -7.683500e+000 -2.121445e+001 -4.823643e+000 -1.641194e+001 -4.765635e+000 -1.608845e+001 -7.666821e+000 -2.170076e+001
77008125 -7.602973e+000 -2.115991e+001 -4.826766e+000 -1.652814e+001 -4.815400e+000 -1.650930e+001 -7.691925e+000 -2.186345e+001
77380312.5 -7.611277e+000 -2.158113e+001 -4.842237e+000 -1.658846e+001 -4.833400e+000 -1.687031e+001 -7.588790e+000 -2.220432e+001
77752500 -7.636698e+000 -2.154350e+001 -4.858750e+000 -1.658872e+001 -4.856854e+000 -1.671956e+001 -7.595562e+000 -2.171196e+001
78124687.5 -7.628663e+000 -2.186392e+001 -4.819588e+000 -1.679164e+001 -4.812268e+000 -1.667664e+001 -7.659060e+000 -2.190034e+001
78496875 -7.677924e+000 -2.212147e+001 -4.823829e+000 -1.690903e+001 -4.823794e+000 -1.677247e+001 -7.647866e+000 -2.234851e+001
78869062.5 -7.655837e+000 -2.215756e+001 -4.861094e+000 -1.695604e+001 -4.793771e+000 -1.729991e+001 -7.669319e+000 -2.232838e+001
79241250 -7.645432e+000 -2.218966e+001 -4.846506e+000 -1.651548e+001 -4.828141e+000 -1.709771e+001 -7.645257e+000 -2.243942e+001
79613437.5 -7.674128e+000 -2.208600e+001 -4.843362e+000 -1.697252e+001 -4.809640e+000 -1.733176e+001 -7.616950e+000 -2.226973e+001
79985625 -7.723614e+000 -2.183596e+001 -4.826661e+000 -1.711292e+001 -4.867429e+000 -1.697615e+001 -7.598922e+000 -2.272803e+001
80357812.5 -7.642986e+000 -2.188313e+001 -4.826411e+000 -1.736193e+001 -4.815735e+000 -1.754658e+001 -7.646250e+000 -2.270390e+001
80730000 -7.705154e+000 -2.170554e+001 -4.869429e+000 -1.720097e+001 -4.827141e+000 -1.749292e+001 -7.593607e+000 -2.248698e+001
81102187.5 -7.640655e+000 -2.255935e+001 -4.899063e+000 -1.725485e+001 -4.801339e+000 -1.741860e+001 -7.575206e+000 -2.273420e+001
81474375 -7.629515e+000 -2.255703e+001 -4.845909e+000 -1.729757e+001 -4.848473e+000 -1.732141e+001 -7.622286e+000 -2.312044e+001
81846562.5 -7.647737e+000 -2.253581e+001 -4.834740e+000 -1.726195e+001 -4.797381e+000 -1.787930e+001 -7.638308e+000 -2.305624e+001
82218750 -7.693717e+000 -2.301458e+001 -4.846443e+000 -1.736320e+001 -4.803797e+000 -1.778564e+001 -7.626400e+000 -2.346611e+001
82590937.5 -7.687606e+000 -2.280131e+001 -4.856308e+000 -1.772011e+001 -4.850350e+000 -1.777378e+001 -7.646665e+000 -2.374727e+001
82963125 -7.616147e+000 -2.296262e+001 -4.803597e+000 -1.790079e+001 -4.804280e+000 -1.808424e+001 -7.601333e+000 -2.364170e+001
83335312.5 -7.634474e+000 -2.299540e+001 -4.824507e+000 -1.801632e+001 -4.812678e+000 -1.778828e+001 -7.640135e+000 -2.370837e+001
83707500 -7.618444e+000 -2.327505e+001 -4.827867e+000 -1.767939e+001 -4.774928e+000 -1.801981e+001 -7.607086e+000 -2.383954e+001
84079687.5 -7.739155e+000 -2.309485e+001 -4.858654e+000 -1.791917e+001 -4.773188e+000 -1.813505e+001 -7.615119e+000 -2.399733e+001
84451875 -7.675241e+000 -2.332394e+001 -4.848701e+000 -1.747415e+001 -4.832721e+000 -1.806124e+001 -7.647872e+000 -2.410209e+001
84824062.5 -7.658349e+000 -2.340937e+001 -4.811162e+000 -1.831170e+001 -4.825665e+000 -1.809491e+001 -7.553014e+000 -2.411954e+001
85196250 -7.668966e+000 -2.320651e+001 -4.867922e+000 -1.833906e+001 -4.842877e+000 -1.822776e+001 -7.635764e+000 -2.402963e+001
85568437.5 -7.648185e+000 -2.336131e+001 -4.862080e+000 -1.789550e+001 -4.801082e+000 -1.834453e+001 -7.583328e+000 -2.410128e+001
85940625 -7.607971e+000 -2.376749e+001 -4.877295e+000 -1.839445e+001 -4.806211e+000 -1.844009e+001 -7.653047e+000 -2.421972e+001
86312812.5 -7.707427e+000 -2.423205e+001 -4.864334e+000 -1.834968e+001 -4.806555e+000 -1.849479e+001 -7.612417e+000 -2.445862e+001
86685000 -7.613078e+000 -2.414165e+001 -4.863789e+000 -1.838577e+001 -4.854244e+000 -1.845334e+001 -7.628839e+000 -2.436241e+001
87057187.5 -7.635373e+000 -2.417302e+001 -4.861969e+000 -1.860007e+001 -4.868027e+000 -1.864982e+001 -7.637630e+000 -2.433250e+001
87429375 -7.674194e+000 -2.402849e+001 -4.857503e+000 -1.879269e+001 -4.792352e+000 -1.882526e+001 -7.640873e+000 -2.454719e+001
87801562.5 -7.631198e+000 -2.416634e+001 -4.861795e+000 -1.888029e+001 -4.856734e+000 -1.868598e+001 -7.625748e+000 -2.430889e+001
88173750 -7.665234e+000 -2.465714e+001 -4.836192e+000 -1.854934e+001 -4.813349e+000 -1.888449e+001 -7.680491e+000 -2.496440e+001
88545937.5 -7.673325e+000 -2.450666e+001 -4.906182e+000 -1.903378e+001 -4.810992e+000 -1.904826e+001 -7.648333e+000 -2.522938e+001
88918125 -7.669238e+000 -2.441304e+001 -4.884369e+000 -1.898529e+001 -4.854609e+000 -1.914289e+001 -7.626564e+000 -2.491604e+001
89290312.5 -7.622088e+000 -2.474657e+001 -4.827021e+000 -1.923121e+001 -4.821506e+000 -1.941971e+001 -7.602103e+000 -2.510383e+001
89662500 -7.624714e+000 -2.450163e+001 -4.856044e+000 -1.911030e+001 -4.844675e+000 -1.920080e+001 -7.659052e+000 -2.529916e+001
90034687.5 -7.655500e+000 -2.502883e+001 -4.809382e+000 -1.916941e+001 -4.859288e+000 -1.907776e+001 -7.669932e+000 -2.525924e+001
90406875 -7.625567e+000 -2.483271e+001 -4.859625e+000 -1.924211e+001 -4.873681e+000 -1.936603e+001 -7.619850e+000 -2.576424e+001
90779062.5 -7.626472e+000 -2.514989e+001 -4.866724e+000 -1.966126e+001 -4.785415e+000 -1.932457e+001 -7.674159e+000 -2.542666e+001
91151250 -7.616014e+000 -2.478734e+001 -4.807642e+000 -1.946566e+001 -4.832467e+000 -1.962457e+001 -7.646352e+000 -2.559875e+001
91523437.5 -7.673439e+000 -2.492349e+001 -4.870543e+000 -1.940817e+001 -4.843724e+000 -1.991978e+001 -7.656145e+000 -2.574790e+001
91895625 -7.669056e+000 -2.513345e+001 -4.863639e+000 -1.931566e+001 -4.853410e+000 -1.948190e+001 -7.671793e+000 -2.590285e+001
92267812.5 -7.607131e+000 -2.544128e+001 -4.880550e+000 -1.951582e+001 -4.844138e+000 -1.979423e+001 -7.670045e+000 -2.583272e+001
92640000 -7.703335e+000 -2.569104e+001 -4.874882e+000 -1.968801e+001 -4.866147e+000 -1.967867e+001 -7.670790e+000 -2.618003e+001
93012187.5 -7.697956e+000 -2.550064e+001 -4.891123e+000 -1.973532e+001 -4.816270e+000 -1.999624e+001 -7.646987e+000 -2.640519e+001
93384375 -7.616151e+000 -2.563687e+001 -4.866107e+000 -2.014393e+001 -4.822363e+000 -1.998630e+001 -7.654689e+000 -2.631134e+001
93756562.5 -7.660882e+000 -2.558549e+001 -4.853113e+000 -2.016341e+001 -4.813386e+000 -2.001507e+001 -7.621672e+000 -2.626136e+001
94128750 -7.589410e+000 -2.602378e+001 -4.898030e+000 -2.020884e+001 -4.824168e+000 -2.000628e+001 -7.647572e+000 -2.688844e+001
94500937.5 -7.620259e+000 -2.600800e+001 -4.872348e+000 -2.004893e+001 -4.820837e+000 -2.029068e+001 -7.581475e+000 -2.669872e+001
94873125 -7.649794e+000 -2.618493e+001 -4.903464e+000 -2.014508e+001 -4.827363e+000 -2.018488e+001 -7.606242e+000 -2.696933e+001
95245312.5 -7.591218e+000 -2.613049e+001 -4.884620e+000 -2.009534e+001 -4.854267e+000 -2.045509e+001 -7.679870e+000 -2.677177e+001
95617500 -7.686893e+000 -2.644563e+001 -4.890571e+000 -2.037556e+001 -4.854208e+000 -2.040685e+001 -7.655314e+000 -2.691588e+001
95989687.5 -7.657357e+000 -2.656453e+001 -4.841396e+000 -2.056503e+001 -4.910417e+000 -2.024715e+001 -7.713662e+000 -2.674241e+001
96361875 -7.592644e+000 -2.626494e+001 -4.827138e+000 -2.061041e+001 -4.856431e+000 -2.056666e+001 -7.679942e+000 -2.694099e+001
96734062.5 -7.682612e+000 -2.645861e+001 -4.881795e+000 -2.079753e+001 -4.864458e+000 -2.043278e+001 -7.698116e+000 -2.705960e+001
97106250 -7.664274e+000 -2.683947e+001 -4.826950e+000 -2.087676e+001 -4.822135e+000 -2.084392e+001 -7.589057e+000 -2.768278e+001
97478437.5 -7.657767e+000 -2.673857e+001 -4.880174e+000 -2.078591e+001 -4.818606e+000 -2.090860e+001 -7.612129e+000 -2.763891e+001
97850625 -7.619235e+000 -2.665982e+001 -4.875221e+000 -2.095137e+001 -4.848662e+000 -2.081365e+001 -7.611610e+000 -2.736756e+001
98222812.5 -7.659135e+000 -2.710061e+001 -4.854321e+000 -2.089993e+001 -4.877070e+000 -2.117856e+001 -7.664346e+000 -2.778242e+001
98595000 -7.624617e+000 -2.686645e+001 -4.856490e+000 -2.086991e+001 -4.877934e+000 -2.110924e+001 -7.647117e+000 -2.768293e+001
98967187.5 -7.654782e+000 -2.736986e+001 -4.854710e+000 -2.095692e+001 -4.860576e+000 -2.147160e+001 -7.734261e+000 -2.780381e+001
99339375 -7.612080e+000 -2.734402e+001 -4.919209e+000 -2.125680e+001 -4.876145e+000 -2.113414e+001 -7.626480e+000 -2.763260e+001
99711562.5 -7.685574e+000 -2.727700e+001 -4.859294e+000 -2.131532e+001 -4.837584e+000 -2.134216e+001 -7.672339e+000 -2.812774e+001
100083750 -7.622174e+000 -2.767461e+001 -4.883398e+000 -2.123360e+001 -4.814810e+000 -2.154874e+001 -7.630858e+000 -2.812830e+001
100455937.5 -7.575242e+000 -2.758664e+001 -4.880249e+000 -2.135450e+001 -4.815351e+000 -2.121755e+001 -7.620014e+000 -2.778363e+001
