!Agilent Technologies,E8364A,US41440144,A.06.04.32
!Agilent E8364A: A.06.04.32
!Date: Thursday, May 24, 2018 11:13:21
!Correction: S11(Full 1 Port(1)) 
!S1P File: Measurement: S11:
# Hz S  dB   R 50
1000000000  -9.214920e-001  4.246170e+001 
1000937500  -9.224246e-001  4.223094e+001 
1001875000  -9.219165e-001  4.194461e+001 
1002812500  -9.310085e-001  4.164993e+001 
1003750000  -9.202942e-001  4.134159e+001 
1004687500  -9.272533e-001  4.109192e+001 
1005625000  -9.237556e-001  4.077027e+001 
1006562500  -9.323077e-001  4.051602e+001 
1007500000  -9.258631e-001  4.024860e+001 
1008437500  -9.288502e-001  3.998060e+001 
1009375000  -9.233513e-001  3.965421e+001 
1010312500  -9.289926e-001  3.940864e+001 
1011250000  -9.318597e-001  3.914322e+001 
1012187500  -9.277310e-001  3.882029e+001 
1013125000  -9.308334e-001  3.853945e+001 
1014062500  -9.311194e-001  3.829665e+001 
1015000000  -9.266905e-001  3.802607e+001 
1015937500  -9.221925e-001  3.774982e+001 
1016875000  -9.240301e-001  3.745554e+001 
1017812500  -9.216696e-001  3.717006e+001 
1018750000  -9.238190e-001  3.689461e+001 
1019687500  -9.187424e-001  3.665295e+001 
1020625000  -9.276702e-001  3.632013e+001 
1021562500  -9.238524e-001  3.606683e+001 
1022500000  -9.221600e-001  3.576785e+001 
1023437500  -9.226552e-001  3.550757e+001 
1024375000  -9.236336e-001  3.518031e+001 
1025312500  -9.232231e-001  3.489169e+001 
1026250000  -9.264403e-001  3.464458e+001 
1027187500  -9.320304e-001  3.439313e+001 
1028125000  -9.269225e-001  3.405663e+001 
1029062500  -9.261819e-001  3.382301e+001 
1030000000  -9.256868e-001  3.356340e+001 
1030937500  -9.304566e-001  3.316848e+001 
1031875000  -9.260324e-001  3.299470e+001 
1032812500  -9.218425e-001  3.269901e+001 
1033750000  -9.275713e-001  3.240884e+001 
1034687500  -9.249467e-001  3.211015e+001 
1035625000  -9.227034e-001  3.185164e+001 
1036562500  -9.289136e-001  3.161672e+001 
1037500000  -9.200134e-001  3.129726e+001 
1038437500  -9.265994e-001  3.105528e+001 
1039375000  -9.208800e-001  3.071757e+001 
1040312500  -9.268393e-001  3.048638e+001 
1041250000  -9.246128e-001  3.016898e+001 
1042187500  -9.233725e-001  2.987009e+001 
1043125000  -9.121217e-001  2.964946e+001 
1044062500  -9.200782e-001  2.935218e+001 
1045000000  -9.204102e-001  2.903370e+001 
1045937500  -9.124029e-001  2.874661e+001 
1046875000  -9.189897e-001  2.848231e+001 
1047812500  -9.133623e-001  2.816404e+001 
1048750000  -9.129494e-001  2.795773e+001 
1049687500  -9.087871e-001  2.770767e+001 
1050625000  -9.116467e-001  2.739410e+001 
1051562500  -9.112123e-001  2.708048e+001 
1052500000  -9.111264e-001  2.678126e+001 
1053437500  -9.123835e-001  2.652479e+001 
1054375000  -9.010597e-001  2.626019e+001 
1055312500  -9.118296e-001  2.594573e+001 
1056250000  -9.068139e-001  2.566052e+001 
1057187500  -9.009454e-001  2.539466e+001 
1058125000  -8.955573e-001  2.504539e+001 
1059062500  -9.047233e-001  2.473695e+001 
1060000000  -8.981634e-001  2.452577e+001 
1060937500  -8.996850e-001  2.425492e+001 
1061875000  -9.002983e-001  2.390248e+001 
1062812500  -8.957580e-001  2.365357e+001 
1063750000  -8.894947e-001  2.336659e+001 
1064687500  -8.942390e-001  2.306971e+001 
1065625000  -8.899161e-001  2.270884e+001 
1066562500  -8.952116e-001  2.249196e+001 
1067500000  -9.045002e-001  2.217785e+001 
1068437500  -8.979707e-001  2.188482e+001 
1069375000  -9.066570e-001  2.160826e+001 
1070312500  -9.102015e-001  2.132545e+001 
1071250000  -9.101748e-001  2.099358e+001 
1072187500  -9.045600e-001  2.072785e+001 
1073125000  -8.976679e-001  2.046174e+001 
1074062500  -8.969008e-001  2.021635e+001 
1075000000  -9.078111e-001  1.987249e+001 
1075937500  -9.022802e-001  1.958392e+001 
1076875000  -9.052374e-001  1.928770e+001 
1077812500  -9.033834e-001  1.899367e+001 
1078750000  -9.016134e-001  1.877032e+001 
1079687500  -8.995881e-001  1.850692e+001 
1080625000  -9.115849e-001  1.818694e+001 
1081562500  -9.070660e-001  1.787039e+001 
1082500000  -9.048217e-001  1.762338e+001 
1083437500  -9.093360e-001  1.731325e+001 
1084375000  -9.092034e-001  1.705662e+001 
1085312500  -9.072721e-001  1.673598e+001 
1086250000  -9.053413e-001  1.646754e+001 
1087187500  -9.044054e-001  1.619639e+001 
1088125000  -9.044198e-001  1.595059e+001 
1089062500  -9.039393e-001  1.563056e+001 
1090000000  -9.021932e-001  1.539287e+001 
1090937500  -9.115605e-001  1.509833e+001 
1091875000  -9.090880e-001  1.475004e+001 
1092812500  -9.105720e-001  1.448522e+001 
1093750000  -9.100168e-001  1.418843e+001 
1094687500  -9.064763e-001  1.387078e+001 
1095625000  -9.085416e-001  1.364362e+001 
1096562500  -9.077393e-001  1.336173e+001 
1097500000  -9.192063e-001  1.307557e+001 
1098437500  -9.234366e-001  1.279947e+001 
1099375000  -9.172884e-001  1.249965e+001 
1100312500  -9.245512e-001  1.223537e+001 
1101250000  -9.253024e-001  1.194151e+001 
1102187500  -9.207253e-001  1.171455e+001 
1103125000  -9.162840e-001  1.138058e+001 
1104062500  -9.213882e-001  1.113967e+001 
1105000000  -9.252581e-001  1.081270e+001 
1105937500  -9.195539e-001  1.050802e+001 
1106875000  -9.252904e-001  1.025677e+001 
1107812500  -9.258754e-001  9.963582e+000 
1108750000  -9.335341e-001  9.671953e+000 
1109687500  -9.242285e-001  9.350882e+000 
1110625000  -9.300137e-001  9.061852e+000 
1111562500  -9.390327e-001  8.811509e+000 
1112500000  -9.353702e-001  8.575526e+000 
1113437500  -9.361382e-001  8.237180e+000 
1114375000  -9.430399e-001  7.965985e+000 
1115312500  -9.388835e-001  7.668461e+000 
1116250000  -9.421358e-001  7.426989e+000 
1117187500  -9.454209e-001  7.138860e+000 
1118125000  -9.460655e-001  6.870121e+000 
1119062500  -9.463139e-001  6.599389e+000 
1120000000  -9.582387e-001  6.352715e+000 
1120937500  -9.537408e-001  6.064414e+000 
1121875000  -9.576911e-001  5.769303e+000 
1122812500  -9.549863e-001  5.515668e+000 
1123750000  -9.588997e-001  5.229488e+000 
1124687500  -9.615946e-001  4.915504e+000 
1125625000  -9.592143e-001  4.661212e+000 
1126562500  -9.576582e-001  4.409037e+000 
1127500000  -9.622002e-001  4.141531e+000 
1128437500  -9.496017e-001  3.820507e+000 
1129375000  -9.627435e-001  3.581452e+000 
1130312500  -9.621438e-001  3.372270e+000 
1131250000  -9.700451e-001  3.030176e+000 
1132187500  -9.616293e-001  2.749568e+000 
1133125000  -9.694129e-001  2.507173e+000 
1134062500  -9.658236e-001  2.268919e+000 
1135000000  -9.618204e-001  2.003194e+000 
1135937500  -9.755855e-001  1.711198e+000 
1136875000  -9.618903e-001  1.418025e+000 
1137812500  -9.639133e-001  1.172137e+000 
1138750000  -9.755685e-001  9.177295e-001 
1139687500  -9.677706e-001  7.019620e-001 
1140625000  -9.654459e-001  4.096327e-001 
1141562500  -9.648671e-001  1.307019e-001 
1142500000  -9.598890e-001  -1.402941e-001 
1143437500  -9.674650e-001  -3.841153e-001 
1144375000  -9.668594e-001  -6.482923e-001 
1145312500  -9.579530e-001  -9.298536e-001 
1146250000  -9.635539e-001  -1.206695e+000 
1147187500  -9.606421e-001  -1.460941e+000 
1148125000  -9.581617e-001  -1.775652e+000 
1149062500  -9.567506e-001  -2.002023e+000 
1150000000  -9.595879e-001  -2.266755e+000 
1150937500  -9.488903e-001  -2.537641e+000 
1151875000  -9.524161e-001  -2.838294e+000 
1152812500  -9.471567e-001  -3.122108e+000 
1153750000  -9.553218e-001  -3.410194e+000 
1154687500  -9.501753e-001  -3.670329e+000 
1155625000  -9.502294e-001  -3.927237e+000 
1156562500  -9.440985e-001  -4.190941e+000 
1157500000  -9.356042e-001  -4.498313e+000 
1158437500  -9.439527e-001  -4.746641e+000 
1159375000  -9.452960e-001  -5.044719e+000 
1160312500  -9.461275e-001  -5.310244e+000 
1161250000  -9.399968e-001  -5.592716e+000 
1162187500  -9.360456e-001  -5.834748e+000 
1163125000  -9.398443e-001  -6.117566e+000 
1164062500  -9.360802e-001  -6.409283e+000 
1165000000  -9.253914e-001  -6.618584e+000 
1165937500  -9.293762e-001  -6.939280e+000 
1166875000  -9.316124e-001  -7.222243e+000 
1167812500  -9.350860e-001  -7.485245e+000 
1168750000  -9.334009e-001  -7.775598e+000 
1169687500  -9.236706e-001  -8.022350e+000 
1170625000  -9.288521e-001  -8.304059e+000 
1171562500  -9.233788e-001  -8.557343e+000 
1172500000  -9.129601e-001  -8.848573e+000 
1173437500  -9.185522e-001  -9.141075e+000 
1174375000  -9.096229e-001  -9.462662e+000 
1175312500  -9.058245e-001  -9.682253e+000 
1176250000  -9.124796e-001  -9.949854e+000 
1177187500  -9.156919e-001  -1.022365e+001 
1178125000  -9.028217e-001  -1.052657e+001 
1179062500  -9.066363e-001  -1.080774e+001 
1180000000  -9.032286e-001  -1.107880e+001 
1180937500  -8.971022e-001  -1.138315e+001 
1181875000  -9.033792e-001  -1.168756e+001 
1182812500  -8.971396e-001  -1.189970e+001 
1183750000  -8.961182e-001  -1.226185e+001 
1184687500  -8.899601e-001  -1.251410e+001 
1185625000  -8.866172e-001  -1.282330e+001 
1186562500  -8.904061e-001  -1.313059e+001 
1187500000  -8.889324e-001  -1.336652e+001 
1188437500  -8.910456e-001  -1.368393e+001 
1189375000  -8.868256e-001  -1.397443e+001 
1190312500  -8.819268e-001  -1.431540e+001 
1191250000  -8.758686e-001  -1.452680e+001 
1192187500  -8.788986e-001  -1.484983e+001 
1193125000  -8.827758e-001  -1.511976e+001 
1194062500  -8.809216e-001  -1.542492e+001 
1195000000  -8.796622e-001  -1.564991e+001 
1195937500  -8.906591e-001  -1.596641e+001 
1196875000  -8.784240e-001  -1.626649e+001 
1197812500  -8.733099e-001  -1.656910e+001 
1198750000  -8.762802e-001  -1.681765e+001 
1199687500  -8.720906e-001  -1.717818e+001 
1200625000  -8.730481e-001  -1.742843e+001 
1201562500  -8.758341e-001  -1.772341e+001 
1202500000  -8.720677e-001  -1.800646e+001 
1203437500  -8.635234e-001  -1.830060e+001 
1204375000  -8.613187e-001  -1.860441e+001 
1205312500  -8.588251e-001  -1.889746e+001 
1206250000  -8.685225e-001  -1.914795e+001 
1207187500  -8.643800e-001  -1.951658e+001 
1208125000  -8.610106e-001  -1.977489e+001 
1209062500  -8.591920e-001  -2.003901e+001 
1210000000  -8.630245e-001  -2.034893e+001 
1210937500  -8.579347e-001  -2.062906e+001 
1211875000  -8.584307e-001  -2.094151e+001 
1212812500  -8.579512e-001  -2.125263e+001 
1213750000  -8.489038e-001  -2.155388e+001 
1214687500  -8.583359e-001  -2.182707e+001 
1215625000  -8.621924e-001  -2.212593e+001 
1216562500  -8.652003e-001  -2.246319e+001 
1217500000  -8.563027e-001  -2.272028e+001 
1218437500  -8.520390e-001  -2.302718e+001 
1219375000  -8.632232e-001  -2.333136e+001 
1220312500  -8.528448e-001  -2.357456e+001 
1221250000  -8.612848e-001  -2.386785e+001 
1222187500  -8.592483e-001  -2.418209e+001 
1223125000  -8.595451e-001  -2.447184e+001 
1224062500  -8.633558e-001  -2.475654e+001 
1225000000  -8.573508e-001  -2.506333e+001 
1225937500  -8.611796e-001  -2.531737e+001 
1226875000  -8.662184e-001  -2.562026e+001 
1227812500  -8.654786e-001  -2.594953e+001 
1228750000  -8.685484e-001  -2.623498e+001 
1229687500  -8.756233e-001  -2.650520e+001 
1230625000  -8.704348e-001  -2.682533e+001 
1231562500  -8.763865e-001  -2.710633e+001 
1232500000  -8.676817e-001  -2.737233e+001 
1233437500  -8.719145e-001  -2.767616e+001 
1234375000  -8.766269e-001  -2.795125e+001 
1235312500  -8.744392e-001  -2.824064e+001 
1236250000  -8.782796e-001  -2.854188e+001 
1237187500  -8.722854e-001  -2.877836e+001 
1238125000  -8.794583e-001  -2.909070e+001 
1239062500  -8.804594e-001  -2.935283e+001 
1240000000  -8.759100e-001  -2.960242e+001 
1240937500  -8.780156e-001  -2.992837e+001 
1241875000  -8.778620e-001  -3.021350e+001 
1242812500  -8.819280e-001  -3.046465e+001 
1243750000  -8.811596e-001  -3.076875e+001 
1244687500  -8.834541e-001  -3.105136e+001 
1245625000  -8.786135e-001  -3.133344e+001 
1246562500  -8.883156e-001  -3.161341e+001 
1247500000  -8.821238e-001  -3.190661e+001 
1248437500  -8.784937e-001  -3.218642e+001 
1249375000  -8.735115e-001  -3.247235e+001 
1250312500  -8.763885e-001  -3.277013e+001 
1251250000  -8.744498e-001  -3.305509e+001 
1252187500  -8.774610e-001  -3.335893e+001 
1253125000  -8.736957e-001  -3.362498e+001 
1254062500  -8.783978e-001  -3.394914e+001 
1255000000  -8.796949e-001  -3.423167e+001 
1255937500  -8.741901e-001  -3.451218e+001 
1256875000  -8.805312e-001  -3.483870e+001 
1257812500  -8.796608e-001  -3.511338e+001 
1258750000  -8.673685e-001  -3.537213e+001 
1259687500  -8.729892e-001  -3.565896e+001 
1260625000  -8.787001e-001  -3.593506e+001 
1261562500  -8.746195e-001  -3.625613e+001 
1262500000  -8.778372e-001  -3.653159e+001 
1263437500  -8.752865e-001  -3.683884e+001 
1264375000  -8.796553e-001  -3.709718e+001 
1265312500  -8.794649e-001  -3.737280e+001 
1266250000  -8.820177e-001  -3.767838e+001 
1267187500  -8.838382e-001  -3.795785e+001 
1268125000  -8.832095e-001  -3.823263e+001 
1269062500  -8.799182e-001  -3.851107e+001 
1270000000  -8.819479e-001  -3.880086e+001 
1270937500  -8.816024e-001  -3.905447e+001 
1271875000  -8.810319e-001  -3.940421e+001 
1272812500  -8.835987e-001  -3.965905e+001 
1273750000  -8.764684e-001  -3.994756e+001 
1274687500  -8.731190e-001  -4.028250e+001 
1275625000  -8.835015e-001  -4.053806e+001 
1276562500  -8.789313e-001  -4.084119e+001 
1277500000  -8.786618e-001  -4.115269e+001 
1278437500  -8.842563e-001  -4.139608e+001 
1279375000  -8.858575e-001  -4.175764e+001 
1280312500  -8.856874e-001  -4.202614e+001 
1281250000  -8.871463e-001  -4.231490e+001 
1282187500  -8.885077e-001  -4.259763e+001 
1283125000  -8.895476e-001  -4.287368e+001 
1284062500  -8.825051e-001  -4.312858e+001 
1285000000  -8.913947e-001  -4.344172e+001 
1285937500  -8.851383e-001  -4.373149e+001 
1286875000  -8.878121e-001  -4.405909e+001 
1287812500  -8.834994e-001  -4.426136e+001 
1288750000  -8.892884e-001  -4.457233e+001 
1289687500  -8.895339e-001  -4.490693e+001 
1290625000  -8.973138e-001  -4.522829e+001 
1291562500  -8.932034e-001  -4.544556e+001 
1292500000  -8.963664e-001  -4.579034e+001 
1293437500  -8.961092e-001  -4.604608e+001 
1294375000  -8.956684e-001  -4.630214e+001 
1295312500  -9.063194e-001  -4.659557e+001 
1296250000  -9.057277e-001  -4.688297e+001 
1297187500  -9.075558e-001  -4.720593e+001 
1298125000  -9.051244e-001  -4.746282e+001 
1299062500  -9.033011e-001  -4.777188e+001 
1300000000  -9.085103e-001  -4.806005e+001 
1300937500  -9.012265e-001  -4.836063e+001 
1301875000  -9.062638e-001  -4.862831e+001 
1302812500  -9.098200e-001  -4.892083e+001 
1303750000  -9.062098e-001  -4.919180e+001 
1304687500  -9.041899e-001  -4.950189e+001 
1305625000  -9.126073e-001  -4.975654e+001 
1306562500  -9.104898e-001  -5.004212e+001 
1307500000  -9.167296e-001  -5.036553e+001 
1308437500  -9.148548e-001  -5.062844e+001 
1309375000  -9.122922e-001  -5.090014e+001 
1310312500  -9.156433e-001  -5.122781e+001 
1311250000  -9.148407e-001  -5.149601e+001 
1312187500  -9.222791e-001  -5.172220e+001 
1313125000  -9.243773e-001  -5.203356e+001 
1314062500  -9.219518e-001  -5.238071e+001 
1315000000  -9.235163e-001  -5.262289e+001 
1315937500  -9.253640e-001  -5.291473e+001 
1316875000  -9.234431e-001  -5.318312e+001 
1317812500  -9.185454e-001  -5.346749e+001 
1318750000  -9.344288e-001  -5.373175e+001 
1319687500  -9.331442e-001  -5.399930e+001 
1320625000  -9.311256e-001  -5.427615e+001 
1321562500  -9.275417e-001  -5.459193e+001 
1322500000  -9.286771e-001  -5.489458e+001 
1323437500  -9.240729e-001  -5.517432e+001 
1324375000  -9.273671e-001  -5.544727e+001 
1325312500  -9.305629e-001  -5.571999e+001 
1326250000  -9.204503e-001  -5.601294e+001 
1327187500  -9.234876e-001  -5.631179e+001 
1328125000  -9.250141e-001  -5.658052e+001 
1329062500  -9.281341e-001  -5.684927e+001 
1330000000  -9.264805e-001  -5.714670e+001 
1330937500  -9.287240e-001  -5.744534e+001 
1331875000  -9.267638e-001  -5.772544e+001 
1332812500  -9.324947e-001  -5.804644e+001 
1333750000  -9.341078e-001  -5.833996e+001 
1334687500  -9.257008e-001  -5.860122e+001 
1335625000  -9.327253e-001  -5.890786e+001 
1336562500  -9.354697e-001  -5.917923e+001 
1337500000  -9.283767e-001  -5.946133e+001 
1338437500  -9.336931e-001  -5.980645e+001 
1339375000  -9.417888e-001  -6.006891e+001 
1340312500  -9.361322e-001  -6.036533e+001 
1341250000  -9.359475e-001  -6.059725e+001 
1342187500  -9.402236e-001  -6.091095e+001 
1343125000  -9.355103e-001  -6.120246e+001 
1344062500  -9.380320e-001  -6.149677e+001 
1345000000  -9.350358e-001  -6.180819e+001 
1345937500  -9.350825e-001  -6.204684e+001 
1346875000  -9.417475e-001  -6.229075e+001 
1347812500  -9.362841e-001  -6.261863e+001 
1348750000  -9.399033e-001  -6.289109e+001 
1349687500  -9.452615e-001  -6.318290e+001 
1350625000  -9.422269e-001  -6.348843e+001 
1351562500  -9.429508e-001  -6.374357e+001 
1352500000  -9.380826e-001  -6.400912e+001 
1353437500  -9.469231e-001  -6.435219e+001 
1354375000  -9.514843e-001  -6.458180e+001 
1355312500  -9.489314e-001  -6.486424e+001 
1356250000  -9.529950e-001  -6.512129e+001 
1357187500  -9.581811e-001  -6.543910e+001 
1358125000  -9.552888e-001  -6.572432e+001 
1359062500  -9.450164e-001  -6.602999e+001 
1360000000  -9.462979e-001  -6.629810e+001 
1360937500  -9.471655e-001  -6.654324e+001 
1361875000  -9.445803e-001  -6.680761e+001 
1362812500  -9.429919e-001  -6.712263e+001 
1363750000  -9.441101e-001  -6.741957e+001 
1364687500  -9.426819e-001  -6.771524e+001 
1365625000  -9.443758e-001  -6.800959e+001 
1366562500  -9.430552e-001  -6.826405e+001 
1367500000  -9.418321e-001  -6.855591e+001 
1368437500  -9.401081e-001  -6.887536e+001 
1369375000  -9.456121e-001  -6.912442e+001 
1370312500  -9.483548e-001  -6.938520e+001 
1371250000  -9.410006e-001  -6.967615e+001 
1372187500  -9.468544e-001  -6.997897e+001 
1373125000  -9.410046e-001  -7.025632e+001 
1374062500  -9.407777e-001  -7.056267e+001 
1375000000  -9.357449e-001  -7.084641e+001 
1375937500  -9.360183e-001  -7.113659e+001 
1376875000  -9.367483e-001  -7.146540e+001 
1377812500  -9.393913e-001  -7.173443e+001 
1378750000  -9.263108e-001  -7.202489e+001 
1379687500  -9.394414e-001  -7.230570e+001 
1380625000  -9.319029e-001  -7.259384e+001 
1381562500  -9.373509e-001  -7.287183e+001 
1382500000  -9.326674e-001  -7.318981e+001 
1383437500  -9.338120e-001  -7.348394e+001 
1384375000  -9.370085e-001  -7.374491e+001 
1385312500  -9.357473e-001  -7.406906e+001 
1386250000  -9.347041e-001  -7.436570e+001 
1387187500  -9.352378e-001  -7.462402e+001 
1388125000  -9.304194e-001  -7.494923e+001 
1389062500  -9.397809e-001  -7.518527e+001 
1390000000  -9.384819e-001  -7.552460e+001 
1390937500  -9.376715e-001  -7.574961e+001 
1391875000  -9.343588e-001  -7.608285e+001 
1392812500  -9.401049e-001  -7.638657e+001 
1393750000  -9.404765e-001  -7.668336e+001 
1394687500  -9.357840e-001  -7.699763e+001 
1395625000  -9.363632e-001  -7.728590e+001 
1396562500  -9.357311e-001  -7.756995e+001 
1397500000  -9.351717e-001  -7.786565e+001 
1398437500  -9.383999e-001  -7.814128e+001 
1399375000  -9.321734e-001  -7.841499e+001 
1400312500  -9.375694e-001  -7.873350e+001 
1401250000  -9.366508e-001  -7.903718e+001 
1402187500  -9.418850e-001  -7.929719e+001 
1403125000  -9.490891e-001  -7.956950e+001 
1404062500  -9.304353e-001  -7.990827e+001 
1405000000  -9.404060e-001  -8.015778e+001 
1405937500  -9.413067e-001  -8.046821e+001 
1406875000  -9.433509e-001  -8.078365e+001 
1407812500  -9.407139e-001  -8.105809e+001 
1408750000  -9.432634e-001  -8.134869e+001 
1409687500  -9.490183e-001  -8.165181e+001 
1410625000  -9.439355e-001  -8.190416e+001 
1411562500  -9.550546e-001  -8.223241e+001 
1412500000  -9.474681e-001  -8.243054e+001 
1413437500  -9.532194e-001  -8.274562e+001 
1414375000  -9.463841e-001  -8.309327e+001 
