!Agilent Technologies,E8364A,US41440144,A.06.04.32
!Agilent E8364A: A.06.04.32
!Date: Thursday, May 24, 2018 11:13:50
!Correction: S11(Full 1 Port(1)) 
!S1P File: Measurement: S11:
# Hz S  dB   R 50
1000000000  -7.987582e-001  4.098981e+001 
1000937500  -7.916189e-001  4.068138e+001 
1001875000  -7.971439e-001  4.044345e+001 
1002812500  -8.023437e-001  4.016174e+001 
1003750000  -7.927708e-001  3.988212e+001 
1004687500  -7.997736e-001  3.958601e+001 
1005625000  -7.930993e-001  3.927573e+001 
1006562500  -8.020443e-001  3.900755e+001 
1007500000  -8.089122e-001  3.872645e+001 
1008437500  -8.040555e-001  3.850803e+001 
1009375000  -8.041275e-001  3.816335e+001 
1010312500  -8.078142e-001  3.792758e+001 
1011250000  -8.003758e-001  3.760801e+001 
1012187500  -8.053007e-001  3.727601e+001 
1013125000  -7.992545e-001  3.701579e+001 
1014062500  -8.122998e-001  3.674644e+001 
1015000000  -7.997148e-001  3.646469e+001 
1015937500  -7.964582e-001  3.618607e+001 
1016875000  -8.018636e-001  3.597022e+001 
1017812500  -8.000394e-001  3.563667e+001 
1018750000  -8.005959e-001  3.535749e+001 
1019687500  -7.955633e-001  3.512331e+001 
1020625000  -8.006812e-001  3.480220e+001 
1021562500  -8.027327e-001  3.449040e+001 
1022500000  -7.938917e-001  3.422166e+001 
1023437500  -7.988932e-001  3.397607e+001 
1024375000  -7.951190e-001  3.364181e+001 
1025312500  -7.922250e-001  3.340127e+001 
1026250000  -8.002976e-001  3.310735e+001 
1027187500  -8.000516e-001  3.285656e+001 
1028125000  -7.848502e-001  3.256793e+001 
1029062500  -7.865651e-001  3.225181e+001 
1030000000  -7.865196e-001  3.198706e+001 
1030937500  -7.964647e-001  3.168380e+001 
1031875000  -7.888098e-001  3.142637e+001 
1032812500  -7.839653e-001  3.110154e+001 
1033750000  -7.907781e-001  3.084319e+001 
1034687500  -7.920415e-001  3.052896e+001 
1035625000  -7.878467e-001  3.023843e+001 
1036562500  -7.906176e-001  2.997920e+001 
1037500000  -7.874511e-001  2.968914e+001 
1038437500  -7.851572e-001  2.944083e+001 
1039375000  -7.847363e-001  2.909218e+001 
1040312500  -7.878252e-001  2.890849e+001 
1041250000  -7.941753e-001  2.858449e+001 
1042187500  -7.877541e-001  2.820766e+001 
1043125000  -7.822685e-001  2.802710e+001 
1044062500  -7.906566e-001  2.770445e+001 
1045000000  -7.920889e-001  2.735908e+001 
1045937500  -7.827166e-001  2.713462e+001 
1046875000  -7.826418e-001  2.682585e+001 
1047812500  -7.859895e-001  2.656245e+001 
1048750000  -7.846058e-001  2.629222e+001 
1049687500  -7.777905e-001  2.599552e+001 
1050625000  -7.733159e-001  2.571760e+001 
1051562500  -7.742753e-001  2.540504e+001 
1052500000  -7.777804e-001  2.513188e+001 
1053437500  -7.800544e-001  2.485516e+001 
1054375000  -7.799599e-001  2.456755e+001 
1055312500  -7.852144e-001  2.425853e+001 
1056250000  -7.835912e-001  2.398189e+001 
1057187500  -7.748197e-001  2.370070e+001 
1058125000  -7.717325e-001  2.338650e+001 
1059062500  -7.733476e-001  2.313017e+001 
1060000000  -7.703509e-001  2.282928e+001 
1060937500  -7.766541e-001  2.261628e+001 
1061875000  -7.721329e-001  2.223821e+001 
1062812500  -7.758027e-001  2.198953e+001 
1063750000  -7.674174e-001  2.167252e+001 
1064687500  -7.707135e-001  2.140056e+001 
1065625000  -7.691567e-001  2.107926e+001 
1066562500  -7.704384e-001  2.081095e+001 
1067500000  -7.765352e-001  2.053955e+001 
1068437500  -7.688061e-001  2.019000e+001 
1069375000  -7.736848e-001  1.995074e+001 
1070312500  -7.762998e-001  1.964353e+001 
1071250000  -7.751791e-001  1.932215e+001 
1072187500  -7.743264e-001  1.910428e+001 
1073125000  -7.704805e-001  1.880434e+001 
1074062500  -7.700460e-001  1.848724e+001 
1075000000  -7.742915e-001  1.818241e+001 
1075937500  -7.712540e-001  1.790131e+001 
1076875000  -7.712834e-001  1.758586e+001 
1077812500  -7.714177e-001  1.727646e+001 
1078750000  -7.696866e-001  1.702712e+001 
1079687500  -7.743525e-001  1.676807e+001 
1080625000  -7.745605e-001  1.644842e+001 
1081562500  -7.860326e-001  1.614304e+001 
1082500000  -7.765979e-001  1.588431e+001 
1083437500  -7.712009e-001  1.559503e+001 
1084375000  -7.756703e-001  1.531431e+001 
1085312500  -7.736871e-001  1.502297e+001 
1086250000  -7.734993e-001  1.470291e+001 
1087187500  -7.733043e-001  1.443304e+001 
1088125000  -7.765348e-001  1.415831e+001 
1089062500  -7.792401e-001  1.388361e+001 
1090000000  -7.741355e-001  1.360729e+001 
1090937500  -7.765784e-001  1.330477e+001 
1091875000  -7.691883e-001  1.303604e+001 
1092812500  -7.795027e-001  1.273180e+001 
1093750000  -7.728488e-001  1.242081e+001 
1094687500  -7.745990e-001  1.213401e+001 
1095625000  -7.728683e-001  1.185881e+001 
1096562500  -7.792692e-001  1.156233e+001 
1097500000  -7.838784e-001  1.128921e+001 
1098437500  -7.890629e-001  1.095872e+001 
1099375000  -7.834654e-001  1.065518e+001 
1100312500  -7.806772e-001  1.039538e+001 
1101250000  -7.905386e-001  1.013942e+001 
1102187500  -7.910468e-001  9.836697e+000 
1103125000  -7.875341e-001  9.506412e+000 
1104062500  -7.938996e-001  9.227942e+000 
1105000000  -7.895882e-001  8.898069e+000 
1105937500  -7.884069e-001  8.600985e+000 
1106875000  -7.895801e-001  8.377989e+000 
1107812500  -7.921502e-001  8.060426e+000 
1108750000  -7.953352e-001  7.719676e+000 
1109687500  -7.991451e-001  7.433814e+000 
1110625000  -7.952479e-001  7.127025e+000 
1111562500  -8.080613e-001  6.852873e+000 
1112500000  -8.002006e-001  6.606821e+000 
1113437500  -8.077930e-001  6.281783e+000 
1114375000  -8.125000e-001  5.984080e+000 
1115312500  -8.107349e-001  5.691417e+000 
1116250000  -8.107635e-001  5.400052e+000 
1117187500  -8.132176e-001  5.126213e+000 
1118125000  -8.171028e-001  4.881061e+000 
1119062500  -8.176773e-001  4.539343e+000 
1120000000  -8.228291e-001  4.315684e+000 
1120937500  -8.261937e-001  4.008902e+000 
1121875000  -8.370842e-001  3.701956e+000 
1122812500  -8.324934e-001  3.411379e+000 
1123750000  -8.316818e-001  3.165545e+000 
1124687500  -8.390598e-001  2.843294e+000 
1125625000  -8.355098e-001  2.568788e+000 
1126562500  -8.379122e-001  2.279822e+000 
1127500000  -8.437473e-001  2.012197e+000 
1128437500  -8.385064e-001  1.705266e+000 
1129375000  -8.559101e-001  1.437021e+000 
1130312500  -8.546799e-001  1.217848e+000 
1131250000  -8.535285e-001  8.821533e-001 
1132187500  -8.551071e-001  5.989972e-001 
1133125000  -8.633218e-001  3.607818e-001 
1134062500  -8.629441e-001  7.716587e-002 
1135000000  -8.627302e-001  -2.341034e-001 
1135937500  -8.685784e-001  -4.553179e-001 
1136875000  -8.610900e-001  -7.386659e-001 
1137812500  -8.690825e-001  -1.023564e+000 
1138750000  -8.743625e-001  -1.326981e+000 
1139687500  -8.743458e-001  -1.555268e+000 
1140625000  -8.790938e-001  -1.802597e+000 
1141562500  -8.814554e-001  -2.074051e+000 
1142500000  -8.790407e-001  -2.345778e+000 
1143437500  -8.894143e-001  -2.622272e+000 
1144375000  -8.799593e-001  -2.863300e+000 
1145312500  -8.818532e-001  -3.170686e+000 
1146250000  -8.859278e-001  -3.446552e+000 
1147187500  -8.916610e-001  -3.701701e+000 
1148125000  -8.930269e-001  -4.018479e+000 
1149062500  -8.900092e-001  -4.291040e+000 
1150000000  -8.957773e-001  -4.499387e+000 
1150937500  -8.864129e-001  -4.748641e+000 
1151875000  -8.900787e-001  -5.076626e+000 
1152812500  -8.937075e-001  -5.386307e+000 
1153750000  -8.923571e-001  -5.635648e+000 
1154687500  -8.948263e-001  -5.911694e+000 
1155625000  -8.883819e-001  -6.136072e+000 
1156562500  -8.897216e-001  -6.428623e+000 
1157500000  -8.840271e-001  -6.722777e+000 
1158437500  -8.947123e-001  -7.031776e+000 
1159375000  -8.897229e-001  -7.292773e+000 
1160312500  -8.901971e-001  -7.565906e+000 
1161250000  -8.927159e-001  -7.798009e+000 
1162187500  -8.927900e-001  -8.084664e+000 
1163125000  -8.868176e-001  -8.354432e+000 
1164062500  -8.876641e-001  -8.641160e+000 
1165000000  -8.938532e-001  -8.890145e+000 
1165937500  -8.889557e-001  -9.206419e+000 
1166875000  -8.915946e-001  -9.453767e+000 
1167812500  -8.924527e-001  -9.717039e+000 
1168750000  -8.949746e-001  -1.002448e+001 
1169687500  -8.924260e-001  -1.029667e+001 
1170625000  -8.882599e-001  -1.054875e+001 
1171562500  -8.896908e-001  -1.078518e+001 
1172500000  -8.879456e-001  -1.108679e+001 
1173437500  -8.872688e-001  -1.137992e+001 
1174375000  -8.889580e-001  -1.167266e+001 
1175312500  -8.908239e-001  -1.187930e+001 
1176250000  -8.865243e-001  -1.220101e+001 
1177187500  -8.843182e-001  -1.247277e+001 
1178125000  -8.809124e-001  -1.276800e+001 
1179062500  -8.872882e-001  -1.303020e+001 
1180000000  -8.862221e-001  -1.329569e+001 
1180937500  -8.836766e-001  -1.361038e+001 
1181875000  -8.826117e-001  -1.386309e+001 
1182812500  -8.818043e-001  -1.416384e+001 
1183750000  -8.808299e-001  -1.446559e+001 
1184687500  -8.782596e-001  -1.472414e+001 
1185625000  -8.820017e-001  -1.502434e+001 
1186562500  -8.768002e-001  -1.530523e+001 
1187500000  -8.840755e-001  -1.554592e+001 
1188437500  -8.744041e-001  -1.583856e+001 
1189375000  -8.776686e-001  -1.613720e+001 
1190312500  -8.784040e-001  -1.647835e+001 
1191250000  -8.771055e-001  -1.666680e+001 
1192187500  -8.757229e-001  -1.698857e+001 
1193125000  -8.738673e-001  -1.727032e+001 
1194062500  -8.717729e-001  -1.755219e+001 
1195000000  -8.784465e-001  -1.780726e+001 
1195937500  -8.841833e-001  -1.810517e+001 
1196875000  -8.730390e-001  -1.839387e+001 
1197812500  -8.699365e-001  -1.871461e+001 
1198750000  -8.733293e-001  -1.897012e+001 
1199687500  -8.699068e-001  -1.930972e+001 
1200625000  -8.693842e-001  -1.954820e+001 
1201562500  -8.708898e-001  -1.987046e+001 
1202500000  -8.656892e-001  -2.013702e+001 
1203437500  -8.614678e-001  -2.044706e+001 
1204375000  -8.612693e-001  -2.078519e+001 
1205312500  -8.611360e-001  -2.106679e+001 
1206250000  -8.661376e-001  -2.131313e+001 
1207187500  -8.738090e-001  -2.164498e+001 
1208125000  -8.654335e-001  -2.190648e+001 
1209062500  -8.644821e-001  -2.220762e+001 
1210000000  -8.699903e-001  -2.253379e+001 
1210937500  -8.630184e-001  -2.280760e+001 
1211875000  -8.653788e-001  -2.305624e+001 
1212812500  -8.683289e-001  -2.342239e+001 
1213750000  -8.689381e-001  -2.374417e+001 
1214687500  -8.745527e-001  -2.400289e+001 
1215625000  -8.722218e-001  -2.431029e+001 
1216562500  -8.756297e-001  -2.460877e+001 
1217500000  -8.685833e-001  -2.487512e+001 
1218437500  -8.729262e-001  -2.520121e+001 
1219375000  -8.799953e-001  -2.551590e+001 
1220312500  -8.787475e-001  -2.575849e+001 
1221250000  -8.837146e-001  -2.601204e+001 
1222187500  -8.805797e-001  -2.632040e+001 
1223125000  -8.789345e-001  -2.663057e+001 
1224062500  -8.833134e-001  -2.692272e+001 
1225000000  -8.825924e-001  -2.721934e+001 
1225937500  -8.785335e-001  -2.745596e+001 
1226875000  -8.899621e-001  -2.778341e+001 
1227812500  -8.873176e-001  -2.806865e+001 
1228750000  -8.842748e-001  -2.839243e+001 
1229687500  -8.981097e-001  -2.867547e+001 
1230625000  -8.950027e-001  -2.898100e+001 
1231562500  -9.064310e-001  -2.927643e+001 
1232500000  -9.067497e-001  -2.961432e+001 
1233437500  -9.012865e-001  -2.984286e+001 
1234375000  -9.082221e-001  -3.018409e+001 
1235312500  -9.018307e-001  -3.045671e+001 
1236250000  -9.091325e-001  -3.079821e+001 
1237187500  -9.088316e-001  -3.105558e+001 
1238125000  -9.182895e-001  -3.134963e+001 
1239062500  -9.184852e-001  -3.161103e+001 
1240000000  -9.258431e-001  -3.186782e+001 
1240937500  -9.239749e-001  -3.218502e+001 
1241875000  -9.249768e-001  -3.245784e+001 
1242812500  -9.274555e-001  -3.274390e+001 
1243750000  -9.303295e-001  -3.306722e+001 
1244687500  -9.298196e-001  -3.333672e+001 
1245625000  -9.313316e-001  -3.361372e+001 
1246562500  -9.376160e-001  -3.389901e+001 
1247500000  -9.406950e-001  -3.420093e+001 
1248437500  -9.390001e-001  -3.447113e+001 
1249375000  -9.433964e-001  -3.477635e+001 
1250312500  -9.427706e-001  -3.508540e+001 
1251250000  -9.484873e-001  -3.535628e+001 
1252187500  -9.498022e-001  -3.561061e+001 
1253125000  -9.563196e-001  -3.589893e+001 
1254062500  -9.477034e-001  -3.621443e+001 
1255000000  -9.562958e-001  -3.653446e+001 
1255937500  -9.587142e-001  -3.674262e+001 
1256875000  -9.650238e-001  -3.708417e+001 
1257812500  -9.628158e-001  -3.738881e+001 
1258750000  -9.602793e-001  -3.765444e+001 
1259687500  -9.644353e-001  -3.790636e+001 
1260625000  -9.705975e-001  -3.817137e+001 
1261562500  -9.706707e-001  -3.848226e+001 
1262500000  -9.766355e-001  -3.878175e+001 
1263437500  -9.731588e-001  -3.908981e+001 
1264375000  -9.759672e-001  -3.935216e+001 
1265312500  -9.812682e-001  -3.962885e+001 
1266250000  -9.801871e-001  -3.993061e+001 
1267187500  -9.874609e-001  -4.017120e+001 
1268125000  -9.900975e-001  -4.045896e+001 
1269062500  -9.896894e-001  -4.077224e+001 
1270000000  -9.889131e-001  -4.106345e+001 
1270937500  -9.922345e-001  -4.128300e+001 
1271875000  -9.941559e-001  -4.163516e+001 
1272812500  -9.957746e-001  -4.188915e+001 
1273750000  -9.900951e-001  -4.219437e+001 
1274687500  -9.991961e-001  -4.250247e+001 
1275625000  -1.007118e+000  -4.274601e+001 
1276562500  -1.003467e+000  -4.303793e+001 
1277500000  -1.000556e+000  -4.331920e+001 
1278437500  -1.003120e+000  -4.361994e+001 
1279375000  -1.005555e+000  -4.396168e+001 
1280312500  -1.011416e+000  -4.426453e+001 
1281250000  -1.016526e+000  -4.448975e+001 
1282187500  -1.017358e+000  -4.483357e+001 
1283125000  -1.023453e+000  -4.509830e+001 
1284062500  -1.020319e+000  -4.536221e+001 
1285000000  -1.027006e+000  -4.567093e+001 
1285937500  -1.025207e+000  -4.597139e+001 
1286875000  -1.030776e+000  -4.624584e+001 
1287812500  -1.030105e+000  -4.648730e+001 
1288750000  -1.035848e+000  -4.680901e+001 
1289687500  -1.041154e+000  -4.708316e+001 
1290625000  -1.044781e+000  -4.743047e+001 
1291562500  -1.041954e+000  -4.768568e+001 
1292500000  -1.055834e+000  -4.797480e+001 
1293437500  -1.049666e+000  -4.828791e+001 
1294375000  -1.053028e+000  -4.849359e+001 
1295312500  -1.061127e+000  -4.881002e+001 
1296250000  -1.059630e+000  -4.909469e+001 
1297187500  -1.067978e+000  -4.941438e+001 
1298125000  -1.073557e+000  -4.967384e+001 
1299062500  -1.076856e+000  -4.996959e+001 
1300000000  -1.080290e+000  -5.029135e+001 
1300937500  -1.079515e+000  -5.057930e+001 
1301875000  -1.082989e+000  -5.084184e+001 
1302812500  -1.091267e+000  -5.111786e+001 
1303750000  -1.096601e+000  -5.140652e+001 
1304687500  -1.093726e+000  -5.172285e+001 
1305625000  -1.100078e+000  -5.194679e+001 
1306562500  -1.100747e+000  -5.219758e+001 
1307500000  -1.114858e+000  -5.246890e+001 
1308437500  -1.110452e+000  -5.275364e+001 
1309375000  -1.111866e+000  -5.303769e+001 
1310312500  -1.115454e+000  -5.330403e+001 
1311250000  -1.118264e+000  -5.360447e+001 
1312187500  -1.129402e+000  -5.390939e+001 
1313125000  -1.127617e+000  -5.415143e+001 
1314062500  -1.131184e+000  -5.446230e+001 
1315000000  -1.133024e+000  -5.474194e+001 
1315937500  -1.142693e+000  -5.500484e+001 
1316875000  -1.133608e+000  -5.530357e+001 
1317812500  -1.143785e+000  -5.552866e+001 
1318750000  -1.152227e+000  -5.582101e+001 
1319687500  -1.154720e+000  -5.609099e+001 
1320625000  -1.153307e+000  -5.638412e+001 
1321562500  -1.160163e+000  -5.666422e+001 
1322500000  -1.164094e+000  -5.695098e+001 
1323437500  -1.164105e+000  -5.721618e+001 
1324375000  -1.171991e+000  -5.748938e+001 
1325312500  -1.165809e+000  -5.776399e+001 
1326250000  -1.169024e+000  -5.803606e+001 
1327187500  -1.171665e+000  -5.832407e+001 
1328125000  -1.180088e+000  -5.860756e+001 
1329062500  -1.186765e+000  -5.886834e+001 
1330000000  -1.188748e+000  -5.913647e+001 
1330937500  -1.188617e+000  -5.941218e+001 
1331875000  -1.188501e+000  -5.971283e+001 
1332812500  -1.194812e+000  -5.999111e+001 
1333750000  -1.198942e+000  -6.028719e+001 
1334687500  -1.199571e+000  -6.051806e+001 
1335625000  -1.198133e+000  -6.083786e+001 
1336562500  -1.204619e+000  -6.110069e+001 
1337500000  -1.200166e+000  -6.135680e+001 
1338437500  -1.211811e+000  -6.167291e+001 
1339375000  -1.215381e+000  -6.189631e+001 
1340312500  -1.215821e+000  -6.224451e+001 
1341250000  -1.220439e+000  -6.247147e+001 
1342187500  -1.219756e+000  -6.273164e+001 
1343125000  -1.218418e+000  -6.305543e+001 
1344062500  -1.222574e+000  -6.330651e+001 
1345000000  -1.224160e+000  -6.361090e+001 
1345937500  -1.226412e+000  -6.384832e+001 
1346875000  -1.234582e+000  -6.412105e+001 
1347812500  -1.236314e+000  -6.442008e+001 
1348750000  -1.240596e+000  -6.470640e+001 
1349687500  -1.243060e+000  -6.495361e+001 
1350625000  -1.243916e+000  -6.523226e+001 
1351562500  -1.252453e+000  -6.548241e+001 
1352500000  -1.252847e+000  -6.570711e+001 
1353437500  -1.256631e+000  -6.607993e+001 
1354375000  -1.268853e+000  -6.629760e+001 
1355312500  -1.263206e+000  -6.655189e+001 
1356250000  -1.267960e+000  -6.680090e+001 
1357187500  -1.271580e+000  -6.707555e+001 
1358125000  -1.268173e+000  -6.736618e+001 
1359062500  -1.269322e+000  -6.760278e+001 
1360000000  -1.274878e+000  -6.785900e+001 
1360937500  -1.275383e+000  -6.813818e+001 
1361875000  -1.280196e+000  -6.841465e+001 
1362812500  -1.279503e+000  -6.868111e+001 
1363750000  -1.288269e+000  -6.896403e+001 
1364687500  -1.288815e+000  -6.920757e+001 
1365625000  -1.286414e+000  -6.950254e+001 
1366562500  -1.282109e+000  -6.974136e+001 
1367500000  -1.292218e+000  -6.998406e+001 
1368437500  -1.290994e+000  -7.027213e+001 
1369375000  -1.292838e+000  -7.050248e+001 
1370312500  -1.295010e+000  -7.074569e+001 
1371250000  -1.286349e+000  -7.103600e+001 
1372187500  -1.292947e+000  -7.129833e+001 
1373125000  -1.293513e+000  -7.161987e+001 
1374062500  -1.290689e+000  -7.184521e+001 
1375000000  -1.289830e+000  -7.214120e+001 
1375937500  -1.288473e+000  -7.241326e+001 
1376875000  -1.289695e+000  -7.270586e+001 
1377812500  -1.290962e+000  -7.299397e+001 
1378750000  -1.283301e+000  -7.324049e+001 
1379687500  -1.291111e+000  -7.350362e+001 
1380625000  -1.291318e+000  -7.378813e+001 
1381562500  -1.287842e+000  -7.407025e+001 
1382500000  -1.290449e+000  -7.432974e+001 
1383437500  -1.293241e+000  -7.461736e+001 
1384375000  -1.298030e+000  -7.486648e+001 
1385312500  -1.302496e+000  -7.516088e+001 
1386250000  -1.290711e+000  -7.548537e+001 
1387187500  -1.299257e+000  -7.574674e+001 
1388125000  -1.302720e+000  -7.602097e+001 
1389062500  -1.303435e+000  -7.620486e+001 
1390000000  -1.302174e+000  -7.658112e+001 
1390937500  -1.304365e+000  -7.682520e+001 
1391875000  -1.303095e+000  -7.711234e+001 
1392812500  -1.303206e+000  -7.741374e+001 
1393750000  -1.300103e+000  -7.767091e+001 
1394687500  -1.306207e+000  -7.797608e+001 
1395625000  -1.312077e+000  -7.823418e+001 
1396562500  -1.310864e+000  -7.848257e+001 
1397500000  -1.308886e+000  -7.876884e+001 
1398437500  -1.319755e+000  -7.902613e+001 
1399375000  -1.318059e+000  -7.925708e+001 
1400312500  -1.313992e+000  -7.956609e+001 
1401250000  -1.315262e+000  -7.986621e+001 
1402187500  -1.328036e+000  -8.009806e+001 
1403125000  -1.328503e+000  -8.036031e+001 
1404062500  -1.319850e+000  -8.069007e+001 
1405000000  -1.326162e+000  -8.091100e+001 
1405937500  -1.323820e+000  -8.117296e+001 
1406875000  -1.327541e+000  -8.147098e+001 
1407812500  -1.329033e+000  -8.174394e+001 
1408750000  -1.329627e+000  -8.198790e+001 
1409687500  -1.333861e+000  -8.223830e+001 
1410625000  -1.322651e+000  -8.250081e+001 
1411562500  -1.329858e+000  -8.277366e+001 
1412500000  -1.326927e+000  -8.300813e+001 
1413437500  -1.327832e+000  -8.328954e+001 
1414375000  -1.318328e+000  -8.362396e+001 
