!Agilent Technologies,E8364A,US41440144,A.06.04.32
!Agilent E8364A: A.06.04.32
!Date: Thursday, May 24, 2018 11:15:06
!Correction: S11(Full 1 Port(1)) 
!S1P File: Measurement: S11:
# Hz S  dB   R 50
1000000000  -4.077500e+000  4.590448e+001 
1000937500  -4.057254e+000  4.540478e+001 
1001875000  -4.047203e+000  4.496748e+001 
1002812500  -4.037766e+000  4.443361e+001 
1003750000  -4.024867e+000  4.390643e+001 
1004687500  -4.015957e+000  4.339067e+001 
1005625000  -4.003515e+000  4.283141e+001 
1006562500  -3.996095e+000  4.239174e+001 
1007500000  -3.993559e+000  4.189662e+001 
1008437500  -3.973709e+000  4.141619e+001 
1009375000  -3.957366e+000  4.080930e+001 
1010312500  -3.941031e+000  4.026381e+001 
1011250000  -3.938019e+000  3.972823e+001 
1012187500  -3.919819e+000  3.911668e+001 
1013125000  -3.911985e+000  3.853358e+001 
1014062500  -3.920896e+000  3.793703e+001 
1015000000  -3.925152e+000  3.730212e+001 
1015937500  -3.926093e+000  3.680143e+001 
1016875000  -3.930017e+000  3.627673e+001 
1017812500  -3.935908e+000  3.573618e+001 
1018750000  -3.944977e+000  3.523909e+001 
1019687500  -3.947026e+000  3.467931e+001 
1020625000  -3.958456e+000  3.421820e+001 
1021562500  -3.952942e+000  3.369225e+001 
1022500000  -3.963520e+000  3.314081e+001 
1023437500  -3.970572e+000  3.259246e+001 
1024375000  -3.975420e+000  3.202198e+001 
1025312500  -3.993011e+000  3.153878e+001 
1026250000  -4.014873e+000  3.099330e+001 
1027187500  -4.042628e+000  3.046150e+001 
1028125000  -4.067837e+000  3.004814e+001 
1029062500  -4.099092e+000  2.966719e+001 
1030000000  -4.121775e+000  2.929260e+001 
1030937500  -4.145093e+000  2.899059e+001 
1031875000  -4.171765e+000  2.874498e+001 
1032812500  -4.173823e+000  2.852242e+001 
1033750000  -4.175384e+000  2.829673e+001 
1034687500  -4.168344e+000  2.800650e+001 
1035625000  -4.154315e+000  2.779547e+001 
1036562500  -4.135815e+000  2.749664e+001 
1037500000  -4.115837e+000  2.714079e+001 
1038437500  -4.101603e+000  2.680065e+001 
1039375000  -4.091661e+000  2.639670e+001 
1040312500  -4.075744e+000  2.605045e+001 
1041250000  -4.058472e+000  2.559631e+001 
1042187500  -4.053813e+000  2.515409e+001 
1043125000  -4.035322e+000  2.473467e+001 
1044062500  -4.041286e+000  2.432785e+001 
1045000000  -4.030409e+000  2.393003e+001 
1045937500  -4.012644e+000  2.350776e+001 
1046875000  -4.006684e+000  2.311465e+001 
1047812500  -3.999074e+000  2.279129e+001 
1048750000  -3.983026e+000  2.234856e+001 
1049687500  -3.970397e+000  2.196230e+001 
1050625000  -3.952092e+000  2.147122e+001 
1051562500  -3.954091e+000  2.103354e+001 
1052500000  -3.939737e+000  2.065038e+001 
1053437500  -3.937977e+000  2.028789e+001 
1054375000  -3.914708e+000  1.985428e+001 
1055312500  -3.905120e+000  1.943099e+001 
1056250000  -3.889264e+000  1.897857e+001 
1057187500  -3.874386e+000  1.848006e+001 
1058125000  -3.883384e+000  1.796869e+001 
1059062500  -3.878478e+000  1.750597e+001 
1060000000  -3.879295e+000  1.714005e+001 
1060937500  -3.883645e+000  1.672491e+001 
1061875000  -3.867174e+000  1.638252e+001 
1062812500  -3.865849e+000  1.597406e+001 
1063750000  -3.853913e+000  1.559723e+001 
1064687500  -3.840343e+000  1.514524e+001 
1065625000  -3.823401e+000  1.466682e+001 
1066562500  -3.821333e+000  1.429646e+001 
1067500000  -3.819257e+000  1.381881e+001 
1068437500  -3.805166e+000  1.334749e+001 
1069375000  -3.809439e+000  1.293063e+001 
1070312500  -3.805968e+000  1.251929e+001 
1071250000  -3.799367e+000  1.206064e+001 
1072187500  -3.804003e+000  1.162215e+001 
1073125000  -3.789627e+000  1.117497e+001 
1074062500  -3.803219e+000  1.070841e+001 
1075000000  -3.806777e+000  1.031139e+001 
1075937500  -3.814656e+000  9.874422e+000 
1076875000  -3.817750e+000  9.524645e+000 
1077812500  -3.811259e+000  9.132391e+000 
1078750000  -3.815488e+000  8.831864e+000 
1079687500  -3.819340e+000  8.468136e+000 
1080625000  -3.822945e+000  8.069931e+000 
1081562500  -3.814556e+000  7.764662e+000 
1082500000  -3.808990e+000  7.432014e+000 
1083437500  -3.799931e+000  7.138271e+000 
1084375000  -3.787069e+000  6.812632e+000 
1085312500  -3.771751e+000  6.433821e+000 
1086250000  -3.764888e+000  6.067206e+000 
1087187500  -3.735989e+000  5.676522e+000 
1088125000  -3.718382e+000  5.304002e+000 
1089062500  -3.696871e+000  4.891083e+000 
1090000000  -3.690114e+000  4.430991e+000 
1090937500  -3.677347e+000  4.011965e+000 
1091875000  -3.658125e+000  3.508771e+000 
1092812500  -3.650935e+000  3.024627e+000 
1093750000  -3.640603e+000  2.534309e+000 
1094687500  -3.627776e+000  1.999778e+000 
1095625000  -3.624448e+000  1.501078e+000 
1096562500  -3.625402e+000  1.021194e+000 
1097500000  -3.637770e+000  4.774667e-001 
1098437500  -3.655860e+000  4.021898e-002 
1099375000  -3.656581e+000  -4.015221e-001 
1100312500  -3.674876e+000  -8.098410e-001 
1101250000  -3.684503e+000  -1.180356e+000 
1102187500  -3.695386e+000  -1.538101e+000 
1103125000  -3.692281e+000  -1.925810e+000 
1104062500  -3.708543e+000  -2.327222e+000 
1105000000  -3.702462e+000  -2.716508e+000 
1105937500  -3.704886e+000  -3.092186e+000 
1106875000  -3.715737e+000  -3.429489e+000 
1107812500  -3.720153e+000  -3.812654e+000 
1108750000  -3.730381e+000  -4.239703e+000 
1109687500  -3.735016e+000  -4.545041e+000 
1110625000  -3.736840e+000  -4.857553e+000 
1111562500  -3.736877e+000  -5.182160e+000 
1112500000  -3.735583e+000  -5.489773e+000 
1113437500  -3.725100e+000  -5.919846e+000 
1114375000  -3.732529e+000  -6.288398e+000 
1115312500  -3.732814e+000  -6.724886e+000 
1116250000  -3.729921e+000  -7.055049e+000 
1117187500  -3.749043e+000  -7.433057e+000 
1118125000  -3.751601e+000  -7.772253e+000 
1119062500  -3.762613e+000  -8.169954e+000 
1120000000  -3.779176e+000  -8.500120e+000 
1120937500  -3.785507e+000  -8.782167e+000 
1121875000  -3.794686e+000  -9.038517e+000 
1122812500  -3.793692e+000  -9.283870e+000 
1123750000  -3.795999e+000  -9.547760e+000 
1124687500  -3.790039e+000  -9.843410e+000 
1125625000  -3.778052e+000  -1.012882e+001 
1126562500  -3.774669e+000  -1.042567e+001 
1127500000  -3.766355e+000  -1.071786e+001 
1128437500  -3.745655e+000  -1.103329e+001 
1129375000  -3.748451e+000  -1.136228e+001 
1130312500  -3.745644e+000  -1.165924e+001 
1131250000  -3.735893e+000  -1.202973e+001 
1132187500  -3.732800e+000  -1.233506e+001 
1133125000  -3.720876e+000  -1.263674e+001 
1134062500  -3.710658e+000  -1.289629e+001 
1135000000  -3.688427e+000  -1.320477e+001 
1135937500  -3.675519e+000  -1.351884e+001 
1136875000  -3.653129e+000  -1.396211e+001 
1137812500  -3.636482e+000  -1.435955e+001 
1138750000  -3.634423e+000  -1.472263e+001 
1139687500  -3.623229e+000  -1.510763e+001 
1140625000  -3.609788e+000  -1.551641e+001 
1141562500  -3.602020e+000  -1.591284e+001 
1142500000  -3.600289e+000  -1.633930e+001 
1143437500  -3.602691e+000  -1.676424e+001 
1144375000  -3.595239e+000  -1.710791e+001 
1145312500  -3.586140e+000  -1.749512e+001 
1146250000  -3.586075e+000  -1.787639e+001 
1147187500  -3.580408e+000  -1.828453e+001 
1148125000  -3.569746e+000  -1.874340e+001 
1149062500  -3.563025e+000  -1.910794e+001 
1150000000  -3.569000e+000  -1.948375e+001 
1150937500  -3.560824e+000  -1.993518e+001 
1151875000  -3.557911e+000  -2.034315e+001 
1152812500  -3.563066e+000  -2.076263e+001 
1153750000  -3.566801e+000  -2.121411e+001 
1154687500  -3.567052e+000  -2.160798e+001 
1155625000  -3.580150e+000  -2.195079e+001 
1156562500  -3.582195e+000  -2.234786e+001 
1157500000  -3.581068e+000  -2.276805e+001 
1158437500  -3.593754e+000  -2.313892e+001 
1159375000  -3.602063e+000  -2.345377e+001 
1160312500  -3.604889e+000  -2.386054e+001 
1161250000  -3.606527e+000  -2.421287e+001 
1162187500  -3.616467e+000  -2.445417e+001 
1163125000  -3.617436e+000  -2.486175e+001 
1164062500  -3.620067e+000  -2.520266e+001 
1165000000  -3.616791e+000  -2.549510e+001 
1165937500  -3.617769e+000  -2.590116e+001 
1166875000  -3.617538e+000  -2.626989e+001 
1167812500  -3.621427e+000  -2.661503e+001 
1168750000  -3.622147e+000  -2.701072e+001 
1169687500  -3.626461e+000  -2.738044e+001 
1170625000  -3.627704e+000  -2.780128e+001 
1171562500  -3.633571e+000  -2.816277e+001 
1172500000  -3.644059e+000  -2.853504e+001 
1173437500  -3.661618e+000  -2.884916e+001 
1174375000  -3.667472e+000  -2.923013e+001 
1175312500  -3.678639e+000  -2.947332e+001 
1176250000  -3.689687e+000  -2.978216e+001 
1177187500  -3.694266e+000  -3.001459e+001 
1178125000  -3.695107e+000  -3.030473e+001 
1179062500  -3.697183e+000  -3.061362e+001 
1180000000  -3.697300e+000  -3.085066e+001 
1180937500  -3.683471e+000  -3.115412e+001 
1181875000  -3.685550e+000  -3.145983e+001 
1182812500  -3.668548e+000  -3.175652e+001 
1183750000  -3.659507e+000  -3.212747e+001 
1184687500  -3.658309e+000  -3.249383e+001 
1185625000  -3.653305e+000  -3.291146e+001 
1186562500  -3.655136e+000  -3.336258e+001 
1187500000  -3.658082e+000  -3.364525e+001 
1188437500  -3.664017e+000  -3.410143e+001 
1189375000  -3.673273e+000  -3.451908e+001 
1190312500  -3.686309e+000  -3.484214e+001 
1191250000  -3.690055e+000  -3.513524e+001 
1192187500  -3.702092e+000  -3.546505e+001 
1193125000  -3.711446e+000  -3.571371e+001 
1194062500  -3.712358e+000  -3.599972e+001 
1195000000  -3.708609e+000  -3.621111e+001 
1195937500  -3.715723e+000  -3.646935e+001 
1196875000  -3.697466e+000  -3.681476e+001 
1197812500  -3.683448e+000  -3.712903e+001 
1198750000  -3.679197e+000  -3.748783e+001 
1199687500  -3.660956e+000  -3.788606e+001 
1200625000  -3.658967e+000  -3.823649e+001 
1201562500  -3.652713e+000  -3.866550e+001 
1202500000  -3.652234e+000  -3.914246e+001 
1203437500  -3.647154e+000  -3.955256e+001 
1204375000  -3.656121e+000  -3.994954e+001 
1205312500  -3.667757e+000  -4.031774e+001 
1206250000  -3.688035e+000  -4.068059e+001 
1207187500  -3.692636e+000  -4.110804e+001 
1208125000  -3.695462e+000  -4.145582e+001 
1209062500  -3.704013e+000  -4.181624e+001 
1210000000  -3.715241e+000  -4.217735e+001 
1210937500  -3.717735e+000  -4.257180e+001 
1211875000  -3.730379e+000  -4.286306e+001 
1212812500  -3.742439e+000  -4.327401e+001 
1213750000  -3.750571e+000  -4.356059e+001 
1214687500  -3.765212e+000  -4.394733e+001 
1215625000  -3.773998e+000  -4.426024e+001 
1216562500  -3.797780e+000  -4.454697e+001 
1217500000  -3.800859e+000  -4.484832e+001 
1218437500  -3.807903e+000  -4.517037e+001 
1219375000  -3.813459e+000  -4.544589e+001 
1220312500  -3.815324e+000  -4.578696e+001 
1221250000  -3.814192e+000  -4.612564e+001 
1222187500  -3.817333e+000  -4.646554e+001 
1223125000  -3.830440e+000  -4.683620e+001 
1224062500  -3.848208e+000  -4.716877e+001 
1225000000  -3.860652e+000  -4.749704e+001 
1225937500  -3.873876e+000  -4.777481e+001 
1226875000  -3.884215e+000  -4.807628e+001 
1227812500  -3.890507e+000  -4.835051e+001 
1228750000  -3.907592e+000  -4.862576e+001 
1229687500  -3.914618e+000  -4.889820e+001 
1230625000  -3.914648e+000  -4.918199e+001 
1231562500  -3.924552e+000  -4.941283e+001 
1232500000  -3.922859e+000  -4.970427e+001 
1233437500  -3.930092e+000  -4.998816e+001 
1234375000  -3.930884e+000  -5.026646e+001 
1235312500  -3.922224e+000  -5.055553e+001 
1236250000  -3.927206e+000  -5.091434e+001 
1237187500  -3.926205e+000  -5.122745e+001 
1238125000  -3.930807e+000  -5.154314e+001 
1239062500  -3.923210e+000  -5.188423e+001 
1240000000  -3.924366e+000  -5.222935e+001 
1240937500  -3.939082e+000  -5.265568e+001 
1241875000  -3.950233e+000  -5.298116e+001 
1242812500  -3.962907e+000  -5.332829e+001 
1243750000  -3.977311e+000  -5.366356e+001 
1244687500  -3.998575e+000  -5.397289e+001 
1245625000  -4.007010e+000  -5.422237e+001 
1246562500  -4.017560e+000  -5.447247e+001 
1247500000  -4.024107e+000  -5.473256e+001 
1248437500  -4.032473e+000  -5.501210e+001 
1249375000  -4.034247e+000  -5.525166e+001 
1250312500  -4.038875e+000  -5.551773e+001 
1251250000  -4.042351e+000  -5.572051e+001 
1252187500  -4.034370e+000  -5.599095e+001 
1253125000  -4.033768e+000  -5.623935e+001 
1254062500  -4.021172e+000  -5.652690e+001 
1255000000  -4.014268e+000  -5.678939e+001 
1255937500  -4.014138e+000  -5.712220e+001 
1256875000  -4.006580e+000  -5.750469e+001 
1257812500  -4.002735e+000  -5.784375e+001 
1258750000  -3.994959e+000  -5.818359e+001 
1259687500  -3.998963e+000  -5.848730e+001 
1260625000  -4.001891e+000  -5.883600e+001 
1261562500  -4.009511e+000  -5.914671e+001 
1262500000  -4.002729e+000  -5.949326e+001 
1263437500  -3.998068e+000  -5.975376e+001 
1264375000  -3.993464e+000  -6.012588e+001 
1265312500  -3.989775e+000  -6.046752e+001 
1266250000  -3.989765e+000  -6.084083e+001 
1267187500  -3.990520e+000  -6.122977e+001 
1268125000  -3.989676e+000  -6.156606e+001 
1269062500  -3.982455e+000  -6.197203e+001 
1270000000  -3.989904e+000  -6.234589e+001 
1270937500  -3.992011e+000  -6.270089e+001 
1271875000  -3.988990e+000  -6.313390e+001 
1272812500  -3.997404e+000  -6.351338e+001 
1273750000  -3.997855e+000  -6.392354e+001 
1274687500  -4.006117e+000  -6.433977e+001 
1275625000  -4.016125e+000  -6.468816e+001 
1276562500  -4.021125e+000  -6.511617e+001 
1277500000  -4.031059e+000  -6.550074e+001 
1278437500  -4.040662e+000  -6.591425e+001 
1279375000  -4.054073e+000  -6.634556e+001 
1280312500  -4.074078e+000  -6.676178e+001 
1281250000  -4.097367e+000  -6.711324e+001 
1282187500  -4.104661e+000  -6.749928e+001 
1283125000  -4.119551e+000  -6.788274e+001 
1284062500  -4.123732e+000  -6.824191e+001 
1285000000  -4.147248e+000  -6.860910e+001 
1285937500  -4.159673e+000  -6.897626e+001 
1286875000  -4.179615e+000  -6.939882e+001 
1287812500  -4.205029e+000  -6.974458e+001 
1288750000  -4.230187e+000  -7.010175e+001 
1289687500  -4.264959e+000  -7.043034e+001 
1290625000  -4.292590e+000  -7.080762e+001 
1291562500  -4.313564e+000  -7.099462e+001 
1292500000  -4.336451e+000  -7.128609e+001 
1293437500  -4.350097e+000  -7.152412e+001 
1294375000  -4.364224e+000  -7.174714e+001 
1295312500  -4.377792e+000  -7.202817e+001 
1296250000  -4.395826e+000  -7.224656e+001 
1297187500  -4.405357e+000  -7.257740e+001 
1298125000  -4.409082e+000  -7.285082e+001 
1299062500  -4.422445e+000  -7.313408e+001 
1300000000  -4.434124e+000  -7.344489e+001 
1300937500  -4.428678e+000  -7.370142e+001 
1301875000  -4.436407e+000  -7.402871e+001 
1302812500  -4.453880e+000  -7.436890e+001 
1303750000  -4.465591e+000  -7.469136e+001 
1304687500  -4.477409e+000  -7.501351e+001 
1305625000  -4.494253e+000  -7.527973e+001 
1306562500  -4.506665e+000  -7.553280e+001 
1307500000  -4.525013e+000  -7.577607e+001 
1308437500  -4.535128e+000  -7.601528e+001 
1309375000  -4.535160e+000  -7.626601e+001 
1310312500  -4.536080e+000  -7.652482e+001 
1311250000  -4.535699e+000  -7.683418e+001 
1312187500  -4.537422e+000  -7.714226e+001 
1313125000  -4.543546e+000  -7.746254e+001 
1314062500  -4.545434e+000  -7.783104e+001 
1315000000  -4.539883e+000  -7.807948e+001 
1315937500  -4.547311e+000  -7.841689e+001 
1316875000  -4.552026e+000  -7.883553e+001 
1317812500  -4.546993e+000  -7.920475e+001 
1318750000  -4.557712e+000  -7.954091e+001 
1319687500  -4.567371e+000  -7.995294e+001 
1320625000  -4.562788e+000  -8.032919e+001 
1321562500  -4.585618e+000  -8.082472e+001 
1322500000  -4.596129e+000  -8.120448e+001 
1323437500  -4.612406e+000  -8.161280e+001 
1324375000  -4.640089e+000  -8.204259e+001 
1325312500  -4.665440e+000  -8.243725e+001 
1326250000  -4.695253e+000  -8.275063e+001 
1327187500  -4.717411e+000  -8.304748e+001 
1328125000  -4.737232e+000  -8.333231e+001 
1329062500  -4.757747e+000  -8.357071e+001 
1330000000  -4.761553e+000  -8.389851e+001 
1330937500  -4.779475e+000  -8.417578e+001 
1331875000  -4.786218e+000  -8.451339e+001 
1332812500  -4.805612e+000  -8.485445e+001 
1333750000  -4.823083e+000  -8.524674e+001 
1334687500  -4.833328e+000  -8.556473e+001 
1335625000  -4.863722e+000  -8.587931e+001 
1336562500  -4.883625e+000  -8.621717e+001 
1337500000  -4.903624e+000  -8.639828e+001 
1338437500  -4.924528e+000  -8.673183e+001 
1339375000  -4.929130e+000  -8.698219e+001 
1340312500  -4.939650e+000  -8.723584e+001 
1341250000  -4.948890e+000  -8.748974e+001 
1342187500  -4.948418e+000  -8.779598e+001 
1343125000  -4.950094e+000  -8.810306e+001 
1344062500  -4.953212e+000  -8.843139e+001 
1345000000  -4.964710e+000  -8.884122e+001 
1345937500  -4.969950e+000  -8.923495e+001 
1346875000  -4.985183e+000  -8.956523e+001 
1347812500  -4.999749e+000  -8.994878e+001 
1348750000  -5.028317e+000  -9.030639e+001 
1349687500  -5.050992e+000  -9.069699e+001 
1350625000  -5.062422e+000  -9.100680e+001 
1351562500  -5.084876e+000  -9.130822e+001 
1352500000  -5.107889e+000  -9.161233e+001 
1353437500  -5.130240e+000  -9.190141e+001 
1354375000  -5.144989e+000  -9.219003e+001 
1355312500  -5.152273e+000  -9.249030e+001 
1356250000  -5.170048e+000  -9.275909e+001 
1357187500  -5.179207e+000  -9.311578e+001 
1358125000  -5.190216e+000  -9.340132e+001 
1359062500  -5.194518e+000  -9.378542e+001 
1360000000  -5.213984e+000  -9.409596e+001 
1360937500  -5.234790e+000  -9.441547e+001 
1361875000  -5.251294e+000  -9.476485e+001 
1362812500  -5.272566e+000  -9.502052e+001 
1363750000  -5.288292e+000  -9.528318e+001 
1364687500  -5.298292e+000  -9.556900e+001 
1365625000  -5.304651e+000  -9.592190e+001 
1366562500  -5.310528e+000  -9.612759e+001 
1367500000  -5.317170e+000  -9.654543e+001 
1368437500  -5.325698e+000  -9.684820e+001 
1369375000  -5.326180e+000  -9.722725e+001 
1370312500  -5.344626e+000  -9.758966e+001 
1371250000  -5.351680e+000  -9.792513e+001 
1372187500  -5.356153e+000  -9.831416e+001 
1373125000  -5.369652e+000  -9.874391e+001 
1374062500  -5.370718e+000  -9.913033e+001 
1375000000  -5.386940e+000  -9.957391e+001 
1375937500  -5.408619e+000  -1.000360e+002 
1376875000  -5.434879e+000  -1.005179e+002 
1377812500  -5.466113e+000  -1.008642e+002 
1378750000  -5.493688e+000  -1.012605e+002 
1379687500  -5.530562e+000  -1.016455e+002 
1380625000  -5.556343e+000  -1.019703e+002 
1381562500  -5.592378e+000  -1.022301e+002 
1382500000  -5.623110e+000  -1.024859e+002 
1383437500  -5.640158e+000  -1.027633e+002 
1384375000  -5.660351e+000  -1.029271e+002 
1385312500  -5.670332e+000  -1.032068e+002 
1386250000  -5.674058e+000  -1.035316e+002 
1387187500  -5.683662e+000  -1.038311e+002 
1388125000  -5.693985e+000  -1.041880e+002 
1389062500  -5.701660e+000  -1.045167e+002 
1390000000  -5.711561e+000  -1.049280e+002 
1390937500  -5.723115e+000  -1.053499e+002 
1391875000  -5.738170e+000  -1.057075e+002 
1392812500  -5.761490e+000  -1.061307e+002 
1393750000  -5.781059e+000  -1.064965e+002 
1394687500  -5.805461e+000  -1.069190e+002 
1395625000  -5.829107e+000  -1.072950e+002 
1396562500  -5.850654e+000  -1.076490e+002 
1397500000  -5.875095e+000  -1.080139e+002 
1398437500  -5.897623e+000  -1.083381e+002 
1399375000  -5.915496e+000  -1.086561e+002 
1400312500  -5.937076e+000  -1.090320e+002 
1401250000  -5.958196e+000  -1.093435e+002 
1402187500  -5.978070e+000  -1.096175e+002 
1403125000  -5.995943e+000  -1.099515e+002 
1404062500  -5.995620e+000  -1.103637e+002 
1405000000  -6.011082e+000  -1.107739e+002 
1405937500  -6.037174e+000  -1.112082e+002 
1406875000  -6.060423e+000  -1.116487e+002 
1407812500  -6.093369e+000  -1.119878e+002 
1408750000  -6.125144e+000  -1.123890e+002 
1409687500  -6.143641e+000  -1.127081e+002 
1410625000  -6.165701e+000  -1.130967e+002 
1411562500  -6.192852e+000  -1.134535e+002 
1412500000  -6.209838e+000  -1.138595e+002 
1413437500  -6.249007e+000  -1.142542e+002 
