!Agilent Technologies,E8364A,US41440144,A.06.04.32
!Agilent E8364A: A.06.04.32
!Date: Monday, February 18, 2019 17:00:44
!Correction: S11(Off) S21(Off) S12(Off) S22(Off) 
!S2P File: Measurements: S11, S21, S12, S22:
# Hz S  dB   R 50
1500000000 -2.600006e+001 1.048864e-001 2.061705e+001 -9.544360e+001 -2.801290e+001 1.413872e+002 -1.851693e+001 -5.588551e+001
1501250000 -2.587926e+001 2.016249e+000 2.061283e+001 -9.814439e+001 -2.798526e+001 1.395446e+002 -1.860510e+001 -5.876778e+001
1502500000 -2.605070e+001 -2.097301e+000 2.061018e+001 -1.004566e+002 -2.807909e+001 1.370815e+002 -1.856772e+001 -6.185020e+001
1503750000 -2.617377e+001 -6.115557e+000 2.060910e+001 -1.028838e+002 -2.801692e+001 1.349360e+002 -1.852069e+001 -6.505143e+001
1505000000 -2.632732e+001 -9.756866e+000 2.058667e+001 -1.053210e+002 -2.798942e+001 1.326196e+002 -1.851950e+001 -6.812132e+001
1506250000 -2.658701e+001 -1.384604e+001 2.058831e+001 -1.075874e+002 -2.803296e+001 1.298474e+002 -1.851240e+001 -7.130482e+001
1507500000 -2.677074e+001 -1.731343e+001 2.059994e+001 -1.099345e+002 -2.805674e+001 1.283180e+002 -1.852799e+001 -7.437748e+001
1508750000 -2.700510e+001 -2.144046e+001 2.059004e+001 -1.123193e+002 -2.799793e+001 1.253721e+002 -1.854148e+001 -7.750276e+001
1510000000 -2.717123e+001 -2.508766e+001 2.057632e+001 -1.146535e+002 -2.802087e+001 1.230521e+002 -1.856608e+001 -8.071734e+001
1511250000 -2.740918e+001 -2.887824e+001 2.058795e+001 -1.169638e+002 -2.800107e+001 1.210770e+002 -1.858833e+001 -8.350846e+001
1512500000 -2.771985e+001 -3.265556e+001 2.058834e+001 -1.193765e+002 -2.808656e+001 1.188462e+002 -1.862492e+001 -8.671571e+001
1513750000 -2.799544e+001 -3.608327e+001 2.057988e+001 -1.216950e+002 -2.810463e+001 1.159764e+002 -1.869302e+001 -8.965589e+001
1515000000 -2.812207e+001 -3.969872e+001 2.058739e+001 -1.240820e+002 -2.806313e+001 1.143320e+002 -1.875343e+001 -9.274640e+001
1516250000 -2.847164e+001 -4.318221e+001 2.057386e+001 -1.264154e+002 -2.806665e+001 1.118311e+002 -1.875667e+001 -9.587807e+001
1517500000 -2.867900e+001 -4.708596e+001 2.057886e+001 -1.287960e+002 -2.800553e+001 1.095771e+002 -1.884869e+001 -9.863802e+001
1518750000 -2.900525e+001 -5.011269e+001 2.057190e+001 -1.311278e+002 -2.803306e+001 1.071793e+002 -1.891185e+001 -1.018344e+002
1520000000 -2.923777e+001 -5.347214e+001 2.056759e+001 -1.335159e+002 -2.802030e+001 1.048903e+002 -1.894506e+001 -1.047155e+002
1521250000 -2.962758e+001 -5.668624e+001 2.056119e+001 -1.357729e+002 -2.811140e+001 1.022255e+002 -1.904429e+001 -1.075987e+002
1522500000 -2.989839e+001 -6.002950e+001 2.057187e+001 -1.381790e+002 -2.801233e+001 1.002074e+002 -1.909923e+001 -1.102751e+002
1523750000 -3.017885e+001 -6.288202e+001 2.057166e+001 -1.406187e+002 -2.800537e+001 9.791971e+001 -1.915973e+001 -1.131636e+002
1525000000 -3.046889e+001 -6.527650e+001 2.055572e+001 -1.429431e+002 -2.804135e+001 9.549603e+001 -1.926068e+001 -1.156878e+002
1526250000 -3.066291e+001 -6.799487e+001 2.057768e+001 -1.453000e+002 -2.807858e+001 9.330025e+001 -1.930670e+001 -1.183510e+002
1527500000 -3.083242e+001 -7.060480e+001 2.056887e+001 -1.475757e+002 -2.804632e+001 9.098608e+001 -1.939417e+001 -1.208579e+002
1528750000 -3.112859e+001 -7.369357e+001 2.057449e+001 -1.499849e+002 -2.808933e+001 8.864409e+001 -1.946463e+001 -1.235085e+002
1530000000 -3.141895e+001 -7.523544e+001 2.057381e+001 -1.523953e+002 -2.807024e+001 8.600455e+001 -1.956030e+001 -1.259013e+002
1531250000 -3.165869e+001 -7.795765e+001 2.056268e+001 -1.548129e+002 -2.797763e+001 8.389700e+001 -1.961083e+001 -1.285826e+002
1532500000 -3.179254e+001 -7.967660e+001 2.057517e+001 -1.570634e+002 -2.806469e+001 8.197578e+001 -1.971611e+001 -1.307139e+002
1533750000 -3.197195e+001 -8.149947e+001 2.058278e+001 -1.594317e+002 -2.813964e+001 7.913004e+001 -1.979151e+001 -1.332911e+002
1535000000 -3.209286e+001 -8.267582e+001 2.057009e+001 -1.618080e+002 -2.803068e+001 7.707864e+001 -1.981293e+001 -1.354592e+002
1536250000 -3.219135e+001 -8.492822e+001 2.058122e+001 -1.641845e+002 -2.804404e+001 7.451504e+001 -1.986288e+001 -1.377385e+002
1537500000 -3.231594e+001 -8.623801e+001 2.056765e+001 -1.664949e+002 -2.807480e+001 7.269035e+001 -1.993515e+001 -1.397198e+002
1538750000 -3.223577e+001 -8.764107e+001 2.056839e+001 -1.688940e+002 -2.805271e+001 7.028251e+001 -1.999603e+001 -1.421070e+002
1540000000 -3.216936e+001 -8.870860e+001 2.056883e+001 -1.712493e+002 -2.808697e+001 6.827969e+001 -2.001398e+001 -1.439410e+002
1541250000 -3.213553e+001 -9.133545e+001 2.057170e+001 -1.735653e+002 -2.798748e+001 6.517171e+001 -2.003266e+001 -1.461481e+002
1542500000 -3.211402e+001 -9.270864e+001 2.057153e+001 -1.759361e+002 -2.812008e+001 6.319924e+001 -2.011779e+001 -1.478639e+002
1543750000 -3.192978e+001 -9.498389e+001 2.056916e+001 -1.783762e+002 -2.801218e+001 6.090593e+001 -2.001365e+001 -1.497472e+002
1545000000 -3.177310e+001 -9.653399e+001 2.055426e+001 1.792578e+002 -2.804546e+001 5.839743e+001 -2.008684e+001 -1.516098e+002
1546250000 -3.152584e+001 -9.829446e+001 2.055612e+001 1.768655e+002 -2.802949e+001 5.593551e+001 -2.010385e+001 -1.535603e+002
1547500000 -3.134164e+001 -1.011303e+002 2.055713e+001 1.746529e+002 -2.808479e+001 5.396641e+001 -2.001611e+001 -1.553721e+002
1548750000 -3.105252e+001 -1.026283e+002 2.057011e+001 1.721952e+002 -2.803444e+001 5.163635e+001 -1.999680e+001 -1.569141e+002
1550000000 -3.075131e+001 -1.053784e+002 2.054928e+001 1.698355e+002 -2.807872e+001 4.919904e+001 -1.997229e+001 -1.589814e+002
1551250000 -3.041531e+001 -1.080215e+002 2.054963e+001 1.675797e+002 -2.808869e+001 4.711194e+001 -1.988619e+001 -1.605934e+002
1552500000 -3.016566e+001 -1.103062e+002 2.055273e+001 1.651995e+002 -2.811549e+001 4.476308e+001 -1.981239e+001 -1.625696e+002
1553750000 -2.977696e+001 -1.133176e+002 2.054262e+001 1.627599e+002 -2.812414e+001 4.211567e+001 -1.977458e+001 -1.644136e+002
1555000000 -2.947969e+001 -1.165152e+002 2.053684e+001 1.603999e+002 -2.808495e+001 4.006012e+001 -1.965207e+001 -1.663207e+002
1556250000 -2.915336e+001 -1.196871e+002 2.053891e+001 1.580298e+002 -2.808710e+001 3.753882e+001 -1.956807e+001 -1.676639e+002
1557500000 -2.896154e+001 -1.233356e+002 2.053583e+001 1.557242e+002 -2.813607e+001 3.547371e+001 -1.947349e+001 -1.699295e+002
1558750000 -2.853552e+001 -1.258393e+002 2.052336e+001 1.534213e+002 -2.810384e+001 3.300399e+001 -1.937665e+001 -1.721461e+002
1560000000 -2.827701e+001 -1.294268e+002 2.050765e+001 1.510675e+002 -2.806537e+001 3.073492e+001 -1.921823e+001 -1.738616e+002
1561250000 -2.792351e+001 -1.329281e+002 2.051317e+001 1.487226e+002 -2.805808e+001 2.870986e+001 -1.907622e+001 -1.759487e+002
1562500000 -2.759514e+001 -1.364642e+002 2.050278e+001 1.462531e+002 -2.812608e+001 2.623695e+001 -1.896208e+001 -1.781780e+002
1563750000 -2.736295e+001 -1.401774e+002 2.050352e+001 1.439672e+002 -2.806998e+001 2.397190e+001 -1.884931e+001 1.798363e+002
1565000000 -2.703764e+001 -1.434778e+002 2.049274e+001 1.416017e+002 -2.804790e+001 2.133904e+001 -1.869377e+001 1.773868e+002
1566250000 -2.668389e+001 -1.470800e+002 2.048551e+001 1.392867e+002 -2.809643e+001 1.912113e+001 -1.855795e+001 1.755001e+002
1567500000 -2.639996e+001 -1.512617e+002 2.047463e+001 1.368970e+002 -2.807706e+001 1.707277e+001 -1.841716e+001 1.730397e+002
1568750000 -2.618558e+001 -1.545327e+002 2.047172e+001 1.345066e+002 -2.811763e+001 1.454405e+001 -1.829118e+001 1.708763e+002
1570000000 -2.588802e+001 -1.589451e+002 2.046665e+001 1.322146e+002 -2.810465e+001 1.234129e+001 -1.815344e+001 1.683462e+002
1571250000 -2.565712e+001 -1.624737e+002 2.045672e+001 1.299436e+002 -2.817601e+001 9.477692e+000 -1.803119e+001 1.664016e+002
1572500000 -2.538562e+001 -1.662593e+002 2.045783e+001 1.275070e+002 -2.807041e+001 7.483934e+000 -1.789646e+001 1.636850e+002
1573750000 -2.517160e+001 -1.697781e+002 2.043845e+001 1.251761e+002 -2.808359e+001 4.915960e+000 -1.774327e+001 1.612218e+002
1575000000 -2.497721e+001 -1.733423e+002 2.042808e+001 1.228619e+002 -2.807650e+001 3.239760e+000 -1.763229e+001 1.589817e+002
1576250000 -2.473510e+001 -1.772281e+002 2.043737e+001 1.206677e+002 -2.813470e+001 5.598567e-001 -1.748990e+001 1.564167e+002
1577500000 -2.446903e+001 1.788778e+002 2.042701e+001 1.181716e+002 -2.813381e+001 -1.604569e+000 -1.736587e+001 1.538547e+002
1578750000 -2.436067e+001 1.750706e+002 2.042580e+001 1.158655e+002 -2.814728e+001 -3.626167e+000 -1.727154e+001 1.513232e+002
1580000000 -2.418713e+001 1.713830e+002 2.041414e+001 1.136008e+002 -2.817789e+001 -6.065395e+000 -1.715113e+001 1.488568e+002
1581250000 -2.399795e+001 1.677326e+002 2.039897e+001 1.112500e+002 -2.810089e+001 -8.671022e+000 -1.702604e+001 1.462091e+002
1582500000 -2.382988e+001 1.640183e+002 2.041599e+001 1.090250e+002 -2.813638e+001 -1.113422e+001 -1.695401e+001 1.435358e+002
1583750000 -2.370069e+001 1.603362e+002 2.040062e+001 1.065832e+002 -2.819232e+001 -1.312069e+001 -1.681411e+001 1.410663e+002
1585000000 -2.356999e+001 1.567798e+002 2.039765e+001 1.042782e+002 -2.812243e+001 -1.578386e+001 -1.674685e+001 1.386255e+002
1586250000 -2.342039e+001 1.529686e+002 2.038829e+001 1.020112e+002 -2.816809e+001 -1.807640e+001 -1.664504e+001 1.360213e+002
1587500000 -2.331044e+001 1.496299e+002 2.038760e+001 9.959005e+001 -2.815169e+001 -1.985702e+001 -1.653514e+001 1.338142e+002
1588750000 -2.320406e+001 1.459815e+002 2.038152e+001 9.728559e+001 -2.815915e+001 -2.210800e+001 -1.642549e+001 1.309091e+002
1590000000 -2.310188e+001 1.426378e+002 2.037421e+001 9.497034e+001 -2.812814e+001 -2.476784e+001 -1.636742e+001 1.282335e+002
1591250000 -2.304893e+001 1.388955e+002 2.037626e+001 9.273138e+001 -2.816654e+001 -2.690751e+001 -1.631747e+001 1.258385e+002
1592500000 -2.290156e+001 1.356214e+002 2.038189e+001 9.046201e+001 -2.822220e+001 -2.903986e+001 -1.625130e+001 1.233079e+002
1593750000 -2.290018e+001 1.321666e+002 2.036041e+001 8.809831e+001 -2.811582e+001 -3.161294e+001 -1.617550e+001 1.206757e+002
1595000000 -2.282527e+001 1.289055e+002 2.035853e+001 8.569672e+001 -2.815233e+001 -3.419340e+001 -1.614511e+001 1.180617e+002
1596250000 -2.283104e+001 1.255686e+002 2.034876e+001 8.347017e+001 -2.817356e+001 -3.616830e+001 -1.608799e+001 1.154384e+002
1597500000 -2.277537e+001 1.223096e+002 2.035125e+001 8.117944e+001 -2.816665e+001 -3.884894e+001 -1.600075e+001 1.130480e+002
1598750000 -2.278448e+001 1.192892e+002 2.035256e+001 7.884712e+001 -2.822179e+001 -4.116218e+001 -1.599052e+001 1.106311e+002
1600000000 -2.275265e+001 1.159893e+002 2.033537e+001 7.655347e+001 -2.815240e+001 -4.264623e+001 -1.592746e+001 1.078636e+002
1601250000 -2.275698e+001 1.126634e+002 2.033939e+001 7.418380e+001 -2.814716e+001 -4.514072e+001 -1.587295e+001 1.055692e+002
1602500000 -2.273133e+001 1.097171e+002 2.034182e+001 7.185283e+001 -2.818522e+001 -4.740698e+001 -1.588445e+001 1.031250e+002
1603750000 -2.275998e+001 1.065925e+002 2.034426e+001 6.955724e+001 -2.817155e+001 -5.018679e+001 -1.582886e+001 1.007010e+002
1605000000 -2.281732e+001 1.035576e+002 2.033907e+001 6.714165e+001 -2.820958e+001 -5.195776e+001 -1.581963e+001 9.828327e+001
1606250000 -2.282608e+001 1.008476e+002 2.034797e+001 6.490447e+001 -2.823519e+001 -5.445825e+001 -1.578986e+001 9.608411e+001
1607500000 -2.288553e+001 9.789439e+001 2.033453e+001 6.256836e+001 -2.815694e+001 -5.687387e+001 -1.576209e+001 9.363831e+001
1608750000 -2.296555e+001 9.511405e+001 2.033302e+001 6.027270e+001 -2.815284e+001 -5.914315e+001 -1.575856e+001 9.148831e+001
1610000000 -2.300688e+001 9.244793e+001 2.033706e+001 5.789858e+001 -2.816273e+001 -6.150904e+001 -1.573008e+001 8.884766e+001
1611250000 -2.306301e+001 9.023862e+001 2.033535e+001 5.567759e+001 -2.819156e+001 -6.364544e+001 -1.571027e+001 8.687579e+001
1612500000 -2.313074e+001 8.772089e+001 2.034230e+001 5.336241e+001 -2.817754e+001 -6.609694e+001 -1.569470e+001 8.423735e+001
1613750000 -2.319908e+001 8.536122e+001 2.035304e+001 5.090844e+001 -2.819985e+001 -6.832210e+001 -1.569169e+001 8.205996e+001
1615000000 -2.332096e+001 8.293416e+001 2.034205e+001 4.862220e+001 -2.812029e+001 -7.065121e+001 -1.567622e+001 7.984452e+001
1616250000 -2.336956e+001 8.083840e+001 2.034551e+001 4.626248e+001 -2.816361e+001 -7.284794e+001 -1.567427e+001 7.779326e+001
1617500000 -2.345959e+001 7.870301e+001 2.033872e+001 4.397630e+001 -2.824645e+001 -7.530107e+001 -1.567087e+001 7.562830e+001
1618750000 -2.354329e+001 7.667461e+001 2.033455e+001 4.163020e+001 -2.819627e+001 -7.748382e+001 -1.568390e+001 7.336504e+001
1620000000 -2.360578e+001 7.460379e+001 2.033396e+001 3.925565e+001 -2.818517e+001 -8.015879e+001 -1.565734e+001 7.111428e+001
1621250000 -2.372322e+001 7.309994e+001 2.033934e+001 3.693337e+001 -2.824363e+001 -8.173793e+001 -1.566870e+001 6.908716e+001
1622500000 -2.379741e+001 7.144279e+001 2.034435e+001 3.452671e+001 -2.825100e+001 -8.499079e+001 -1.562869e+001 6.707843e+001
1623750000 -2.380464e+001 6.984825e+001 2.037022e+001 3.225290e+001 -2.818778e+001 -8.672790e+001 -1.561607e+001 6.487378e+001
1625000000 -2.389709e+001 6.790159e+001 2.035647e+001 2.984195e+001 -2.816629e+001 -8.917641e+001 -1.559860e+001 6.300532e+001
1626250000 -2.394496e+001 6.672322e+001 2.036566e+001 2.764923e+001 -2.818178e+001 -9.142075e+001 -1.561150e+001 6.084364e+001
1627500000 -2.397507e+001 6.539326e+001 2.036117e+001 2.517338e+001 -2.819733e+001 -9.377020e+001 -1.559119e+001 5.890498e+001
1628750000 -2.398032e+001 6.423389e+001 2.036140e+001 2.281872e+001 -2.818068e+001 -9.630185e+001 -1.556770e+001 5.663960e+001
1630000000 -2.399416e+001 6.284342e+001 2.036619e+001 2.044641e+001 -2.819674e+001 -9.796031e+001 -1.554385e+001 5.473979e+001
1631250000 -2.400884e+001 6.181154e+001 2.035885e+001 1.810993e+001 -2.812354e+001 -1.006144e+002 -1.551155e+001 5.273568e+001
1632500000 -2.400893e+001 6.061826e+001 2.035292e+001 1.569035e+001 -2.821803e+001 -1.032140e+002 -1.548876e+001 5.044322e+001
1633750000 -2.397986e+001 5.914917e+001 2.035750e+001 1.334205e+001 -2.817170e+001 -1.049262e+002 -1.548571e+001 4.847886e+001
1635000000 -2.389484e+001 5.793228e+001 2.036015e+001 1.098622e+001 -2.821981e+001 -1.074446e+002 -1.547214e+001 4.653242e+001
1636250000 -2.383658e+001 5.688948e+001 2.035761e+001 8.620219e+000 -2.815568e+001 -1.100176e+002 -1.542488e+001 4.450389e+001
1637500000 -2.372816e+001 5.569412e+001 2.036409e+001 6.332343e+000 -2.819064e+001 -1.123785e+002 -1.540281e+001 4.231201e+001
1638750000 -2.363013e+001 5.411195e+001 2.036462e+001 3.795880e+000 -2.819578e+001 -1.145855e+002 -1.535590e+001 4.043204e+001
1640000000 -2.351307e+001 5.303657e+001 2.036054e+001 1.477596e+000 -2.822277e+001 -1.167106e+002 -1.535303e+001 3.826382e+001
1641250000 -2.340862e+001 5.182325e+001 2.035367e+001 -7.418384e-001 -2.819894e+001 -1.191479e+002 -1.533164e+001 3.605710e+001
1642500000 -2.329023e+001 5.009946e+001 2.035325e+001 -3.219168e+000 -2.816587e+001 -1.216953e+002 -1.528063e+001 3.403008e+001
1643750000 -2.311308e+001 4.875787e+001 2.035869e+001 -5.577156e+000 -2.815361e+001 -1.239244e+002 -1.526128e+001 3.166352e+001
1645000000 -2.295966e+001 4.686906e+001 2.034926e+001 -7.999623e+000 -2.822292e+001 -1.256449e+002 -1.520540e+001 2.981354e+001
1646250000 -2.284335e+001 4.500959e+001 2.034850e+001 -1.028548e+001 -2.821036e+001 -1.281124e+002 -1.521297e+001 2.754769e+001
1647500000 -2.267092e+001 4.337825e+001 2.034726e+001 -1.261993e+001 -2.817542e+001 -1.308089e+002 -1.517004e+001 2.546916e+001
1648750000 -2.249034e+001 4.132145e+001 2.034689e+001 -1.499207e+001 -2.819865e+001 -1.329961e+002 -1.513330e+001 2.317562e+001
1650000000 -2.235397e+001 3.917902e+001 2.033503e+001 -1.737432e+001 -2.821458e+001 -1.351589e+002 -1.511369e+001 2.100105e+001
1651250000 -2.216375e+001 3.736370e+001 2.033623e+001 -1.968050e+001 -2.818566e+001 -1.369521e+002 -1.507680e+001 1.872064e+001
1652500000 -2.203380e+001 3.516446e+001 2.032813e+001 -2.201801e+001 -2.816415e+001 -1.395209e+002 -1.503755e+001 1.661116e+001
1653750000 -2.182361e+001 3.287128e+001 2.032960e+001 -2.448632e+001 -2.825477e+001 -1.422855e+002 -1.504331e+001 1.421763e+001
1655000000 -2.170737e+001 3.050675e+001 2.032199e+001 -2.674912e+001 -2.823160e+001 -1.448674e+002 -1.502855e+001 1.207169e+001
1656250000 -2.156354e+001 2.811534e+001 2.031851e+001 -2.909095e+001 -2.816358e+001 -1.468078e+002 -1.501020e+001 9.526281e+000
1657500000 -2.142625e+001 2.564874e+001 2.031958e+001 -3.143137e+001 -2.819992e+001 -1.488664e+002 -1.497389e+001 7.381707e+000
1658750000 -2.128835e+001 2.302168e+001 2.031411e+001 -3.386491e+001 -2.820859e+001 -1.514546e+002 -1.494759e+001 5.056190e+000
1660000000 -2.117130e+001 2.014742e+001 2.030023e+001 -3.618367e+001 -2.826514e+001 -1.534381e+002 -1.495581e+001 2.704107e+000
1661250000 -2.102156e+001 1.803134e+001 2.030574e+001 -3.843029e+001 -2.821003e+001 -1.558401e+002 -1.493013e+001 2.240430e-001
1662500000 -2.091836e+001 1.502142e+001 2.029351e+001 -4.081595e+001 -2.822825e+001 -1.584641e+002 -1.491806e+001 -1.931309e+000
1663750000 -2.080212e+001 1.252949e+001 2.030147e+001 -4.324312e+001 -2.821573e+001 -1.607968e+002 -1.490900e+001 -4.288784e+000
1665000000 -2.067039e+001 9.505653e+000 2.029515e+001 -4.551558e+001 -2.821660e+001 -1.628363e+002 -1.489809e+001 -6.685239e+000
1666250000 -2.057335e+001 6.567976e+000 2.029734e+001 -4.791020e+001 -2.820035e+001 -1.650837e+002 -1.490416e+001 -9.168296e+000
1667500000 -2.053144e+001 3.721004e+000 2.028002e+001 -5.030871e+001 -2.818404e+001 -1.673239e+002 -1.487126e+001 -1.164341e+001
1668750000 -2.039572e+001 9.125628e-001 2.028896e+001 -5.255030e+001 -2.820929e+001 -1.697407e+002 -1.489532e+001 -1.384719e+001
1670000000 -2.030050e+001 -1.890859e+000 2.028040e+001 -5.491669e+001 -2.825577e+001 -1.722052e+002 -1.492885e+001 -1.635442e+001
1671250000 -2.029014e+001 -5.140275e+000 2.026151e+001 -5.728627e+001 -2.822225e+001 -1.744593e+002 -1.492886e+001 -1.859671e+001
1672500000 -2.020724e+001 -7.791952e+000 2.027008e+001 -5.963500e+001 -2.816023e+001 -1.766287e+002 -1.493436e+001 -2.110456e+001
1673750000 -2.016328e+001 -1.084749e+001 2.027187e+001 -6.194982e+001 -2.818487e+001 -1.790607e+002 -1.492846e+001 -2.340969e+001
1675000000 -2.011906e+001 -1.386675e+001 2.027068e+001 -6.431695e+001 -2.821976e+001 1.789147e+002 -1.496275e+001 -2.576314e+001
1676250000 -2.003189e+001 -1.680160e+001 2.026104e+001 -6.660651e+001 -2.824662e+001 1.762007e+002 -1.493360e+001 -2.817384e+001
1677500000 -2.005147e+001 -1.983538e+001 2.025841e+001 -6.903528e+001 -2.824984e+001 1.742500e+002 -1.495452e+001 -3.062425e+001
1678750000 -1.997285e+001 -2.278101e+001 2.025481e+001 -7.132496e+001 -2.820968e+001 1.714896e+002 -1.496881e+001 -3.288206e+001
1680000000 -1.994002e+001 -2.578824e+001 2.025831e+001 -7.374287e+001 -2.826339e+001 1.689966e+002 -1.498237e+001 -3.530281e+001
1681250000 -1.993032e+001 -2.875416e+001 2.024662e+001 -7.617419e+001 -2.825530e+001 1.671097e+002 -1.501110e+001 -3.767890e+001
1682500000 -1.994887e+001 -3.167167e+001 2.023599e+001 -7.842258e+001 -2.818969e+001 1.646089e+002 -1.499334e+001 -4.022419e+001
1683750000 -1.993069e+001 -3.481517e+001 2.023835e+001 -8.085439e+001 -2.822061e+001 1.623472e+002 -1.502378e+001 -4.240888e+001
1685000000 -1.991652e+001 -3.767398e+001 2.022627e+001 -8.320876e+001 -2.819861e+001 1.598400e+002 -1.502027e+001 -4.485686e+001
1686250000 -1.991204e+001 -4.068208e+001 2.022629e+001 -8.553825e+001 -2.827035e+001 1.575667e+002 -1.502287e+001 -4.704055e+001
1687500000 -1.989526e+001 -4.355535e+001 2.024499e+001 -8.788379e+001 -2.825779e+001 1.558202e+002 -1.503885e+001 -4.944245e+001
1688750000 -1.990916e+001 -4.650060e+001 2.023626e+001 -9.018370e+001 -2.823964e+001 1.531603e+002 -1.504626e+001 -5.176855e+001
1690000000 -1.994634e+001 -4.906357e+001 2.021870e+001 -9.258475e+001 -2.825629e+001 1.506957e+002 -1.503083e+001 -5.393626e+001
