!Agilent Technologies,E8364A,US41440144,A.06.04.32
!Agilent E8364A: A.06.04.32
!Date: Thursday, November 08, 2018 15:01:40
!Correction: S11(Full 2 Port(1,2)) S21(Full 2 Port(1,2)) S12(Full 2 Port(1,2)) S22(Full 2 Port(1,2)) 
!S2P File: Measurements: S11, S21, S12, S22:
# Hz S  dB   R 50
45000000 -6.530992e-001 -1.701297e+001 3.869752e+000 -7.467567e+001 -4.708345e+001 1.217024e+002 -6.970313e-001 -6.685164e+001
45372187.5 -6.511291e-001 -1.721824e+001 4.016613e+000 -7.491259e+001 -4.803173e+001 1.385103e+002 -6.905203e-001 -6.741893e+001
45744375 -6.529493e-001 -1.743981e+001 4.133708e+000 -7.506288e+001 -4.598076e+001 1.301961e+002 -6.877288e-001 -6.773746e+001
46116562.5 -6.457407e-001 -1.757240e+001 4.257135e+000 -7.501273e+001 -4.654762e+001 1.305929e+002 -7.289070e-001 -6.827706e+001
46488750 -6.474444e-001 -1.777925e+001 4.371515e+000 -7.519894e+001 -4.637759e+001 1.399676e+002 -7.270318e-001 -6.896024e+001
46860937.5 -6.545420e-001 -1.785138e+001 4.508183e+000 -7.516575e+001 -4.691759e+001 1.385365e+002 -7.273256e-001 -6.945555e+001
47233125 -6.373382e-001 -1.805931e+001 4.623884e+000 -7.509782e+001 -4.619950e+001 1.206269e+002 -7.569048e-001 -6.988946e+001
47605312.5 -6.540528e-001 -1.814952e+001 4.740965e+000 -7.534028e+001 -4.660231e+001 1.193934e+002 -7.531441e-001 -7.048380e+001
47977500 -6.443381e-001 -1.836568e+001 4.859510e+000 -7.553777e+001 -4.675294e+001 1.298792e+002 -7.861211e-001 -7.096376e+001
48349687.5 -6.606263e-001 -1.854991e+001 4.963256e+000 -7.572169e+001 -4.546012e+001 1.335891e+002 -7.900956e-001 -7.143312e+001
48721875 -6.486012e-001 -1.874180e+001 5.065513e+000 -7.591758e+001 -4.561518e+001 1.246742e+002 -8.063267e-001 -7.190604e+001
49094062.5 -6.413435e-001 -1.889813e+001 5.191610e+000 -7.610835e+001 -4.538573e+001 1.298081e+002 -8.013405e-001 -7.244215e+001
49466250 -6.342531e-001 -1.902439e+001 5.271742e+000 -7.605911e+001 -4.459867e+001 1.373582e+002 -7.882985e-001 -7.292698e+001
49838437.5 -6.296328e-001 -1.931174e+001 5.433869e+000 -7.630629e+001 -4.597810e+001 1.324079e+002 -8.123761e-001 -7.328958e+001
50210625 -6.532347e-001 -1.938777e+001 5.499074e+000 -7.635683e+001 -4.646368e+001 1.208172e+002 -8.408104e-001 -7.378824e+001
50582812.5 -6.383465e-001 -1.958694e+001 5.630352e+000 -7.658475e+001 -4.512474e+001 1.281316e+002 -8.363408e-001 -7.425629e+001
50955000 -6.429304e-001 -1.965254e+001 5.735035e+000 -7.666557e+001 -4.490905e+001 1.192749e+002 -8.585937e-001 -7.485159e+001
51327187.5 -6.482157e-001 -1.989096e+001 5.824134e+000 -7.693113e+001 -4.502209e+001 1.211404e+002 -8.766622e-001 -7.553131e+001
51699375 -6.388190e-001 -2.001677e+001 5.950563e+000 -7.708358e+001 -4.458142e+001 1.270666e+002 -8.884588e-001 -7.589074e+001
52071562.5 -6.427974e-001 -2.024227e+001 6.059819e+000 -7.720943e+001 -4.541185e+001 1.214570e+002 -8.939462e-001 -7.632099e+001
52443750 -6.435262e-001 -2.046210e+001 6.143330e+000 -7.759546e+001 -4.461808e+001 1.292336e+002 -8.975633e-001 -7.683162e+001
52815937.5 -6.452467e-001 -2.062099e+001 6.279579e+000 -7.775106e+001 -4.434407e+001 1.264903e+002 -9.132996e-001 -7.736942e+001
53188125 -6.416836e-001 -2.076009e+001 6.380950e+000 -7.795311e+001 -4.408089e+001 1.289939e+002 -9.256212e-001 -7.779570e+001
53560312.5 -6.536126e-001 -2.107220e+001 6.469828e+000 -7.811600e+001 -4.338327e+001 1.210888e+002 -9.514198e-001 -7.824418e+001
53932500 -6.478844e-001 -2.111545e+001 6.568953e+000 -7.829270e+001 -4.460293e+001 1.221779e+002 -9.595572e-001 -7.876038e+001
54304687.5 -6.457381e-001 -2.128226e+001 6.663355e+000 -7.853919e+001 -4.481696e+001 1.253454e+002 -9.740585e-001 -7.920650e+001
54676875 -6.545707e-001 -2.137297e+001 6.768442e+000 -7.855384e+001 -4.355802e+001 1.198163e+002 -9.580587e-001 -7.966176e+001
55049062.5 -6.588476e-001 -2.165630e+001 6.858900e+000 -7.888040e+001 -4.442074e+001 1.184012e+002 -9.758348e-001 -8.015390e+001
55421250 -6.685350e-001 -2.181228e+001 6.950988e+000 -7.918600e+001 -4.389552e+001 1.253576e+002 -9.932531e-001 -8.068877e+001
55793437.5 -6.677941e-001 -2.189821e+001 7.059074e+000 -7.930548e+001 -4.401720e+001 1.175423e+002 -1.034132e+000 -8.116259e+001
56165625 -6.687229e-001 -2.216367e+001 7.140945e+000 -7.953580e+001 -4.357660e+001 1.230938e+002 -1.041249e+000 -8.170268e+001
56537812.5 -6.754690e-001 -2.226492e+001 7.244017e+000 -7.974192e+001 -4.326831e+001 1.244705e+002 -1.026917e+000 -8.206375e+001
56910000 -6.740953e-001 -2.236676e+001 7.323027e+000 -7.988355e+001 -4.307950e+001 1.225038e+002 -1.057702e+000 -8.246260e+001
57282187.5 -6.814265e-001 -2.256614e+001 7.402211e+000 -8.022893e+001 -4.307863e+001 1.191190e+002 -1.071314e+000 -8.308742e+001
57654375 -6.778099e-001 -2.278875e+001 7.504125e+000 -8.044567e+001 -4.254404e+001 1.209286e+002 -1.064020e+000 -8.339628e+001
58026562.5 -6.954541e-001 -2.290870e+001 7.602778e+000 -8.066364e+001 -4.303042e+001 1.167794e+002 -1.077722e+000 -8.400188e+001
58398750 -6.876779e-001 -2.309533e+001 7.666142e+000 -8.077818e+001 -4.370248e+001 1.148014e+002 -1.085080e+000 -8.443192e+001
58770937.5 -7.040519e-001 -2.327128e+001 7.755383e+000 -8.107764e+001 -4.292491e+001 1.195915e+002 -1.118404e+000 -8.480691e+001
59143125 -6.974226e-001 -2.344652e+001 7.857111e+000 -8.129049e+001 -4.225579e+001 1.220690e+002 -1.122748e+000 -8.536253e+001
59515312.5 -7.021506e-001 -2.356896e+001 7.944797e+000 -8.154690e+001 -4.235266e+001 1.178807e+002 -1.136987e+000 -8.572147e+001
59887500 -7.261099e-001 -2.380082e+001 8.016054e+000 -8.178246e+001 -4.227008e+001 1.215580e+002 -1.129376e+000 -8.621759e+001
60259687.5 -7.029759e-001 -2.385660e+001 8.121165e+000 -8.196176e+001 -4.300677e+001 1.198825e+002 -1.170281e+000 -8.661162e+001
60631875 -7.077555e-001 -2.403510e+001 8.201981e+000 -8.213326e+001 -4.202089e+001 1.202764e+002 -1.173797e+000 -8.720326e+001
61004062.5 -7.124215e-001 -2.416502e+001 8.275623e+000 -8.242287e+001 -4.314793e+001 1.144844e+002 -1.177103e+000 -8.752177e+001
61376250 -7.171038e-001 -2.443361e+001 8.354055e+000 -8.275176e+001 -4.221185e+001 1.177224e+002 -1.193338e+000 -8.804428e+001
61748437.5 -7.373280e-001 -2.460675e+001 8.422704e+000 -8.297368e+001 -4.213751e+001 1.181614e+002 -1.209965e+000 -8.854056e+001
62120625 -7.265016e-001 -2.478478e+001 8.517847e+000 -8.325624e+001 -4.161327e+001 1.199020e+002 -1.199026e+000 -8.897846e+001
62492812.5 -7.324265e-001 -2.491524e+001 8.607493e+000 -8.336069e+001 -4.219431e+001 1.148190e+002 -1.228340e+000 -8.944322e+001
62865000 -7.404088e-001 -2.502720e+001 8.676021e+000 -8.370956e+001 -4.225761e+001 1.145628e+002 -1.243926e+000 -8.979347e+001
63237187.5 -7.485880e-001 -2.522846e+001 8.752679e+000 -8.394227e+001 -4.116166e+001 1.173525e+002 -1.245154e+000 -9.030949e+001
63609375 -7.495936e-001 -2.538906e+001 8.862405e+000 -8.424609e+001 -4.209296e+001 1.142162e+002 -1.286330e+000 -9.070746e+001
63981562.5 -7.524680e-001 -2.550875e+001 8.914807e+000 -8.443005e+001 -4.132461e+001 1.127970e+002 -1.284610e+000 -9.121753e+001
64353750 -7.582118e-001 -2.562440e+001 8.997714e+000 -8.466297e+001 -4.134888e+001 1.138160e+002 -1.302745e+000 -9.175909e+001
64725937.5 -7.710527e-001 -2.585061e+001 9.084881e+000 -8.500867e+001 -4.131987e+001 1.137212e+002 -1.312473e+000 -9.200751e+001
65098125 -7.854312e-001 -2.601799e+001 9.152661e+000 -8.522031e+001 -4.139143e+001 1.141866e+002 -1.315782e+000 -9.247800e+001
65470312.5 -7.778861e-001 -2.617191e+001 9.223325e+000 -8.551634e+001 -4.098916e+001 1.143204e+002 -1.350340e+000 -9.289373e+001
65842500 -7.835298e-001 -2.635745e+001 9.310077e+000 -8.573928e+001 -4.131876e+001 1.112849e+002 -1.368534e+000 -9.342788e+001
66214687.5 -7.915701e-001 -2.655561e+001 9.399632e+000 -8.599018e+001 -4.116711e+001 1.133056e+002 -1.370947e+000 -9.390857e+001
66586875 -7.943202e-001 -2.661237e+001 9.444662e+000 -8.622934e+001 -4.097174e+001 1.115182e+002 -1.384067e+000 -9.421519e+001
66959062.5 -8.011928e-001 -2.679476e+001 9.515229e+000 -8.641453e+001 -4.103201e+001 1.130068e+002 -1.400187e+000 -9.476855e+001
67331250 -8.144228e-001 -2.697360e+001 9.579250e+000 -8.675775e+001 -4.071975e+001 1.138276e+002 -1.426762e+000 -9.509598e+001
67703437.5 -8.246379e-001 -2.716910e+001 9.654554e+000 -8.715612e+001 -4.038638e+001 1.124848e+002 -1.413775e+000 -9.549844e+001
68075625 -8.256226e-001 -2.733756e+001 9.721859e+000 -8.733205e+001 -4.070512e+001 1.099503e+002 -1.433691e+000 -9.597572e+001
68447812.5 -8.305351e-001 -2.745897e+001 9.810554e+000 -8.754177e+001 -4.052530e+001 1.098979e+002 -1.439576e+000 -9.634310e+001
68820000 -8.333330e-001 -2.760836e+001 9.867415e+000 -8.779494e+001 -4.090059e+001 1.095281e+002 -1.457226e+000 -9.673590e+001
69192187.5 -8.419292e-001 -2.776233e+001 9.941331e+000 -8.809369e+001 -4.026591e+001 1.088983e+002 -1.476653e+000 -9.725564e+001
69564375 -8.483505e-001 -2.789512e+001 9.997420e+000 -8.825098e+001 -4.047309e+001 1.094205e+002 -1.492658e+000 -9.773068e+001
69936562.5 -8.496163e-001 -2.807646e+001 1.008123e+001 -8.862706e+001 -4.013920e+001 1.086371e+002 -1.486282e+000 -9.806225e+001
70308750 -8.631487e-001 -2.826999e+001 1.013761e+001 -8.885545e+001 -4.043220e+001 1.099311e+002 -1.511785e+000 -9.848891e+001
70680937.5 -8.665122e-001 -2.841902e+001 1.019068e+001 -8.913905e+001 -4.041343e+001 1.106835e+002 -1.533490e+000 -9.891084e+001
71053125 -8.753750e-001 -2.851510e+001 1.027140e+001 -8.931808e+001 -4.029487e+001 1.108604e+002 -1.523155e+000 -9.937669e+001
71425312.5 -8.848771e-001 -2.860563e+001 1.032548e+001 -8.955697e+001 -4.031308e+001 1.073154e+002 -1.545353e+000 -9.967513e+001
71797500 -8.919379e-001 -2.890417e+001 1.038275e+001 -8.999763e+001 -3.993164e+001 1.085494e+002 -1.583206e+000 -1.001552e+002
72169687.5 -8.960704e-001 -2.894112e+001 1.045883e+001 -9.026064e+001 -3.987299e+001 1.073718e+002 -1.597518e+000 -1.006093e+002
72541875 -9.141120e-001 -2.918748e+001 1.050861e+001 -9.051878e+001 -3.958618e+001 1.066834e+002 -1.605779e+000 -1.009063e+002
72914062.5 -9.382526e-001 -2.928852e+001 1.056506e+001 -9.086359e+001 -3.975317e+001 1.057315e+002 -1.610148e+000 -1.014032e+002
73286250 -9.326997e-001 -2.947811e+001 1.063444e+001 -9.106034e+001 -3.958279e+001 1.102522e+002 -1.628869e+000 -1.018832e+002
73658437.5 -9.271576e-001 -2.959873e+001 1.070561e+001 -9.147704e+001 -3.936689e+001 1.058120e+002 -1.676823e+000 -1.023456e+002
74030625 -9.510236e-001 -2.976814e+001 1.074126e+001 -9.161378e+001 -3.969711e+001 1.059483e+002 -1.631522e+000 -1.025783e+002
74402812.5 -9.567615e-001 -2.994205e+001 1.080530e+001 -9.202541e+001 -4.017466e+001 1.048375e+002 -1.640852e+000 -1.029745e+002
74775000 -9.666017e-001 -3.015572e+001 1.087063e+001 -9.231101e+001 -3.933140e+001 1.057604e+002 -1.692698e+000 -1.034655e+002
75147187.5 -9.704260e-001 -3.021781e+001 1.092099e+001 -9.247978e+001 -3.929668e+001 1.023182e+002 -1.711038e+000 -1.038264e+002
75519375 -9.772930e-001 -3.033149e+001 1.099145e+001 -9.271330e+001 -3.973063e+001 1.040377e+002 -1.699614e+000 -1.042512e+002
75891562.5 -1.014422e+000 -3.057972e+001 1.104817e+001 -9.316686e+001 -3.924924e+001 1.039665e+002 -1.712571e+000 -1.046376e+002
76263750 -1.012504e+000 -3.065232e+001 1.109129e+001 -9.344517e+001 -3.890993e+001 1.038662e+002 -1.725613e+000 -1.049483e+002
76635937.5 -1.010156e+000 -3.091618e+001 1.114975e+001 -9.369905e+001 -3.949130e+001 1.002039e+002 -1.729424e+000 -1.053335e+002
77008125 -1.014977e+000 -3.088407e+001 1.119908e+001 -9.404340e+001 -3.929658e+001 1.022479e+002 -1.753763e+000 -1.057094e+002
77380312.5 -1.028696e+000 -3.094054e+001 1.123476e+001 -9.423917e+001 -3.889284e+001 1.046235e+002 -1.762859e+000 -1.061719e+002
77752500 -1.036585e+000 -3.116656e+001 1.129121e+001 -9.459109e+001 -3.849562e+001 1.033939e+002 -1.761135e+000 -1.067242e+002
78124687.5 -1.064464e+000 -3.137236e+001 1.135842e+001 -9.491098e+001 -3.905922e+001 1.034504e+002 -1.804860e+000 -1.070108e+002
78496875 -1.066095e+000 -3.143469e+001 1.140931e+001 -9.510733e+001 -3.868886e+001 1.019790e+002 -1.820335e+000 -1.074916e+002
78869062.5 -1.076809e+000 -3.156349e+001 1.143638e+001 -9.545627e+001 -3.894604e+001 1.017046e+002 -1.835270e+000 -1.079557e+002
79241250 -1.091979e+000 -3.167342e+001 1.148391e+001 -9.567426e+001 -3.893999e+001 1.023410e+002 -1.840825e+000 -1.082705e+002
79613437.5 -1.086410e+000 -3.176834e+001 1.152731e+001 -9.602798e+001 -3.919671e+001 9.986309e+001 -1.857655e+000 -1.085274e+002
79985625 -1.096812e+000 -3.190638e+001 1.157339e+001 -9.636138e+001 -3.849550e+001 1.010678e+002 -1.884078e+000 -1.088291e+002
80357812.5 -1.127002e+000 -3.209293e+001 1.160543e+001 -9.655028e+001 -3.890011e+001 9.953983e+001 -1.865061e+000 -1.093098e+002
80730000 -1.118295e+000 -3.215334e+001 1.166373e+001 -9.699493e+001 -3.851788e+001 9.970573e+001 -1.898379e+000 -1.097557e+002
81102187.5 -1.142360e+000 -3.214688e+001 1.166239e+001 -9.689323e+001 -3.870018e+001 1.009710e+002 -1.888970e+000 -1.100705e+002
81474375 -1.110094e+000 -3.225683e+001 1.172719e+001 -9.722565e+001 -3.849772e+001 9.825977e+001 -1.895312e+000 -1.105562e+002
81846562.5 -1.136894e+000 -3.236339e+001 1.177289e+001 -9.751887e+001 -3.840131e+001 9.856306e+001 -1.948241e+000 -1.107744e+002
82218750 -1.138307e+000 -3.246051e+001 1.181049e+001 -9.760809e+001 -3.820735e+001 9.792194e+001 -1.913400e+000 -1.111803e+002
82590937.5 -1.168056e+000 -3.260603e+001 1.184946e+001 -9.794759e+001 -3.845623e+001 9.838303e+001 -1.954003e+000 -1.116016e+002
82963125 -1.147727e+000 -3.260915e+001 1.190922e+001 -9.811909e+001 -3.861133e+001 9.757322e+001 -1.929361e+000 -1.119395e+002
83335312.5 -1.155442e+000 -3.301033e+001 1.195293e+001 -9.855464e+001 -3.847200e+001 9.745409e+001 -1.979780e+000 -1.121589e+002
83707500 -1.175039e+000 -3.297128e+001 1.198334e+001 -9.853527e+001 -3.816713e+001 9.574029e+001 -1.976562e+000 -1.128344e+002
84079687.5 -1.179684e+000 -3.318418e+001 1.202760e+001 -9.892603e+001 -3.824025e+001 9.637818e+001 -1.983653e+000 -1.131058e+002
84451875 -1.202358e+000 -3.327657e+001 1.206554e+001 -9.911126e+001 -3.834265e+001 9.594408e+001 -2.012916e+000 -1.133638e+002
84824062.5 -1.212617e+000 -3.347205e+001 1.212356e+001 -9.944745e+001 -3.848141e+001 9.495190e+001 -2.001245e+000 -1.136179e+002
85196250 -1.196078e+000 -3.355183e+001 1.214174e+001 -9.965990e+001 -3.820125e+001 9.713804e+001 -2.035648e+000 -1.142810e+002
85568437.5 -1.231079e+000 -3.365140e+001 1.220133e+001 -9.983788e+001 -3.811557e+001 9.597079e+001 -2.060221e+000 -1.144206e+002
85940625 -1.209682e+000 -3.390820e+001 1.224362e+001 -1.001491e+002 -3.795568e+001 9.605716e+001 -2.050274e+000 -1.148314e+002
86312812.5 -1.233564e+000 -3.408125e+001 1.227631e+001 -1.004084e+002 -3.807469e+001 9.484182e+001 -2.073473e+000 -1.152318e+002
86685000 -1.216876e+000 -3.395207e+001 1.232206e+001 -1.005246e+002 -3.809770e+001 9.387483e+001 -2.074618e+000 -1.155744e+002
87057187.5 -1.232855e+000 -3.416408e+001 1.236904e+001 -1.009149e+002 -3.794638e+001 9.379599e+001 -2.087943e+000 -1.159601e+002
87429375 -1.243068e+000 -3.433244e+001 1.238201e+001 -1.011506e+002 -3.821473e+001 9.283340e+001 -2.071636e+000 -1.160111e+002
87801562.5 -1.263806e+000 -3.450700e+001 1.243093e+001 -1.014621e+002 -3.790779e+001 9.347626e+001 -2.141656e+000 -1.165709e+002
88173750 -1.272104e+000 -3.442712e+001 1.246034e+001 -1.016657e+002 -3.755588e+001 9.351932e+001 -2.146499e+000 -1.172588e+002
88545937.5 -1.282345e+000 -3.456524e+001 1.249343e+001 -1.019768e+002 -3.776224e+001 9.397327e+001 -2.120349e+000 -1.174610e+002
88918125 -1.299845e+000 -3.477709e+001 1.250504e+001 -1.022656e+002 -3.779568e+001 9.140829e+001 -2.172237e+000 -1.174526e+002
89290312.5 -1.287319e+000 -3.489113e+001 1.252748e+001 -1.024696e+002 -3.764149e+001 9.326830e+001 -2.135865e+000 -1.181992e+002
89662500 -1.301912e+000 -3.503354e+001 1.257164e+001 -1.025010e+002 -3.765297e+001 9.418854e+001 -2.177956e+000 -1.186702e+002
90034687.5 -1.311903e+000 -3.503210e+001 1.260740e+001 -1.028174e+002 -3.745499e+001 9.397618e+001 -2.161558e+000 -1.188537e+002
90406875 -1.313300e+000 -3.521043e+001 1.265636e+001 -1.030003e+002 -3.765597e+001 9.181252e+001 -2.171488e+000 -1.190886e+002
90779062.5 -1.299636e+000 -3.528282e+001 1.266532e+001 -1.032473e+002 -3.735939e+001 9.359042e+001 -2.220460e+000 -1.196442e+002
91151250 -1.317581e+000 -3.523713e+001 1.270359e+001 -1.032047e+002 -3.752983e+001 9.169931e+001 -2.217407e+000 -1.197158e+002
91523437.5 -1.315442e+000 -3.538828e+001 1.272983e+001 -1.033464e+002 -3.744620e+001 9.180312e+001 -2.239521e+000 -1.201483e+002
91895625 -1.337353e+000 -3.566293e+001 1.275288e+001 -1.036566e+002 -3.756753e+001 9.267715e+001 -2.215815e+000 -1.206129e+002
92267812.5 -1.345731e+000 -3.563917e+001 1.278557e+001 -1.039418e+002 -3.751376e+001 9.139053e+001 -2.237408e+000 -1.209423e+002
92640000 -1.359456e+000 -3.579889e+001 1.281299e+001 -1.039376e+002 -3.749179e+001 8.970255e+001 -2.269225e+000 -1.212757e+002
93012187.5 -1.364399e+000 -3.579855e+001 1.284363e+001 -1.041936e+002 -3.740895e+001 9.246817e+001 -2.273813e+000 -1.218222e+002
93384375 -1.351599e+000 -3.600666e+001 1.289535e+001 -1.045482e+002 -3.698277e+001 8.882201e+001 -2.319363e+000 -1.218165e+002
93756562.5 -1.337797e+000 -3.593047e+001 1.291580e+001 -1.046520e+002 -3.722797e+001 9.205402e+001 -2.284720e+000 -1.224137e+002
94128750 -1.375135e+000 -3.613837e+001 1.294203e+001 -1.048243e+002 -3.716291e+001 9.220782e+001 -2.320336e+000 -1.228547e+002
94500937.5 -1.380866e+000 -3.618746e+001 1.297875e+001 -1.048803e+002 -3.718735e+001 8.952786e+001 -2.311563e+000 -1.229183e+002
94873125 -1.383921e+000 -3.633964e+001 1.301335e+001 -1.050334e+002 -3.698443e+001 9.042822e+001 -2.321129e+000 -1.234784e+002
95245312.5 -1.403636e+000 -3.655681e+001 1.303678e+001 -1.053888e+002 -3.700846e+001 8.961407e+001 -2.340294e+000 -1.237756e+002
95617500 -1.413233e+000 -3.673590e+001 1.307003e+001 -1.054360e+002 -3.710513e+001 9.075943e+001 -2.354300e+000 -1.240157e+002
95989687.5 -1.392264e+000 -3.680611e+001 1.310831e+001 -1.055303e+002 -3.727121e+001 8.885291e+001 -2.352385e+000 -1.244318e+002
96361875 -1.397195e+000 -3.691410e+001 1.315609e+001 -1.058111e+002 -3.711501e+001 9.044239e+001 -2.390295e+000 -1.248314e+002
96734062.5 -1.418149e+000 -3.695415e+001 1.318310e+001 -1.060887e+002 -3.708410e+001 8.831990e+001 -2.336581e+000 -1.252740e+002
97106250 -1.426550e+000 -3.703385e+001 1.318824e+001 -1.061064e+002 -3.680493e+001 8.831422e+001 -2.392929e+000 -1.255302e+002
97478437.5 -1.412051e+000 -3.711704e+001 1.321682e+001 -1.063074e+002 -3.691839e+001 8.716220e+001 -2.386037e+000 -1.259091e+002
97850625 -1.425759e+000 -3.722327e+001 1.325666e+001 -1.063424e+002 -3.656447e+001 8.780640e+001 -2.387833e+000 -1.261888e+002
98222812.5 -1.440584e+000 -3.732130e+001 1.328499e+001 -1.066064e+002 -3.671149e+001 8.848553e+001 -2.407327e+000 -1.265428e+002
98595000 -1.421453e+000 -3.765576e+001 1.334035e+001 -1.067068e+002 -3.668581e+001 8.986086e+001 -2.424296e+000 -1.268335e+002
98967187.5 -1.438205e+000 -3.764451e+001 1.334980e+001 -1.069568e+002 -3.682449e+001 8.781269e+001 -2.428107e+000 -1.271100e+002
99339375 -1.448263e+000 -3.776536e+001 1.338424e+001 -1.070816e+002 -3.685376e+001 8.824948e+001 -2.430882e+000 -1.275778e+002
99711562.5 -1.446234e+000 -3.769196e+001 1.341852e+001 -1.072303e+002 -3.644614e+001 8.761928e+001 -2.470543e+000 -1.280607e+002
100083750 -1.448070e+000 -3.806206e+001 1.345004e+001 -1.073608e+002 -3.647282e+001 8.832381e+001 -2.454487e+000 -1.282310e+002
100455937.5 -1.443463e+000 -3.802433e+001 1.350592e+001 -1.074967e+002 -3.652143e+001 8.652377e+001 -2.473604e+000 -1.286709e+002
100828125 -1.447852e+000 -3.821383e+001 1.356358e+001 -1.076518e+002 -3.645281e+001 8.633042e+001 -2.477182e+000 -1.290335e+002
101200312.5 -1.441356e+000 -3.826751e+001 1.357635e+001 -1.077622e+002 -3.642092e+001 8.706184e+001 -2.485128e+000 -1.293363e+002
