!Agilent Technologies,E8364A,US41440144,A.06.04.32
!Agilent E8364A: A.06.04.32
!Date: Thursday, November 08, 2018 15:18:09
!Correction: S11(Full 2 Port(1,2)) S21(Full 2 Port(1,2)) S12(Full 2 Port(1,2)) S22(Full 2 Port(1,2)) 
!S2P File: Measurements: S11, S21, S12, S22:
# Hz S  dB   R 50
45000000 -8.324469e-002 -2.509140e+001 -5.319005e+000 -3.857639e+001 -5.507244e+001 1.641965e+002 -4.791493e-002 -1.936207e+001
45372187.5 -9.676840e-002 -2.521922e+001 -5.189492e+000 -3.865128e+001 -5.512840e+001 1.738735e+002 -3.401907e-002 -1.961595e+001
45744375 -9.147996e-002 -2.550459e+001 -5.046199e+000 -3.879918e+001 -5.743595e+001 1.614532e+002 -1.964243e-002 -1.977939e+001
46116562.5 -8.178573e-002 -2.568586e+001 -4.894863e+000 -3.903437e+001 -5.375249e+001 1.757301e+002 -5.125947e-002 -1.990830e+001
46488750 -8.652595e-002 -2.595531e+001 -4.773347e+000 -3.925576e+001 -5.639953e+001 1.553334e+002 -2.752154e-002 -2.005311e+001
46860937.5 -1.051632e-001 -2.611037e+001 -4.652711e+000 -3.939056e+001 -5.388283e+001 1.642833e+002 -5.343920e-002 -2.019222e+001
47233125 -1.093921e-001 -2.636469e+001 -4.516062e+000 -3.954115e+001 -5.418839e+001 1.463639e+002 -4.811639e-002 -2.049891e+001
47605312.5 -1.112638e-001 -2.645214e+001 -4.388505e+000 -3.970978e+001 -5.990456e+001 1.624899e+002 -5.230396e-002 -2.065572e+001
47977500 -1.147744e-001 -2.674777e+001 -4.272724e+000 -3.983628e+001 -5.322631e+001 1.504201e+002 -4.270718e-002 -2.081335e+001
48349687.5 -1.341204e-001 -2.699023e+001 -4.158171e+000 -4.006868e+001 -5.239242e+001 1.673294e+002 -5.196989e-002 -2.095133e+001
48721875 -1.295257e-001 -2.713801e+001 -4.026134e+000 -4.040189e+001 -5.495243e+001 1.236612e+002 -4.238698e-002 -2.106588e+001
49094062.5 -1.280441e-001 -2.739707e+001 -3.917785e+000 -4.038443e+001 -5.315400e+001 1.488209e+002 -5.029797e-002 -2.121086e+001
49466250 -1.242600e-001 -2.759378e+001 -3.810829e+000 -4.068403e+001 -5.297963e+001 1.679227e+002 -3.515076e-002 -2.140102e+001
49838437.5 -1.268397e-001 -2.785487e+001 -3.613264e+000 -4.082144e+001 -5.501844e+001 1.730200e+002 -4.077363e-002 -2.169139e+001
50210625 -1.536394e-001 -2.799693e+001 -3.545013e+000 -4.098619e+001 -5.943918e+001 1.348904e+002 -5.304856e-002 -2.175680e+001
50582812.5 -1.433350e-001 -2.825139e+001 -3.432148e+000 -4.121164e+001 -5.387873e+001 1.554686e+002 -5.879796e-002 -2.181187e+001
50955000 -1.382607e-001 -2.838939e+001 -3.311328e+000 -4.137877e+001 -5.324511e+001 1.538895e+002 -5.905749e-002 -2.214496e+001
51327187.5 -1.571571e-001 -2.863437e+001 -3.183310e+000 -4.161898e+001 -5.497824e+001 1.635356e+002 -5.132528e-002 -2.233903e+001
51699375 -1.590971e-001 -2.881183e+001 -3.081228e+000 -4.180004e+001 -5.400472e+001 1.487345e+002 -7.726244e-002 -2.253650e+001
52071562.5 -1.561104e-001 -2.909819e+001 -2.970013e+000 -4.197112e+001 -5.348466e+001 1.586276e+002 -5.787087e-002 -2.258636e+001
52443750 -1.651384e-001 -2.920277e+001 -2.837698e+000 -4.220410e+001 -5.210942e+001 1.622660e+002 -5.896854e-002 -2.273714e+001
52815937.5 -1.786021e-001 -2.959893e+001 -2.729933e+000 -4.241821e+001 -5.089888e+001 1.646608e+002 -6.385794e-002 -2.296135e+001
53188125 -1.737723e-001 -2.970379e+001 -2.610892e+000 -4.248573e+001 -5.238617e+001 1.615602e+002 -6.053651e-002 -2.310124e+001
53560312.5 -1.909578e-001 -2.996951e+001 -2.499501e+000 -4.269974e+001 -5.293974e+001 1.564465e+002 -6.420101e-002 -2.325624e+001
53932500 -1.881953e-001 -3.011122e+001 -2.404723e+000 -4.289423e+001 -5.486013e+001 1.556840e+002 -7.887146e-002 -2.346298e+001
54304687.5 -1.844044e-001 -3.029514e+001 -2.283404e+000 -4.308622e+001 -5.338852e+001 1.539474e+002 -6.932438e-002 -2.355361e+001
54676875 -1.955028e-001 -3.054477e+001 -2.166393e+000 -4.319413e+001 -5.230430e+001 1.502861e+002 -6.913421e-002 -2.368031e+001
55049062.5 -1.960038e-001 -3.076131e+001 -2.070685e+000 -4.340793e+001 -5.224387e+001 1.518572e+002 -5.912174e-002 -2.388882e+001
55421250 -2.036338e-001 -3.089257e+001 -1.957383e+000 -4.359848e+001 -5.197322e+001 1.654986e+002 -6.431209e-002 -2.401467e+001
55793437.5 -2.140945e-001 -3.115797e+001 -1.851089e+000 -4.376957e+001 -5.205934e+001 1.540295e+002 -7.016404e-002 -2.429712e+001
56165625 -2.227666e-001 -3.145765e+001 -1.744255e+000 -4.399484e+001 -5.079812e+001 1.556503e+002 -6.835976e-002 -2.446605e+001
56537812.5 -2.218536e-001 -3.158454e+001 -1.613185e+000 -4.413193e+001 -5.270785e+001 1.519674e+002 -7.082748e-002 -2.459960e+001
56910000 -2.330479e-001 -3.176447e+001 -1.539435e+000 -4.432679e+001 -5.098768e+001 1.502923e+002 -8.114217e-002 -2.468929e+001
57282187.5 -2.375735e-001 -3.198692e+001 -1.428875e+000 -4.463557e+001 -5.206091e+001 1.567412e+002 -6.649189e-002 -2.497672e+001
57654375 -2.398847e-001 -3.221458e+001 -1.332674e+000 -4.473308e+001 -5.116325e+001 1.451861e+002 -5.551532e-002 -2.514944e+001
58026562.5 -2.589664e-001 -3.242051e+001 -1.225673e+000 -4.496727e+001 -5.200282e+001 1.462363e+002 -6.474113e-002 -2.522153e+001
58398750 -2.580996e-001 -3.259576e+001 -1.138768e+000 -4.506441e+001 -5.363752e+001 1.554376e+002 -6.623790e-002 -2.545630e+001
58770937.5 -2.724465e-001 -3.287915e+001 -1.029545e+000 -4.533841e+001 -5.080838e+001 1.499456e+002 -7.110167e-002 -2.556457e+001
59143125 -2.740392e-001 -3.308861e+001 -9.175311e-001 -4.549731e+001 -5.055551e+001 1.470228e+002 -8.027738e-002 -2.575723e+001
59515312.5 -2.691786e-001 -3.324454e+001 -8.153225e-001 -4.576611e+001 -4.995136e+001 1.518607e+002 -7.774993e-002 -2.592350e+001
59887500 -2.861687e-001 -3.341356e+001 -7.319772e-001 -4.587016e+001 -5.004299e+001 1.574992e+002 -7.500964e-002 -2.607127e+001
60259687.5 -2.811866e-001 -3.362366e+001 -6.232551e-001 -4.607365e+001 -5.170434e+001 1.643231e+002 -7.973661e-002 -2.627859e+001
60631875 -2.920724e-001 -3.390297e+001 -5.380449e-001 -4.631707e+001 -4.948643e+001 1.560027e+002 -6.824075e-002 -2.646269e+001
61004062.5 -2.986668e-001 -3.405288e+001 -4.416295e-001 -4.653315e+001 -5.257496e+001 1.495122e+002 -7.679357e-002 -2.658284e+001
61376250 -2.977798e-001 -3.431544e+001 -3.314404e-001 -4.673372e+001 -5.014263e+001 1.508468e+002 -9.077131e-002 -2.661726e+001
61748437.5 -3.149632e-001 -3.445646e+001 -2.469250e-001 -4.686072e+001 -4.953637e+001 1.627225e+002 -9.227348e-002 -2.698708e+001
62120625 -3.078734e-001 -3.471693e+001 -1.346040e-001 -4.718648e+001 -4.954334e+001 1.467645e+002 -7.814496e-002 -2.706904e+001
62492812.5 -3.173199e-001 -3.485516e+001 -4.884327e-002 -4.722585e+001 -5.033266e+001 1.606147e+002 -8.592021e-002 -2.721169e+001
62865000 -3.264414e-001 -3.511052e+001 4.242525e-002 -4.764611e+001 -5.118368e+001 1.493598e+002 -8.069903e-002 -2.733006e+001
63237187.5 -3.324799e-001 -3.532766e+001 1.250571e-001 -4.771746e+001 -4.889294e+001 1.470319e+002 -8.635608e-002 -2.750279e+001
63609375 -3.308458e-001 -3.554964e+001 2.374427e-001 -4.795750e+001 -5.001373e+001 1.533866e+002 -9.695588e-002 -2.771085e+001
63981562.5 -3.403336e-001 -3.566327e+001 3.141389e-001 -4.805360e+001 -5.033176e+001 1.392338e+002 -8.925229e-002 -2.786925e+001
64353750 -3.586892e-001 -3.584327e+001 4.014729e-001 -4.830482e+001 -4.938698e+001 1.497945e+002 -1.024280e-001 -2.820302e+001
64725937.5 -3.555461e-001 -3.609599e+001 5.087298e-001 -4.857080e+001 -4.859886e+001 1.469851e+002 -9.209468e-002 -2.817757e+001
65098125 -3.610024e-001 -3.631900e+001 6.119309e-001 -4.873555e+001 -5.048722e+001 1.458439e+002 -9.266868e-002 -2.838123e+001
65470312.5 -3.684119e-001 -3.657031e+001 6.746966e-001 -4.895605e+001 -4.861356e+001 1.449467e+002 -9.698111e-002 -2.856194e+001
65842500 -3.670423e-001 -3.681169e+001 7.854012e-001 -4.918631e+001 -4.982568e+001 1.442849e+002 -1.098764e-001 -2.873754e+001
66214687.5 -3.719258e-001 -3.695146e+001 8.871555e-001 -4.934728e+001 -4.924003e+001 1.529375e+002 -1.179606e-001 -2.896652e+001
66586875 -3.877434e-001 -3.716400e+001 9.416928e-001 -4.958413e+001 -4.869280e+001 1.453052e+002 -1.123462e-001 -2.902742e+001
66959062.5 -3.948509e-001 -3.734424e+001 1.046063e+000 -4.959937e+001 -4.976522e+001 1.419180e+002 -1.071895e-001 -2.925789e+001
67331250 -4.121316e-001 -3.753816e+001 1.092440e+000 -4.997779e+001 -4.914324e+001 1.431002e+002 -1.249075e-001 -2.939589e+001
67703437.5 -4.243563e-001 -3.781150e+001 1.217554e+000 -5.030609e+001 -4.890290e+001 1.424730e+002 -1.030973e-001 -2.947726e+001
68075625 -4.324473e-001 -3.796898e+001 1.287497e+000 -5.055751e+001 -4.888100e+001 1.437337e+002 -1.254155e-001 -2.975696e+001
68447812.5 -4.363821e-001 -3.816462e+001 1.403308e+000 -5.058268e+001 -4.996720e+001 1.416782e+002 -1.164314e-001 -2.988635e+001
68820000 -4.363198e-001 -3.835631e+001 1.450858e+000 -5.081116e+001 -4.832171e+001 1.486172e+002 -1.191729e-001 -3.005491e+001
69192187.5 -4.320686e-001 -3.851717e+001 1.559541e+000 -5.090682e+001 -4.852372e+001 1.391387e+002 -1.125655e-001 -3.025225e+001
69564375 -4.361849e-001 -3.875210e+001 1.636665e+000 -5.127903e+001 -4.885765e+001 1.484352e+002 -1.296613e-001 -3.047491e+001
69936562.5 -4.547520e-001 -3.893542e+001 1.706301e+000 -5.150655e+001 -4.829908e+001 1.442133e+002 -1.222323e-001 -3.050189e+001
70308750 -4.675543e-001 -3.920486e+001 1.777732e+000 -5.178888e+001 -4.805035e+001 1.499890e+002 -1.333681e-001 -3.073119e+001
70680937.5 -4.737916e-001 -3.937185e+001 1.865913e+000 -5.189212e+001 -4.849356e+001 1.410806e+002 -1.254996e-001 -3.085615e+001
71053125 -4.801548e-001 -3.956579e+001 1.958248e+000 -5.204599e+001 -4.852112e+001 1.478661e+002 -1.148764e-001 -3.099791e+001
71425312.5 -4.838581e-001 -3.970374e+001 2.029495e+000 -5.229574e+001 -4.844281e+001 1.467150e+002 -1.307063e-001 -3.116583e+001
71797500 -4.958750e-001 -4.008302e+001 2.103997e+000 -5.266180e+001 -4.804486e+001 1.456779e+002 -1.477191e-001 -3.147960e+001
72169687.5 -5.051942e-001 -4.016069e+001 2.191831e+000 -5.267017e+001 -4.748883e+001 1.470827e+002 -1.447881e-001 -3.162262e+001
72541875 -5.167712e-001 -4.039619e+001 2.268011e+000 -5.311775e+001 -4.760680e+001 1.399890e+002 -1.505990e-001 -3.156164e+001
72914062.5 -5.318921e-001 -4.052575e+001 2.326245e+000 -5.317334e+001 -4.872446e+001 1.406563e+002 -1.361228e-001 -3.178359e+001
73286250 -5.355045e-001 -4.078715e+001 2.423506e+000 -5.344556e+001 -4.638337e+001 1.426093e+002 -1.348798e-001 -3.209849e+001
73658437.5 -5.384542e-001 -4.099785e+001 2.502790e+000 -5.378733e+001 -4.698711e+001 1.483201e+002 -1.440132e-001 -3.215572e+001
74030625 -5.638868e-001 -4.121397e+001 2.561838e+000 -5.392591e+001 -4.765485e+001 1.361133e+002 -1.431916e-001 -3.228724e+001
74402812.5 -5.601725e-001 -4.145566e+001 2.648107e+000 -5.428296e+001 -4.882601e+001 1.414260e+002 -1.520283e-001 -3.257228e+001
74775000 -5.788535e-001 -4.167939e+001 2.718700e+000 -5.449811e+001 -4.721171e+001 1.404898e+002 -1.558677e-001 -3.278175e+001
75147187.5 -5.760198e-001 -4.179997e+001 2.805140e+000 -5.463724e+001 -4.708153e+001 1.382763e+002 -1.482361e-001 -3.295508e+001
75519375 -5.848637e-001 -4.197083e+001 2.881960e+000 -5.492424e+001 -4.733004e+001 1.364111e+002 -1.624724e-001 -3.307357e+001
75891562.5 -6.198983e-001 -4.217171e+001 2.955620e+000 -5.506118e+001 -4.742750e+001 1.382891e+002 -1.525250e-001 -3.317892e+001
76263750 -6.115443e-001 -4.229153e+001 3.019795e+000 -5.530096e+001 -4.685636e+001 1.362126e+002 -1.612051e-001 -3.322357e+001
76635937.5 -6.254783e-001 -4.268503e+001 3.091832e+000 -5.559215e+001 -4.754485e+001 1.313710e+002 -1.853529e-001 -3.350118e+001
77008125 -6.273165e-001 -4.263267e+001 3.159281e+000 -5.577066e+001 -4.764143e+001 1.376917e+002 -1.829697e-001 -3.354788e+001
77380312.5 -6.284047e-001 -4.287573e+001 3.210998e+000 -5.596852e+001 -4.678940e+001 1.407274e+002 -2.153441e-001 -3.384812e+001
77752500 -6.293809e-001 -4.312688e+001 3.290032e+000 -5.629052e+001 -4.628717e+001 1.353333e+002 -1.555216e-001 -3.401503e+001
78124687.5 -6.677350e-001 -4.329853e+001 3.372946e+000 -5.651890e+001 -4.681447e+001 1.379451e+002 -1.754129e-001 -3.420047e+001
78496875 -6.730144e-001 -4.360318e+001 3.453582e+000 -5.664203e+001 -4.624670e+001 1.385333e+002 -1.728325e-001 -3.430578e+001
78869062.5 -6.737801e-001 -4.366301e+001 3.507189e+000 -5.688596e+001 -4.649722e+001 1.344841e+002 -2.006514e-001 -3.444341e+001
79241250 -7.052984e-001 -4.379590e+001 3.567352e+000 -5.704445e+001 -4.681437e+001 1.387550e+002 -1.801594e-001 -3.464760e+001
79613437.5 -6.782275e-001 -4.406623e+001 3.658114e+000 -5.742673e+001 -4.723259e+001 1.402680e+002 -1.832311e-001 -3.483348e+001
79985625 -6.860744e-001 -4.429250e+001 3.721642e+000 -5.765348e+001 -4.602713e+001 1.373332e+002 -1.708248e-001 -3.514885e+001
80357812.5 -7.202794e-001 -4.448875e+001 3.778333e+000 -5.792226e+001 -4.647543e+001 1.424538e+002 -1.809776e-001 -3.513217e+001
80730000 -7.317191e-001 -4.474786e+001 3.832590e+000 -5.828373e+001 -4.677924e+001 1.383328e+002 -1.819867e-001 -3.528037e+001
81102187.5 -7.664547e-001 -4.472586e+001 3.860368e+000 -5.819118e+001 -4.591204e+001 1.395069e+002 -1.591298e-001 -3.545000e+001
81474375 -7.511261e-001 -4.484651e+001 3.950835e+000 -5.864946e+001 -4.605911e+001 1.388920e+002 -1.906093e-001 -3.567290e+001
81846562.5 -7.533676e-001 -4.505742e+001 4.037129e+000 -5.888869e+001 -4.548978e+001 1.386290e+002 -1.936740e-001 -3.577234e+001
82218750 -7.981580e-001 -4.531403e+001 4.075125e+000 -5.898468e+001 -4.602498e+001 1.353710e+002 -1.701737e-001 -3.582568e+001
82590937.5 -8.047905e-001 -4.527802e+001 4.136186e+000 -5.931054e+001 -4.610514e+001 1.369770e+002 -1.812357e-001 -3.608799e+001
82963125 -8.050997e-001 -4.577721e+001 4.208376e+000 -5.958903e+001 -4.627671e+001 1.336839e+002 -1.644942e-001 -3.622683e+001
83335312.5 -8.251922e-001 -4.588625e+001 4.263992e+000 -6.002051e+001 -4.630553e+001 1.359170e+002 -1.737807e-001 -3.648651e+001
83707500 -8.255875e-001 -4.614557e+001 4.311746e+000 -6.004734e+001 -4.596339e+001 1.279061e+002 -1.527527e-001 -3.648286e+001
84079687.5 -8.612177e-001 -4.612193e+001 4.367465e+000 -6.020582e+001 -4.546709e+001 1.345458e+002 -1.915407e-001 -3.674957e+001
84451875 -8.494720e-001 -4.616519e+001 4.395461e+000 -6.041248e+001 -4.543033e+001 1.351590e+002 -2.014467e-001 -3.695718e+001
84824062.5 -8.843432e-001 -4.649176e+001 4.482542e+000 -6.067942e+001 -4.625103e+001 1.336375e+002 -2.113267e-001 -3.716028e+001
85196250 -8.798681e-001 -4.664765e+001 4.497737e+000 -6.102904e+001 -4.508672e+001 1.330231e+002 -1.991441e-001 -3.717630e+001
85568437.5 -8.848854e-001 -4.672140e+001 4.581338e+000 -6.118428e+001 -4.590340e+001 1.314454e+002 -2.141730e-001 -3.730365e+001
85940625 -9.030532e-001 -4.706528e+001 4.638899e+000 -6.144934e+001 -4.539771e+001 1.367738e+002 -1.883938e-001 -3.759443e+001
86312812.5 -9.230455e-001 -4.714605e+001 4.704257e+000 -6.169489e+001 -4.514590e+001 1.337261e+002 -2.073932e-001 -3.781101e+001
86685000 -9.015276e-001 -4.725993e+001 4.749928e+000 -6.174870e+001 -4.508019e+001 1.331030e+002 -2.071550e-001 -3.772855e+001
87057187.5 -9.221472e-001 -4.741323e+001 4.785400e+000 -6.216317e+001 -4.559496e+001 1.312271e+002 -2.143508e-001 -3.806004e+001
87429375 -9.361019e-001 -4.753739e+001 4.824945e+000 -6.234256e+001 -4.598218e+001 1.322158e+002 -2.033658e-001 -3.800718e+001
87801562.5 -9.659941e-001 -4.769794e+001 4.895943e+000 -6.258242e+001 -4.467196e+001 1.330859e+002 -2.371114e-001 -3.824725e+001
88173750 -9.761623e-001 -4.771579e+001 4.943228e+000 -6.270799e+001 -4.564779e+001 1.300663e+002 -2.402502e-001 -3.845536e+001
88545937.5 -9.773299e-001 -4.798589e+001 4.982486e+000 -6.305768e+001 -4.544237e+001 1.312948e+002 -2.255228e-001 -3.867177e+001
88918125 -9.948278e-001 -4.797207e+001 5.006588e+000 -6.313203e+001 -4.522934e+001 1.326570e+002 -2.389156e-001 -3.871722e+001
89290312.5 -9.859970e-001 -4.829441e+001 5.055339e+000 -6.345557e+001 -4.476414e+001 1.313706e+002 -2.305993e-001 -3.897153e+001
89662500 -1.005725e+000 -4.830911e+001 5.091165e+000 -6.339852e+001 -4.478517e+001 1.297887e+002 -2.229670e-001 -3.915139e+001
90034687.5 -1.026113e+000 -4.837524e+001 5.161796e+000 -6.371435e+001 -4.464778e+001 1.337161e+002 -2.041191e-001 -3.940268e+001
90406875 -1.024513e+000 -4.854271e+001 5.209779e+000 -6.391031e+001 -4.481718e+001 1.296758e+002 -2.314022e-001 -3.962222e+001
90779062.5 -1.029325e+000 -4.861568e+001 5.237723e+000 -6.403384e+001 -4.501765e+001 1.318790e+002 -2.590053e-001 -3.964893e+001
91151250 -1.033840e+000 -4.870606e+001 5.278834e+000 -6.399079e+001 -4.486764e+001 1.273565e+002 -2.704709e-001 -3.960411e+001
91523437.5 -1.051372e+000 -4.884768e+001 5.309396e+000 -6.409849e+001 -4.494181e+001 1.283038e+002 -2.523521e-001 -3.997318e+001
91895625 -1.068158e+000 -4.909114e+001 5.354129e+000 -6.422814e+001 -4.475272e+001 1.297794e+002 -2.464414e-001 -4.005408e+001
92267812.5 -1.045578e+000 -4.895745e+001 5.403176e+000 -6.451233e+001 -4.495085e+001 1.295486e+002 -2.477988e-001 -4.007533e+001
92640000 -1.067606e+000 -4.912424e+001 5.428032e+000 -6.448701e+001 -4.467841e+001 1.291226e+002 -2.723163e-001 -4.045043e+001
93012187.5 -1.073722e+000 -4.931122e+001 5.467009e+000 -6.467292e+001 -4.436695e+001 1.279102e+002 -2.570482e-001 -4.071414e+001
93384375 -1.055487e+000 -4.944281e+001 5.530995e+000 -6.497392e+001 -4.404374e+001 1.291731e+002 -2.666233e-001 -4.088514e+001
93756562.5 -1.055360e+000 -4.938705e+001 5.569476e+000 -6.492183e+001 -4.434534e+001 1.312453e+002 -2.583437e-001 -4.090343e+001
94128750 -1.085553e+000 -4.974788e+001 5.598335e+000 -6.510431e+001 -4.445761e+001 1.331522e+002 -2.681183e-001 -4.112586e+001
94500937.5 -1.092561e+000 -4.966039e+001 5.650662e+000 -6.507175e+001 -4.395589e+001 1.252207e+002 -2.629941e-001 -4.116512e+001
94873125 -1.099246e+000 -4.988879e+001 5.690500e+000 -6.520998e+001 -4.413295e+001 1.254310e+002 -2.484431e-001 -4.154685e+001
95245312.5 -1.104132e+000 -4.997173e+001 5.730895e+000 -6.541786e+001 -4.398075e+001 1.309140e+002 -2.733237e-001 -4.165421e+001
95617500 -1.103157e+000 -5.022104e+001 5.789863e+000 -6.538908e+001 -4.386607e+001 1.317464e+002 -2.809692e-001 -4.180494e+001
95989687.5 -1.077955e+000 -5.030519e+001 5.831349e+000 -6.547071e+001 -4.427650e+001 1.310183e+002 -2.626142e-001 -4.188994e+001
96361875 -1.094175e+000 -5.042669e+001 5.887650e+000 -6.567300e+001 -4.379145e+001 1.308340e+002 -2.764924e-001 -4.210558e+001
96734062.5 -1.088085e+000 -5.046537e+001 5.930889e+000 -6.580914e+001 -4.444685e+001 1.290027e+002 -2.534357e-001 -4.215535e+001
97106250 -1.115973e+000 -5.060663e+001 5.964433e+000 -6.579771e+001 -4.404074e+001 1.274025e+002 -2.574815e-001 -4.253775e+001
97478437.5 -1.087353e+000 -5.070087e+001 6.008683e+000 -6.595078e+001 -4.383050e+001 1.277442e+002 -2.671044e-001 -4.277562e+001
97850625 -1.089715e+000 -5.093255e+001 6.057462e+000 -6.593547e+001 -4.399737e+001 1.254806e+002 -2.611970e-001 -4.267292e+001
98222812.5 -1.129126e+000 -5.111888e+001 6.091093e+000 -6.618678e+001 -4.387935e+001 1.262819e+002 -2.887819e-001 -4.285065e+001
98595000 -1.096472e+000 -5.117267e+001 6.157794e+000 -6.606155e+001 -4.352741e+001 1.286912e+002 -2.857926e-001 -4.291411e+001
98967187.5 -1.104329e+000 -5.131558e+001 6.197299e+000 -6.633956e+001 -4.427561e+001 1.314505e+002 -2.877771e-001 -4.313813e+001
99339375 -1.119142e+000 -5.136416e+001 6.248742e+000 -6.631528e+001 -4.356931e+001 1.278799e+002 -2.528133e-001 -4.323447e+001
99711562.5 -1.106940e+000 -5.155437e+001 6.324410e+000 -6.660155e+001 -4.362384e+001 1.300532e+002 -3.035999e-001 -4.364618e+001
100083750 -1.122016e+000 -5.178753e+001 6.349086e+000 -6.654685e+001 -4.379000e+001 1.249613e+002 -2.640025e-001 -4.364576e+001
100455937.5 -1.103705e+000 -5.197669e+001 6.411034e+000 -6.675150e+001 -4.305003e+001 1.276839e+002 -2.854778e-001 -4.390879e+001
100828125 -1.091871e+000 -5.223058e+001 6.488376e+000 -6.685296e+001 -4.291275e+001 1.272376e+002 -2.822009e-001 -4.395266e+001
101200312.5 -1.101295e+000 -5.229404e+001 6.521216e+000 -6.697861e+001 -4.275715e+001 1.273717e+002 -2.952183e-001 -4.402915e+001
