!Agilent Technologies,E8364A,US41440144,A.06.04.32
!Agilent E8364A: A.06.04.32
!Date: Thursday, November 08, 2018 15:10:03
!Correction: S11(Full 2 Port(1,2)) S21(Full 2 Port(1,2)) S12(Full 2 Port(1,2)) S22(Full 2 Port(1,2)) 
!S2P File: Measurements: S11, S21, S12, S22:
# Hz S  dB   R 50
45000000 -9.764168e-002 -2.544456e+001 -2.414994e+000 -4.160084e+001 -5.322286e+001 1.639986e+002 -8.748109e-002 -2.438662e+001
45372187.5 -1.089503e-001 -2.564338e+001 -2.268321e+000 -4.174685e+001 -5.297611e+001 -1.717119e+002 -6.108366e-002 -2.449145e+001
45744375 -1.124830e-001 -2.595511e+001 -2.141993e+000 -4.199450e+001 -5.235747e+001 1.582668e+002 -7.262327e-002 -2.479870e+001
46116562.5 -1.041079e-001 -2.613035e+001 -1.998611e+000 -4.212050e+001 -5.208680e+001 1.562735e+002 -8.122976e-002 -2.498435e+001
46488750 -1.112203e-001 -2.637547e+001 -1.875426e+000 -4.244504e+001 -5.176453e+001 1.599071e+002 -7.112986e-002 -2.511514e+001
46860937.5 -1.333486e-001 -2.654405e+001 -1.745573e+000 -4.261060e+001 -5.194860e+001 1.761101e+002 -7.285950e-002 -2.532575e+001
47233125 -1.219447e-001 -2.682560e+001 -1.609998e+000 -4.273409e+001 -5.045956e+001 1.622826e+002 -7.674804e-002 -2.562943e+001
47605312.5 -1.404642e-001 -2.688160e+001 -1.498895e+000 -4.286817e+001 -5.296519e+001 1.662465e+002 -7.223348e-002 -2.584072e+001
47977500 -1.411137e-001 -2.719916e+001 -1.371125e+000 -4.321748e+001 -5.284313e+001 1.429808e+002 -8.955564e-002 -2.615416e+001
48349687.5 -1.397064e-001 -2.741985e+001 -1.255888e+000 -4.332263e+001 -5.112791e+001 1.515866e+002 -8.359905e-002 -2.623284e+001
48721875 -1.441710e-001 -2.762703e+001 -1.121865e+000 -4.375190e+001 -5.266494e+001 1.604937e+002 -8.122385e-002 -2.639312e+001
49094062.5 -1.524429e-001 -2.790183e+001 -1.010175e+000 -4.385207e+001 -5.147535e+001 1.504661e+002 -9.888641e-002 -2.659094e+001
49466250 -1.428427e-001 -2.802549e+001 -8.982520e-001 -4.409840e+001 -5.067814e+001 1.665923e+002 -8.558295e-002 -2.676357e+001
49838437.5 -1.433711e-001 -2.828554e+001 -7.676836e-001 -4.445198e+001 -5.170059e+001 1.662532e+002 -7.809539e-002 -2.700005e+001
50210625 -1.661921e-001 -2.850961e+001 -6.569031e-001 -4.447961e+001 -5.413209e+001 1.473838e+002 -8.722003e-002 -2.722742e+001
50582812.5 -1.647720e-001 -2.872446e+001 -5.240036e-001 -4.471647e+001 -5.221392e+001 1.551685e+002 -8.951575e-002 -2.738379e+001
50955000 -1.694166e-001 -2.887899e+001 -4.142309e-001 -4.486515e+001 -5.005117e+001 1.491384e+002 -9.541963e-002 -2.772842e+001
51327187.5 -1.788990e-001 -2.912573e+001 -2.981572e-001 -4.518445e+001 -5.017229e+001 1.528923e+002 -8.783200e-002 -2.784992e+001
51699375 -1.849406e-001 -2.930037e+001 -1.875630e-001 -4.537091e+001 -4.983352e+001 1.620714e+002 -1.122509e-001 -2.819911e+001
52071562.5 -1.764734e-001 -2.957469e+001 -6.934264e-002 -4.549024e+001 -4.921209e+001 1.579466e+002 -1.005896e-001 -2.822576e+001
52443750 -1.947901e-001 -2.976973e+001 4.647870e-002 -4.588832e+001 -4.956612e+001 1.576662e+002 -9.871963e-002 -2.844789e+001
52815937.5 -1.896475e-001 -2.999097e+001 1.813443e-001 -4.601625e+001 -5.025262e+001 1.590673e+002 -1.091533e-001 -2.870840e+001
53188125 -2.143448e-001 -3.020813e+001 2.709567e-001 -4.614494e+001 -5.026912e+001 1.644688e+002 -1.025928e-001 -2.892148e+001
53560312.5 -2.092656e-001 -3.049783e+001 3.892586e-001 -4.639703e+001 -5.010029e+001 1.519458e+002 -1.175033e-001 -2.908999e+001
53932500 -2.105435e-001 -3.065066e+001 4.875290e-001 -4.660957e+001 -4.927624e+001 1.539848e+002 -1.168245e-001 -2.936691e+001
54304687.5 -2.139568e-001 -3.087457e+001 6.026006e-001 -4.685227e+001 -4.931287e+001 1.590955e+002 -1.220037e-001 -2.942561e+001
54676875 -2.315321e-001 -3.106263e+001 7.080498e-001 -4.695827e+001 -4.931217e+001 1.428219e+002 -1.156880e-001 -2.964527e+001
55049062.5 -2.286668e-001 -3.127757e+001 8.100353e-001 -4.726675e+001 -5.052153e+001 1.575785e+002 -1.067069e-001 -2.993315e+001
55421250 -2.383405e-001 -3.148768e+001 9.314544e-001 -4.753365e+001 -4.919638e+001 1.641578e+002 -1.175381e-001 -3.010513e+001
55793437.5 -2.499350e-001 -3.171377e+001 1.024676e+000 -4.768423e+001 -4.837526e+001 1.549389e+002 -1.197276e-001 -3.043586e+001
56165625 -2.524327e-001 -3.198849e+001 1.139226e+000 -4.789958e+001 -4.857692e+001 1.521580e+002 -1.185653e-001 -3.066189e+001
56537812.5 -2.486589e-001 -3.217482e+001 1.265267e+000 -4.806628e+001 -4.924485e+001 1.503974e+002 -1.275271e-001 -3.081324e+001
56910000 -2.693621e-001 -3.235771e+001 1.339862e+000 -4.828275e+001 -4.818240e+001 1.507745e+002 -1.350880e-001 -3.099476e+001
57282187.5 -2.736515e-001 -3.258791e+001 1.449306e+000 -4.867912e+001 -4.844793e+001 1.484318e+002 -1.274080e-001 -3.119420e+001
57654375 -2.623240e-001 -3.278298e+001 1.562483e+000 -4.873930e+001 -4.883675e+001 1.504847e+002 -1.205998e-001 -3.142249e+001
58026562.5 -2.774403e-001 -3.293200e+001 1.651407e+000 -4.903315e+001 -5.009163e+001 1.557777e+002 -1.175344e-001 -3.163765e+001
58398750 -2.754608e-001 -3.318563e+001 1.755375e+000 -4.914496e+001 -4.989211e+001 1.532798e+002 -1.295114e-001 -3.178811e+001
58770937.5 -2.927351e-001 -3.336435e+001 1.853639e+000 -4.930122e+001 -4.903833e+001 1.466620e+002 -1.419788e-001 -3.197890e+001
59143125 -3.056160e-001 -3.361989e+001 1.953343e+000 -4.977684e+001 -4.853236e+001 1.551115e+002 -1.296340e-001 -3.228093e+001
59515312.5 -3.040933e-001 -3.384840e+001 2.063738e+000 -4.998704e+001 -4.781477e+001 1.487263e+002 -1.376622e-001 -3.233095e+001
59887500 -3.241734e-001 -3.406600e+001 2.152019e+000 -5.007967e+001 -4.861256e+001 1.459577e+002 -1.374058e-001 -3.259992e+001
60259687.5 -3.177956e-001 -3.425391e+001 2.255303e+000 -5.026928e+001 -4.799421e+001 1.620135e+002 -1.532633e-001 -3.289832e+001
60631875 -3.353031e-001 -3.439901e+001 2.337811e+000 -5.058691e+001 -4.707177e+001 1.535412e+002 -1.366935e-001 -3.313244e+001
61004062.5 -3.269362e-001 -3.464261e+001 2.454551e+000 -5.068619e+001 -4.912424e+001 1.492236e+002 -1.376739e-001 -3.325888e+001
61376250 -3.334513e-001 -3.493745e+001 2.538527e+000 -5.111061e+001 -4.674450e+001 1.461262e+002 -1.407661e-001 -3.341804e+001
61748437.5 -3.519184e-001 -3.511279e+001 2.643781e+000 -5.116783e+001 -4.739780e+001 1.537030e+002 -1.559511e-001 -3.375119e+001
62120625 -3.449424e-001 -3.532021e+001 2.750902e+000 -5.151585e+001 -4.681109e+001 1.454602e+002 -1.540449e-001 -3.391978e+001
62492812.5 -3.645632e-001 -3.555088e+001 2.818959e+000 -5.154186e+001 -4.810548e+001 1.452555e+002 -1.499048e-001 -3.404950e+001
62865000 -3.565353e-001 -3.575626e+001 2.928473e+000 -5.203231e+001 -4.792407e+001 1.479598e+002 -1.581715e-001 -3.420197e+001
63237187.5 -3.741608e-001 -3.595213e+001 3.010211e+000 -5.217799e+001 -4.708321e+001 1.475625e+002 -1.562201e-001 -3.444636e+001
63609375 -3.854037e-001 -3.618980e+001 3.099001e+000 -5.251545e+001 -4.754440e+001 1.503790e+002 -1.822994e-001 -3.472505e+001
63981562.5 -3.855834e-001 -3.634605e+001 3.180656e+000 -5.258278e+001 -4.722416e+001 1.452378e+002 -1.661008e-001 -3.479173e+001
64353750 -3.933503e-001 -3.651357e+001 3.273823e+000 -5.283322e+001 -4.747103e+001 1.406321e+002 -1.699454e-001 -3.519117e+001
64725937.5 -4.108031e-001 -3.671398e+001 3.357819e+000 -5.309671e+001 -4.689995e+001 1.444395e+002 -1.701388e-001 -3.525505e+001
65098125 -4.131591e-001 -3.695055e+001 3.467280e+000 -5.328071e+001 -4.707297e+001 1.381553e+002 -1.644790e-001 -3.548356e+001
65470312.5 -4.124880e-001 -3.716107e+001 3.533336e+000 -5.347913e+001 -4.642518e+001 1.459936e+002 -1.786010e-001 -3.563300e+001
65842500 -4.150697e-001 -3.750765e+001 3.654195e+000 -5.384446e+001 -4.734374e+001 1.449797e+002 -1.848927e-001 -3.594918e+001
66214687.5 -4.273249e-001 -3.764711e+001 3.739839e+000 -5.403329e+001 -4.661493e+001 1.476050e+002 -2.018603e-001 -3.624178e+001
66586875 -4.364720e-001 -3.780604e+001 3.793642e+000 -5.417318e+001 -4.582409e+001 1.449629e+002 -2.023049e-001 -3.630521e+001
66959062.5 -4.487417e-001 -3.804950e+001 3.898582e+000 -5.439581e+001 -4.646155e+001 1.409525e+002 -1.932044e-001 -3.663435e+001
67331250 -4.596331e-001 -3.824370e+001 3.967233e+000 -5.472641e+001 -4.624216e+001 1.422251e+002 -2.121534e-001 -3.685592e+001
67703437.5 -4.791131e-001 -3.849636e+001 4.057724e+000 -5.506047e+001 -4.603866e+001 1.459765e+002 -1.900192e-001 -3.695925e+001
68075625 -4.758736e-001 -3.866078e+001 4.147709e+000 -5.513668e+001 -4.613435e+001 1.439174e+002 -2.112489e-001 -3.710359e+001
68447812.5 -4.792910e-001 -3.891838e+001 4.242424e+000 -5.546628e+001 -4.608146e+001 1.431115e+002 -2.023167e-001 -3.732052e+001
68820000 -4.881782e-001 -3.913491e+001 4.323839e+000 -5.573838e+001 -4.652501e+001 1.459870e+002 -2.064371e-001 -3.761870e+001
69192187.5 -4.930744e-001 -3.935690e+001 4.406346e+000 -5.597496e+001 -4.559211e+001 1.361963e+002 -2.152879e-001 -3.783890e+001
69564375 -4.955031e-001 -3.942938e+001 4.483870e+000 -5.611200e+001 -4.551268e+001 1.410012e+002 -2.272519e-001 -3.800746e+001
69936562.5 -5.036901e-001 -3.968816e+001 4.569409e+000 -5.644091e+001 -4.536992e+001 1.329191e+002 -2.182681e-001 -3.810677e+001
70308750 -5.276342e-001 -3.990358e+001 4.638569e+000 -5.656582e+001 -4.603686e+001 1.435297e+002 -2.158107e-001 -3.834697e+001
70680937.5 -5.264714e-001 -4.013148e+001 4.716959e+000 -5.690269e+001 -4.586485e+001 1.410277e+002 -2.348075e-001 -3.859620e+001
71053125 -5.396602e-001 -4.032123e+001 4.789183e+000 -5.703965e+001 -4.581672e+001 1.428186e+002 -2.253086e-001 -3.874757e+001
71425312.5 -5.445202e-001 -4.044833e+001 4.869261e+000 -5.732374e+001 -4.597799e+001 1.431454e+002 -2.333128e-001 -3.900523e+001
71797500 -5.572882e-001 -4.079859e+001 4.945983e+000 -5.770509e+001 -4.517535e+001 1.396463e+002 -2.479216e-001 -3.921426e+001
72169687.5 -5.642036e-001 -4.087403e+001 5.030972e+000 -5.786491e+001 -4.519168e+001 1.394881e+002 -2.382727e-001 -3.943254e+001
72541875 -5.834465e-001 -4.109929e+001 5.107035e+000 -5.816649e+001 -4.540723e+001 1.366205e+002 -2.496980e-001 -3.951569e+001
72914062.5 -6.040001e-001 -4.124632e+001 5.175341e+000 -5.832832e+001 -4.558203e+001 1.383760e+002 -2.407153e-001 -3.979015e+001
73286250 -6.002058e-001 -4.155423e+001 5.268650e+000 -5.862144e+001 -4.433852e+001 1.404844e+002 -2.502652e-001 -4.005691e+001
73658437.5 -6.146422e-001 -4.179776e+001 5.336245e+000 -5.913359e+001 -4.459631e+001 1.362726e+002 -2.643189e-001 -4.025659e+001
74030625 -6.252255e-001 -4.200006e+001 5.409270e+000 -5.923526e+001 -4.470516e+001 1.352652e+002 -2.550592e-001 -4.036031e+001
74402812.5 -6.346938e-001 -4.217198e+001 5.487665e+000 -5.953902e+001 -4.576519e+001 1.399332e+002 -2.633845e-001 -4.075066e+001
74775000 -6.465058e-001 -4.242524e+001 5.557913e+000 -5.979119e+001 -4.495234e+001 1.412065e+002 -2.728845e-001 -4.090016e+001
75147187.5 -6.517506e-001 -4.254293e+001 5.623748e+000 -5.996785e+001 -4.418230e+001 1.340606e+002 -2.655939e-001 -4.118693e+001
75519375 -6.648234e-001 -4.279253e+001 5.696104e+000 -6.024800e+001 -4.451193e+001 1.332384e+002 -2.819013e-001 -4.136227e+001
75891562.5 -6.877724e-001 -4.297561e+001 5.783420e+000 -6.050850e+001 -4.501046e+001 1.350836e+002 -2.594305e-001 -4.149233e+001
76263750 -6.931677e-001 -4.310203e+001 5.837461e+000 -6.074413e+001 -4.444492e+001 1.317675e+002 -2.942710e-001 -4.154279e+001
76635937.5 -6.955664e-001 -4.350075e+001 5.908421e+000 -6.098453e+001 -4.493733e+001 1.311187e+002 -2.882297e-001 -4.184944e+001
77008125 -7.052249e-001 -4.353704e+001 5.971074e+000 -6.134422e+001 -4.387856e+001 1.340697e+002 -2.946764e-001 -4.204021e+001
77380312.5 -7.110425e-001 -4.364707e+001 6.043685e+000 -6.160215e+001 -4.448431e+001 1.367335e+002 -3.092866e-001 -4.225396e+001
77752500 -7.207424e-001 -4.397323e+001 6.104081e+000 -6.184459e+001 -4.381153e+001 1.356947e+002 -2.731231e-001 -4.238430e+001
78124687.5 -7.566525e-001 -4.415041e+001 6.185444e+000 -6.208109e+001 -4.378836e+001 1.347169e+002 -2.965207e-001 -4.272416e+001
78496875 -7.651485e-001 -4.421218e+001 6.257003e+000 -6.226910e+001 -4.348364e+001 1.335160e+002 -2.945182e-001 -4.295568e+001
78869062.5 -7.721917e-001 -4.456849e+001 6.295265e+000 -6.266481e+001 -4.373038e+001 1.330614e+002 -2.966498e-001 -4.330240e+001
79241250 -7.996615e-001 -4.478234e+001 6.375020e+000 -6.282162e+001 -4.360268e+001 1.345078e+002 -3.096688e-001 -4.333793e+001
79613437.5 -7.935356e-001 -4.486053e+001 6.448684e+000 -6.320279e+001 -4.450172e+001 1.382694e+002 -3.498887e-001 -4.354321e+001
79985625 -8.067625e-001 -4.500492e+001 6.507010e+000 -6.344420e+001 -4.352418e+001 1.328062e+002 -3.412258e-001 -4.366903e+001
80357812.5 -8.222190e-001 -4.536002e+001 6.571442e+000 -6.376568e+001 -4.421962e+001 1.348987e+002 -3.284927e-001 -4.385641e+001
80730000 -8.563372e-001 -4.530762e+001 6.626210e+000 -6.407768e+001 -4.371477e+001 1.314186e+002 -3.076640e-001 -4.401593e+001
81102187.5 -8.535628e-001 -4.554641e+001 6.660440e+000 -6.407529e+001 -4.333692e+001 1.294396e+002 -3.297691e-001 -4.429495e+001
81474375 -8.605865e-001 -4.579349e+001 6.729560e+000 -6.444517e+001 -4.339962e+001 1.317037e+002 -3.374467e-001 -4.460460e+001
81846562.5 -8.710647e-001 -4.594394e+001 6.804395e+000 -6.479824e+001 -4.298761e+001 1.306956e+002 -3.508774e-001 -4.471132e+001
82218750 -8.750338e-001 -4.621087e+001 6.851149e+000 -6.496716e+001 -4.341354e+001 1.261306e+002 -2.988753e-001 -4.490344e+001
82590937.5 -9.083550e-001 -4.616902e+001 6.907207e+000 -6.530790e+001 -4.301865e+001 1.303757e+002 -3.388218e-001 -4.511720e+001
82963125 -9.155600e-001 -4.638180e+001 6.976387e+000 -6.557331e+001 -4.352182e+001 1.304029e+002 -3.242335e-001 -4.537438e+001
83335312.5 -9.247756e-001 -4.674336e+001 7.039931e+000 -6.602901e+001 -4.300879e+001 1.286563e+002 -3.402968e-001 -4.556234e+001
83707500 -9.539486e-001 -4.685079e+001 7.080334e+000 -6.605450e+001 -4.321203e+001 1.266759e+002 -3.281970e-001 -4.579119e+001
84079687.5 -9.792957e-001 -4.702600e+001 7.121258e+000 -6.636817e+001 -4.331571e+001 1.288255e+002 -3.536096e-001 -4.588499e+001
84451875 -9.843076e-001 -4.708411e+001 7.181802e+000 -6.664805e+001 -4.328644e+001 1.271452e+002 -3.528997e-001 -4.607520e+001
84824062.5 -1.009187e+000 -4.733265e+001 7.259894e+000 -6.685167e+001 -4.315091e+001 1.279547e+002 -3.638988e-001 -4.619026e+001
85196250 -9.989426e-001 -4.750565e+001 7.277895e+000 -6.722227e+001 -4.294073e+001 1.291597e+002 -3.695599e-001 -4.636661e+001
85568437.5 -1.001219e+000 -4.755612e+001 7.359828e+000 -6.738748e+001 -4.318764e+001 1.286891e+002 -3.703269e-001 -4.663389e+001
85940625 -1.017143e+000 -4.783147e+001 7.398010e+000 -6.761417e+001 -4.280822e+001 1.279622e+002 -3.598728e-001 -4.696244e+001
86312812.5 -1.058766e+000 -4.801235e+001 7.452644e+000 -6.796453e+001 -4.271170e+001 1.266310e+002 -3.710873e-001 -4.706968e+001
86685000 -1.028011e+000 -4.808209e+001 7.505872e+000 -6.800150e+001 -4.286412e+001 1.240145e+002 -3.960862e-001 -4.714488e+001
87057187.5 -1.056125e+000 -4.816692e+001 7.546776e+000 -6.852525e+001 -4.291003e+001 1.252019e+002 -4.074390e-001 -4.752418e+001
87429375 -1.060673e+000 -4.834293e+001 7.576145e+000 -6.861673e+001 -4.285088e+001 1.262314e+002 -4.096696e-001 -4.766299e+001
87801562.5 -1.056341e+000 -4.857436e+001 7.646749e+000 -6.895024e+001 -4.218850e+001 1.265022e+002 -3.965477e-001 -4.793134e+001
88173750 -1.088465e+000 -4.861479e+001 7.679234e+000 -6.907944e+001 -4.265958e+001 1.232378e+002 -4.101714e-001 -4.805080e+001
88545937.5 -1.103835e+000 -4.874306e+001 7.711164e+000 -6.944215e+001 -4.246613e+001 1.266242e+002 -3.762193e-001 -4.826747e+001
88918125 -1.122869e+000 -4.868738e+001 7.740905e+000 -6.964695e+001 -4.229507e+001 1.265530e+002 -3.908147e-001 -4.839581e+001
89290312.5 -1.129507e+000 -4.904427e+001 7.785739e+000 -6.988831e+001 -4.198372e+001 1.243544e+002 -3.784760e-001 -4.865815e+001
89662500 -1.161263e+000 -4.913010e+001 7.805741e+000 -6.985679e+001 -4.252037e+001 1.238884e+002 -4.367218e-001 -4.891706e+001
90034687.5 -1.168242e+000 -4.926815e+001 7.864892e+000 -7.020880e+001 -4.212755e+001 1.258351e+002 -3.881778e-001 -4.918961e+001
90406875 -1.165732e+000 -4.950719e+001 7.907047e+000 -7.038584e+001 -4.224682e+001 1.228282e+002 -3.929595e-001 -4.939149e+001
90779062.5 -1.171690e+000 -4.941125e+001 7.954990e+000 -7.055413e+001 -4.221632e+001 1.255377e+002 -4.149773e-001 -4.962407e+001
91151250 -1.170030e+000 -4.947083e+001 7.991603e+000 -7.054615e+001 -4.224986e+001 1.216201e+002 -4.626416e-001 -4.963701e+001
91523437.5 -1.163461e+000 -4.971036e+001 8.032365e+000 -7.076043e+001 -4.174569e+001 1.228196e+002 -4.404365e-001 -4.984500e+001
91895625 -1.203416e+000 -4.990065e+001 8.060292e+000 -7.082905e+001 -4.232370e+001 1.244578e+002 -4.238851e-001 -5.005925e+001
92267812.5 -1.194715e+000 -4.981234e+001 8.105834e+000 -7.106059e+001 -4.231764e+001 1.216158e+002 -4.224558e-001 -5.023492e+001
92640000 -1.209994e+000 -4.997293e+001 8.141640e+000 -7.112362e+001 -4.225706e+001 1.225488e+002 -4.348786e-001 -5.028913e+001
93012187.5 -1.233321e+000 -5.016099e+001 8.174764e+000 -7.135856e+001 -4.156186e+001 1.226649e+002 -4.225372e-001 -5.084661e+001
93384375 -1.211192e+000 -5.028623e+001 8.217083e+000 -7.165510e+001 -4.215101e+001 1.209843e+002 -4.163011e-001 -5.100336e+001
93756562.5 -1.217295e+000 -5.013109e+001 8.268016e+000 -7.171760e+001 -4.179416e+001 1.248585e+002 -4.698812e-001 -5.109296e+001
94128750 -1.232156e+000 -5.045035e+001 8.297989e+000 -7.188354e+001 -4.155679e+001 1.214254e+002 -4.843376e-001 -5.138525e+001
94500937.5 -1.258216e+000 -5.045454e+001 8.338072e+000 -7.181144e+001 -4.163061e+001 1.190953e+002 -4.550670e-001 -5.146851e+001
94873125 -1.240821e+000 -5.074018e+001 8.383834e+000 -7.212511e+001 -4.155193e+001 1.238974e+002 -4.630118e-001 -5.170329e+001
95245312.5 -1.252412e+000 -5.063960e+001 8.426072e+000 -7.226173e+001 -4.158529e+001 1.244385e+002 -4.629758e-001 -5.194981e+001
95617500 -1.257733e+000 -5.107076e+001 8.471704e+000 -7.231778e+001 -4.115345e+001 1.216557e+002 -5.019017e-001 -5.227976e+001
95989687.5 -1.231581e+000 -5.104205e+001 8.526430e+000 -7.233617e+001 -4.152280e+001 1.233324e+002 -4.695048e-001 -5.227553e+001
96361875 -1.253733e+000 -5.125932e+001 8.580881e+000 -7.251504e+001 -4.129702e+001 1.236588e+002 -4.712473e-001 -5.244092e+001
96734062.5 -1.273613e+000 -5.127048e+001 8.616428e+000 -7.270512e+001 -4.159589e+001 1.193303e+002 -4.661381e-001 -5.276266e+001
97106250 -1.256729e+000 -5.140771e+001 8.655503e+000 -7.278719e+001 -4.128379e+001 1.214113e+002 -4.823076e-001 -5.299870e+001
97478437.5 -1.265879e+000 -5.149659e+001 8.678235e+000 -7.299043e+001 -4.092497e+001 1.196460e+002 -4.912890e-001 -5.333802e+001
97850625 -1.258304e+000 -5.163464e+001 8.736990e+000 -7.288766e+001 -4.099728e+001 1.176321e+002 -4.863245e-001 -5.343995e+001
98222812.5 -1.263125e+000 -5.182295e+001 8.786064e+000 -7.314182e+001 -4.111641e+001 1.218148e+002 -4.988910e-001 -5.351019e+001
98595000 -1.276158e+000 -5.209438e+001 8.843663e+000 -7.316994e+001 -4.097880e+001 1.198838e+002 -4.912325e-001 -5.368143e+001
98967187.5 -1.278904e+000 -5.212358e+001 8.868769e+000 -7.340115e+001 -4.101447e+001 1.203620e+002 -5.189738e-001 -5.401955e+001
99339375 -1.282562e+000 -5.234023e+001 8.921380e+000 -7.352456e+001 -4.102400e+001 1.205048e+002 -4.696524e-001 -5.410788e+001
99711562.5 -1.272021e+000 -5.235882e+001 8.995197e+000 -7.370884e+001 -4.074845e+001 1.210211e+002 -5.275712e-001 -5.439939e+001
100083750 -1.288622e+000 -5.261437e+001 9.010046e+000 -7.373261e+001 -4.079495e+001 1.203723e+002 -5.225555e-001 -5.458408e+001
100455937.5 -1.286160e+000 -5.269168e+001 9.067636e+000 -7.387029e+001 -4.077979e+001 1.181991e+002 -4.849541e-001 -5.457203e+001
100828125 -1.272188e+000 -5.305840e+001 9.142253e+000 -7.411335e+001 -4.073709e+001 1.186031e+002 -5.221063e-001 -5.488830e+001
101200312.5 -1.281624e+000 -5.291853e+001 9.176084e+000 -7.421375e+001 -4.046964e+001 1.204213e+002 -5.250226e-001 -5.507418e+001
