!Agilent Technologies,E8364A,US41440144,A.06.04.32
!Agilent E8364A: A.06.04.32
!Date: Thursday, November 08, 2018 15:20:55
!Correction: S11(Full 2 Port(1,2)) S21(Full 2 Port(1,2)) S12(Full 2 Port(1,2)) S22(Full 2 Port(1,2)) 
!S2P File: Measurements: S11, S21, S12, S22:
# Hz S  dB   R 50
45000000 -5.889679e-002 -1.513730e+001 -1.178894e+001 -3.511375e+001 -5.595983e+001 1.612946e+002 -5.696480e-002 -1.924895e+001
45372187.5 -7.228310e-002 -1.526386e+001 -1.169210e+001 -3.497691e+001 -7.193449e+001 1.789006e+002 -3.144282e-002 -1.944522e+001
45744375 -6.942800e-002 -1.538954e+001 -1.153980e+001 -3.492866e+001 -5.937073e+001 1.769075e+002 -3.457886e-002 -1.968716e+001
46116562.5 -6.048748e-002 -1.545560e+001 -1.138311e+001 -3.519977e+001 -5.893403e+001 -1.764268e+002 -6.099360e-002 -1.977896e+001
46488750 -6.427870e-002 -1.563364e+001 -1.126188e+001 -3.545063e+001 -5.765443e+001 1.589368e+002 -2.569453e-002 -2.000395e+001
46860937.5 -6.430144e-002 -1.574761e+001 -1.111195e+001 -3.528336e+001 -5.743066e+001 -1.491039e+002 -4.429533e-002 -2.013587e+001
47233125 -6.342819e-002 -1.591902e+001 -1.099024e+001 -3.546848e+001 -6.149890e+001 1.703624e+002 -3.529974e-002 -2.046320e+001
47605312.5 -7.856984e-002 -1.593475e+001 -1.086613e+001 -3.552321e+001 -7.037370e+001 1.458571e+002 -3.565746e-002 -2.063770e+001
47977500 -7.743946e-002 -1.612911e+001 -1.071355e+001 -3.582417e+001 -6.631827e+001 1.554126e+002 -5.097991e-002 -2.077595e+001
48349687.5 -9.795959e-002 -1.629964e+001 -1.064063e+001 -3.570014e+001 -5.943020e+001 -1.796977e+002 -4.350575e-002 -2.081735e+001
48721875 -8.224169e-002 -1.637599e+001 -1.049579e+001 -3.595730e+001 -5.598281e+001 1.231289e+002 -2.970965e-002 -2.096051e+001
49094062.5 -8.362143e-002 -1.656954e+001 -1.037933e+001 -3.602195e+001 -6.261100e+001 1.608999e+002 -3.939740e-002 -2.118340e+001
49466250 -6.810174e-002 -1.672527e+001 -1.026379e+001 -3.613861e+001 -5.466995e+001 1.758455e+002 -4.616677e-002 -2.133459e+001
49838437.5 -8.443133e-002 -1.677872e+001 -1.004006e+001 -3.673821e+001 -6.101511e+001 -1.561906e+002 -3.035759e-002 -2.152160e+001
50210625 -7.862244e-002 -1.687259e+001 -9.987310e+000 -3.645715e+001 -6.293338e+001 7.573378e+001 -3.693529e-002 -2.161273e+001
50582812.5 -8.413613e-002 -1.707178e+001 -9.908376e+000 -3.635955e+001 -6.165834e+001 1.351938e+002 -5.655320e-002 -2.172974e+001
50955000 -8.833861e-002 -1.711663e+001 -9.792603e+000 -3.641603e+001 -6.259454e+001 1.184733e+002 -5.205898e-002 -2.200038e+001
51327187.5 -9.948286e-002 -1.732817e+001 -9.679162e+000 -3.663388e+001 -5.860233e+001 1.508557e+002 -4.805482e-002 -2.217824e+001
51699375 -8.716247e-002 -1.735120e+001 -9.534286e+000 -3.675726e+001 -6.079925e+001 1.784431e+002 -5.332795e-002 -2.247389e+001
52071562.5 -7.887807e-002 -1.763241e+001 -9.420539e+000 -3.688211e+001 -5.999022e+001 -1.610899e+002 -5.404592e-002 -2.243408e+001
52443750 -9.716766e-002 -1.767513e+001 -9.326256e+000 -3.708608e+001 -5.928070e+001 1.728377e+002 -4.898542e-002 -2.266329e+001
52815937.5 -8.336633e-002 -1.783570e+001 -9.176939e+000 -3.713814e+001 -6.503173e+001 1.654344e+002 -5.031996e-002 -2.279149e+001
53188125 -1.016832e-001 -1.800364e+001 -9.092515e+000 -3.726290e+001 -6.153940e+001 1.751060e+002 -4.772582e-002 -2.296810e+001
53560312.5 -9.489533e-002 -1.816366e+001 -8.945190e+000 -3.740286e+001 -6.170888e+001 1.539521e+002 -5.691492e-002 -2.314192e+001
53932500 -9.137946e-002 -1.823106e+001 -8.842488e+000 -3.732611e+001 -6.111950e+001 1.413529e+002 -5.646415e-002 -2.333813e+001
54304687.5 -9.622134e-002 -1.828574e+001 -8.741876e+000 -3.744047e+001 -5.954819e+001 -1.791279e+002 -5.608967e-002 -2.336391e+001
54676875 -9.782668e-002 -1.840687e+001 -8.643727e+000 -3.761893e+001 -5.730320e+001 1.519148e+002 -5.101520e-002 -2.360490e+001
55049062.5 -9.986506e-002 -1.861027e+001 -8.534581e+000 -3.775691e+001 -6.151458e+001 -1.736945e+002 -4.761635e-002 -2.378234e+001
55421250 -9.807821e-002 -1.864931e+001 -8.403691e+000 -3.785576e+001 -5.913187e+001 -1.736567e+002 -5.924049e-002 -2.400847e+001
55793437.5 -1.003532e-001 -1.878250e+001 -8.303180e+000 -3.795935e+001 -6.072789e+001 -1.776612e+002 -5.490149e-002 -2.418521e+001
56165625 -1.118950e-001 -1.901355e+001 -8.195604e+000 -3.806190e+001 -5.795102e+001 1.738468e+002 -4.885796e-002 -2.430688e+001
56537812.5 -1.076577e-001 -1.903759e+001 -8.071801e+000 -3.810203e+001 -5.953312e+001 -1.783197e+002 -5.219461e-002 -2.443767e+001
56910000 -1.097609e-001 -1.920875e+001 -7.985277e+000 -3.833860e+001 -5.923110e+001 1.562511e+002 -6.260502e-002 -2.462943e+001
57282187.5 -1.096345e-001 -1.929218e+001 -7.870807e+000 -3.847089e+001 -5.994391e+001 1.530307e+002 -6.142328e-002 -2.483455e+001
57654375 -1.165784e-001 -1.943576e+001 -7.771792e+000 -3.855419e+001 -5.780377e+001 1.396566e+002 -5.620060e-002 -2.490065e+001
58026562.5 -1.137433e-001 -1.956830e+001 -7.675451e+000 -3.870685e+001 -6.356256e+001 1.339473e+002 -5.191306e-002 -2.509721e+001
58398750 -1.142632e-001 -1.968942e+001 -7.576176e+000 -3.877649e+001 -6.107084e+001 1.667282e+002 -5.103871e-002 -2.522873e+001
58770937.5 -1.145566e-001 -1.987225e+001 -7.440657e+000 -3.901376e+001 -5.790785e+001 1.792757e+002 -5.443056e-002 -2.542684e+001
59143125 -1.236322e-001 -2.000224e+001 -7.348830e+000 -3.907592e+001 -5.641241e+001 1.508331e+002 -7.554688e-002 -2.560831e+001
59515312.5 -1.277203e-001 -1.999974e+001 -7.262357e+000 -3.925393e+001 -5.635979e+001 1.589829e+002 -6.327423e-002 -2.570329e+001
59887500 -1.467539e-001 -2.019836e+001 -7.170599e+000 -3.934805e+001 -5.748499e+001 1.690566e+002 -5.144857e-002 -2.584792e+001
60259687.5 -1.265017e-001 -2.035287e+001 -7.059226e+000 -3.941331e+001 -5.731244e+001 -1.659686e+002 -6.837846e-002 -2.613998e+001
60631875 -1.314363e-001 -2.045293e+001 -6.969604e+000 -3.958855e+001 -5.569868e+001 1.639674e+002 -6.931877e-002 -2.622705e+001
61004062.5 -1.310779e-001 -2.049011e+001 -6.871140e+000 -3.963025e+001 -6.206259e+001 1.755517e+002 -7.854541e-002 -2.641690e+001
61376250 -1.293712e-001 -2.069484e+001 -6.752455e+000 -3.979494e+001 -5.898609e+001 1.658300e+002 -6.113022e-002 -2.653555e+001
61748437.5 -1.502579e-001 -2.090435e+001 -6.671507e+000 -3.995877e+001 -5.501511e+001 -1.787249e+002 -7.706060e-002 -2.681758e+001
62120625 -1.418409e-001 -2.095033e+001 -6.561519e+000 -4.016726e+001 -5.532753e+001 1.491410e+002 -6.690747e-002 -2.692967e+001
62492812.5 -1.497031e-001 -2.110323e+001 -6.479664e+000 -4.010656e+001 -5.772960e+001 1.648494e+002 -6.800894e-002 -2.710662e+001
62865000 -1.398584e-001 -2.125920e+001 -6.369085e+000 -4.042072e+001 -6.112263e+001 1.522606e+002 -6.840307e-002 -2.728193e+001
63237187.5 -1.485677e-001 -2.134054e+001 -6.281779e+000 -4.050706e+001 -5.652882e+001 1.529336e+002 -6.858891e-002 -2.745070e+001
63609375 -1.478142e-001 -2.143241e+001 -6.170733e+000 -4.065142e+001 -5.861536e+001 1.735891e+002 -8.692063e-002 -2.759107e+001
63981562.5 -1.475786e-001 -2.153738e+001 -6.085470e+000 -4.072752e+001 -5.668122e+001 1.468850e+002 -7.719811e-002 -2.765388e+001
64353750 -1.546990e-001 -2.166104e+001 -5.996275e+000 -4.087978e+001 -5.825063e+001 1.314907e+002 -8.993260e-002 -2.800203e+001
64725937.5 -1.501993e-001 -2.183955e+001 -5.891209e+000 -4.109948e+001 -5.510325e+001 1.547509e+002 -8.174980e-002 -2.807353e+001
65098125 -1.619049e-001 -2.191817e+001 -5.805355e+000 -4.116093e+001 -5.646999e+001 1.465688e+002 -6.582887e-002 -2.820440e+001
65470312.5 -1.561451e-001 -2.212044e+001 -5.716519e+000 -4.131892e+001 -5.545668e+001 1.637761e+002 -8.907744e-002 -2.835892e+001
65842500 -1.601683e-001 -2.221735e+001 -5.621591e+000 -4.143414e+001 -5.856473e+001 1.579728e+002 -8.772713e-002 -2.866155e+001
66214687.5 -1.675665e-001 -2.241973e+001 -5.528259e+000 -4.160640e+001 -5.485255e+001 1.563216e+002 -1.042094e-001 -2.874254e+001
66586875 -1.554505e-001 -2.246210e+001 -5.441164e+000 -4.173820e+001 -5.535421e+001 1.522672e+002 -9.467089e-002 -2.894044e+001
66959062.5 -1.661352e-001 -2.261864e+001 -5.344766e+000 -4.181984e+001 -5.788041e+001 1.577186e+002 -9.150870e-002 -2.908723e+001
67331250 -1.813736e-001 -2.270113e+001 -5.279649e+000 -4.191843e+001 -5.636773e+001 1.562968e+002 -1.009638e-001 -2.929394e+001
67703437.5 -1.721432e-001 -2.285736e+001 -5.156737e+000 -4.228239e+001 -5.573031e+001 1.596829e+002 -9.046361e-002 -2.935019e+001
68075625 -1.839753e-001 -2.293483e+001 -5.091835e+000 -4.227555e+001 -5.665088e+001 1.458039e+002 -1.125445e-001 -2.949847e+001
68447812.5 -1.691025e-001 -2.307313e+001 -4.981315e+000 -4.241762e+001 -5.631016e+001 1.579529e+002 -1.022600e-001 -2.962612e+001
68820000 -1.852139e-001 -2.322534e+001 -4.917868e+000 -4.264619e+001 -5.520824e+001 1.642735e+002 -9.883320e-002 -2.989678e+001
69192187.5 -1.829655e-001 -2.338196e+001 -4.817807e+000 -4.271568e+001 -5.428616e+001 1.470483e+002 -1.022222e-001 -3.012236e+001
69564375 -1.821940e-001 -2.342249e+001 -4.739392e+000 -4.283925e+001 -5.439458e+001 1.651423e+002 -1.078850e-001 -3.024769e+001
69936562.5 -1.838285e-001 -2.350473e+001 -4.645235e+000 -4.291919e+001 -5.483266e+001 1.422623e+002 -1.129419e-001 -3.041519e+001
70308750 -1.995768e-001 -2.372429e+001 -4.563336e+000 -4.319060e+001 -5.490305e+001 1.558576e+002 -9.306295e-002 -3.041486e+001
70680937.5 -2.002974e-001 -2.385127e+001 -4.496205e+000 -4.331274e+001 -5.457393e+001 1.541863e+002 -1.203502e-001 -3.065435e+001
71053125 -1.979433e-001 -2.395022e+001 -4.405456e+000 -4.337006e+001 -5.897124e+001 1.680981e+002 -1.033471e-001 -3.077706e+001
71425312.5 -1.964671e-001 -2.405012e+001 -4.309191e+000 -4.353037e+001 -5.592558e+001 1.572679e+002 -1.050037e-001 -3.095643e+001
71797500 -1.873227e-001 -2.425125e+001 -4.221236e+000 -4.370531e+001 -5.503550e+001 1.489603e+002 -1.210851e-001 -3.119462e+001
72169687.5 -2.067385e-001 -2.428261e+001 -4.149110e+000 -4.387360e+001 -5.440404e+001 1.554409e+002 -1.226526e-001 -3.136139e+001
72541875 -2.126762e-001 -2.432789e+001 -4.064363e+000 -4.393685e+001 -5.335297e+001 1.498079e+002 -1.234816e-001 -3.138119e+001
72914062.5 -2.317415e-001 -2.452048e+001 -3.996997e+000 -4.414375e+001 -5.638518e+001 1.396550e+002 -1.158263e-001 -3.159654e+001
73286250 -2.244721e-001 -2.472104e+001 -3.903467e+000 -4.427040e+001 -5.130743e+001 1.587403e+002 -1.078511e-001 -3.174726e+001
73658437.5 -2.243945e-001 -2.476879e+001 -3.822838e+000 -4.445256e+001 -5.349860e+001 1.652301e+002 -1.319439e-001 -3.195251e+001
74030625 -2.291351e-001 -2.496891e+001 -3.735420e+000 -4.459896e+001 -5.478050e+001 1.455370e+002 -1.158426e-001 -3.206500e+001
74402812.5 -2.186783e-001 -2.511731e+001 -3.654747e+000 -4.481552e+001 -5.626278e+001 1.480472e+002 -1.328657e-001 -3.237249e+001
74775000 -2.316179e-001 -2.526307e+001 -3.573327e+000 -4.500433e+001 -5.390908e+001 1.573073e+002 -1.290795e-001 -3.250953e+001
75147187.5 -2.401473e-001 -2.529586e+001 -3.492706e+000 -4.505049e+001 -5.534406e+001 1.433946e+002 -1.151837e-001 -3.269006e+001
75519375 -2.240761e-001 -2.528927e+001 -3.407345e+000 -4.522456e+001 -5.485656e+001 1.467219e+002 -1.256243e-001 -3.284122e+001
75891562.5 -2.473380e-001 -2.565690e+001 -3.339846e+000 -4.540079e+001 -5.385620e+001 1.481904e+002 -1.177596e-001 -3.287760e+001
76263750 -2.392608e-001 -2.566638e+001 -3.253091e+000 -4.558666e+001 -5.462225e+001 1.388865e+002 -1.405490e-001 -3.299035e+001
76635937.5 -2.259215e-001 -2.603134e+001 -3.182105e+000 -4.570258e+001 -5.530365e+001 1.483309e+002 -1.202745e-001 -3.311338e+001
77008125 -2.377353e-001 -2.588857e+001 -3.109329e+000 -4.590385e+001 -5.436991e+001 1.457625e+002 -1.584734e-001 -3.326208e+001
77380312.5 -2.615947e-001 -2.587140e+001 -3.045430e+000 -4.588860e+001 -5.396403e+001 1.563639e+002 -1.501584e-001 -3.358481e+001
77752500 -2.516270e-001 -2.610358e+001 -2.965941e+000 -4.610056e+001 -5.311739e+001 1.490635e+002 -1.112767e-001 -3.372994e+001
78124687.5 -2.531266e-001 -2.627645e+001 -2.868918e+000 -4.628012e+001 -5.458390e+001 1.530654e+002 -1.418505e-001 -3.393046e+001
78496875 -2.468553e-001 -2.635296e+001 -2.796636e+000 -4.638203e+001 -5.332704e+001 1.403924e+002 -1.302201e-001 -3.407532e+001
78869062.5 -2.580174e-001 -2.665305e+001 -2.738338e+000 -4.671604e+001 -5.266324e+001 1.509866e+002 -1.384189e-001 -3.438255e+001
79241250 -2.688054e-001 -2.667161e+001 -2.666023e+000 -4.668706e+001 -5.484209e+001 1.617786e+002 -1.415599e-001 -3.438428e+001
79613437.5 -2.717517e-001 -2.680230e+001 -2.589701e+000 -4.695413e+001 -5.483943e+001 1.456823e+002 -1.580417e-001 -3.444944e+001
79985625 -2.553143e-001 -2.691320e+001 -2.522488e+000 -4.717509e+001 -5.249792e+001 1.564254e+002 -1.551268e-001 -3.473758e+001
80357812.5 -2.708027e-001 -2.701344e+001 -2.439289e+000 -4.725460e+001 -5.351356e+001 1.477856e+002 -1.295045e-001 -3.477617e+001
80730000 -2.683651e-001 -2.713658e+001 -2.362632e+000 -4.758161e+001 -5.356298e+001 1.528025e+002 -1.542054e-001 -3.498624e+001
81102187.5 -3.090776e-001 -2.727220e+001 -2.334684e+000 -4.746143e+001 -5.171353e+001 1.476342e+002 -1.587805e-001 -3.510268e+001
81474375 -2.638081e-001 -2.730355e+001 -2.240127e+000 -4.773594e+001 -5.309032e+001 1.519827e+002 -1.483576e-001 -3.545627e+001
81846562.5 -3.025886e-001 -2.745196e+001 -2.159966e+000 -4.789764e+001 -5.190123e+001 1.486299e+002 -1.591756e-001 -3.556410e+001
82218750 -3.035574e-001 -2.770109e+001 -2.103822e+000 -4.801347e+001 -5.295062e+001 1.331106e+002 -1.297977e-001 -3.553921e+001
82590937.5 -3.334576e-001 -2.760987e+001 -2.048325e+000 -4.828664e+001 -5.167609e+001 1.479738e+002 -1.659017e-001 -3.585604e+001
82963125 -3.049709e-001 -2.788278e+001 -1.954056e+000 -4.850643e+001 -5.304559e+001 1.465447e+002 -1.352466e-001 -3.603374e+001
83335312.5 -2.991307e-001 -2.802551e+001 -1.886901e+000 -4.873551e+001 -5.460194e+001 1.474655e+002 -1.463466e-001 -3.626859e+001
83707500 -3.182863e-001 -2.814675e+001 -1.833744e+000 -4.868335e+001 -5.217821e+001 1.357019e+002 -1.333791e-001 -3.623628e+001
84079687.5 -3.309483e-001 -2.810707e+001 -1.776786e+000 -4.891299e+001 -5.123856e+001 1.444481e+002 -1.388909e-001 -3.654792e+001
84451875 -3.182940e-001 -2.819692e+001 -1.703440e+000 -4.902921e+001 -5.297874e+001 1.449159e+002 -1.672612e-001 -3.673441e+001
84824062.5 -3.272427e-001 -2.844660e+001 -1.609191e+000 -4.913305e+001 -5.244499e+001 1.512858e+002 -1.858529e-001 -3.687257e+001
85196250 -3.195222e-001 -2.847127e+001 -1.580108e+000 -4.941251e+001 -5.198838e+001 1.543257e+002 -1.467353e-001 -3.697223e+001
85568437.5 -3.344426e-001 -2.860435e+001 -1.487018e+000 -4.954774e+001 -5.361894e+001 1.388680e+002 -1.474245e-001 -3.701291e+001
85940625 -3.329173e-001 -2.879332e+001 -1.428135e+000 -4.970150e+001 -5.454878e+001 1.518186e+002 -1.556503e-001 -3.727867e+001
86312812.5 -3.530361e-001 -2.886855e+001 -1.360259e+000 -4.987492e+001 -5.105159e+001 1.496515e+002 -1.655821e-001 -3.742718e+001
86685000 -3.205910e-001 -2.899702e+001 -1.302649e+000 -4.997691e+001 -5.258994e+001 1.417541e+002 -1.868641e-001 -3.748018e+001
87057187.5 -3.430648e-001 -2.915296e+001 -1.247308e+000 -5.026004e+001 -5.216671e+001 1.425208e+002 -1.835288e-001 -3.774522e+001
87429375 -3.534056e-001 -2.919631e+001 -1.205540e+000 -5.026490e+001 -5.186874e+001 1.456360e+002 -1.918495e-001 -3.779942e+001
87801562.5 -3.393335e-001 -2.928965e+001 -1.117064e+000 -5.057728e+001 -5.229520e+001 1.444717e+002 -1.760848e-001 -3.797739e+001
88173750 -3.629395e-001 -2.935411e+001 -1.057038e+000 -5.057121e+001 -5.279467e+001 1.336102e+002 -2.049564e-001 -3.805913e+001
88545937.5 -3.433711e-001 -2.956230e+001 -9.990801e-001 -5.088307e+001 -5.250668e+001 1.468998e+002 -1.814798e-001 -3.835559e+001
88918125 -3.626408e-001 -2.954297e+001 -9.660127e-001 -5.083548e+001 -5.063897e+001 1.465934e+002 -1.858717e-001 -3.828973e+001
89290312.5 -3.625262e-001 -2.980281e+001 -9.102866e-001 -5.109587e+001 -5.225394e+001 1.458464e+002 -1.712595e-001 -3.865258e+001
89662500 -3.795954e-001 -2.999922e+001 -8.672206e-001 -5.111711e+001 -5.192844e+001 1.434029e+002 -2.045885e-001 -3.889059e+001
90034687.5 -3.660464e-001 -2.994625e+001 -7.759357e-001 -5.145905e+001 -5.024090e+001 1.515524e+002 -1.706977e-001 -3.896070e+001
90406875 -3.586746e-001 -3.020247e+001 -7.035680e-001 -5.149140e+001 -5.242430e+001 1.393889e+002 -1.938261e-001 -3.904595e+001
90779062.5 -3.869011e-001 -3.023376e+001 -6.817350e-001 -5.167802e+001 -5.188387e+001 1.421456e+002 -1.944614e-001 -3.929527e+001
91151250 -3.738610e-001 -3.014857e+001 -6.049794e-001 -5.151995e+001 -5.070354e+001 1.418053e+002 -2.509095e-001 -3.938898e+001
91523437.5 -3.744457e-001 -3.026313e+001 -5.609117e-001 -5.158913e+001 -5.082947e+001 1.418305e+002 -2.177408e-001 -3.955841e+001
91895625 -3.750112e-001 -3.053748e+001 -5.194241e-001 -5.171911e+001 -5.134940e+001 1.427294e+002 -2.073629e-001 -3.975452e+001
92267812.5 -3.693574e-001 -3.049765e+001 -4.453036e-001 -5.197211e+001 -5.246486e+001 1.460374e+002 -1.894169e-001 -3.982434e+001
92640000 -3.903546e-001 -3.052945e+001 -3.970419e-001 -5.187595e+001 -5.138717e+001 1.431125e+002 -2.252313e-001 -3.992069e+001
93012187.5 -4.132324e-001 -3.082604e+001 -3.412807e-001 -5.215474e+001 -5.033435e+001 1.422054e+002 -1.880314e-001 -4.033426e+001
93384375 -3.983118e-001 -3.097340e+001 -2.515842e-001 -5.251389e+001 -5.068851e+001 1.387842e+002 -1.711074e-001 -4.061514e+001
93756562.5 -3.962988e-001 -3.096189e+001 -2.292543e-001 -5.252800e+001 -5.042800e+001 1.491689e+002 -2.071737e-001 -4.056977e+001
94128750 -4.165314e-001 -3.106702e+001 -1.582476e-001 -5.257209e+001 -5.054423e+001 1.382380e+002 -2.050187e-001 -4.081208e+001
94500937.5 -4.154611e-001 -3.107995e+001 -1.127741e-001 -5.254576e+001 -5.118565e+001 1.328072e+002 -2.165870e-001 -4.079997e+001
94873125 -4.044842e-001 -3.138618e+001 -5.243872e-002 -5.276812e+001 -5.116688e+001 1.423908e+002 -2.079882e-001 -4.128903e+001
95245312.5 -4.314953e-001 -3.142122e+001 1.355852e-002 -5.291575e+001 -5.061197e+001 1.424768e+002 -2.290478e-001 -4.128709e+001
95617500 -4.181775e-001 -3.165253e+001 6.399656e-002 -5.283148e+001 -5.012888e+001 1.475477e+002 -2.444835e-001 -4.143132e+001
95989687.5 -4.009349e-001 -3.161153e+001 1.310413e-001 -5.285567e+001 -5.097839e+001 1.420621e+002 -2.077597e-001 -4.158506e+001
96361875 -4.098259e-001 -3.179241e+001 1.899361e-001 -5.306415e+001 -4.966024e+001 1.430878e+002 -2.203278e-001 -4.168739e+001
96734062.5 -4.257103e-001 -3.183498e+001 2.441508e-001 -5.329400e+001 -5.153962e+001 1.451492e+002 -1.777852e-001 -4.175349e+001
97106250 -4.190315e-001 -3.199781e+001 3.134110e-001 -5.326253e+001 -5.013560e+001 1.387263e+002 -2.248140e-001 -4.208213e+001
97478437.5 -4.132280e-001 -3.210550e+001 3.544092e-001 -5.345053e+001 -4.964811e+001 1.401237e+002 -2.037091e-001 -4.235820e+001
97850625 -3.996463e-001 -3.215849e+001 4.211985e-001 -5.333960e+001 -5.040538e+001 1.352099e+002 -1.985191e-001 -4.235672e+001
98222812.5 -4.277725e-001 -3.225345e+001 4.540826e-001 -5.358326e+001 -5.045512e+001 1.381093e+002 -2.055205e-001 -4.252240e+001
98595000 -4.022736e-001 -3.252324e+001 5.520756e-001 -5.355105e+001 -4.999239e+001 1.381889e+002 -2.110914e-001 -4.270329e+001
98967187.5 -4.180420e-001 -3.251314e+001 6.015065e-001 -5.375367e+001 -5.035583e+001 1.471023e+002 -2.376668e-001 -4.286618e+001
99339375 -4.365002e-001 -3.271734e+001 6.223020e-001 -5.376724e+001 -5.002993e+001 1.413973e+002 -2.237450e-001 -4.297611e+001
99711562.5 -4.265512e-001 -3.275538e+001 7.246603e-001 -5.396669e+001 -4.958782e+001 1.416740e+002 -2.287305e-001 -4.324940e+001
100083750 -4.240619e-001 -3.289243e+001 7.506958e-001 -5.387844e+001 -4.920609e+001 1.390599e+002 -2.138320e-001 -4.328170e+001
100455937.5 -4.158193e-001 -3.290152e+001 8.318517e-001 -5.401815e+001 -4.960744e+001 1.409618e+002 -2.323938e-001 -4.343829e+001
100828125 -3.910543e-001 -3.328797e+001 9.199430e-001 -5.421899e+001 -4.977636e+001 1.391966e+002 -2.208581e-001 -4.355389e+001
