!Agilent Technologies,E8364A,US41440144,A.06.04.32
!Agilent E8364A: A.06.04.32
!Date: Thursday, November 08, 2018 14:50:07
!Correction: S11(Full 2 Port(1,2)) S21(Full 2 Port(1,2)) S12(Full 2 Port(1,2)) S22(Full 2 Port(1,2)) 
!S2P File: Measurements: S11, S21, S12, S22:
# Hz S  dB   R 50
45000000 -1.389003e-001 -2.513985e+001 -1.298748e+001 -3.500048e+001 -5.751729e+001 1.688288e+002 -2.854853e-002 -1.188745e+001
45372187.5 -1.597457e-001 -2.535773e+001 -1.286867e+001 -3.531747e+001 -6.055127e+001 -1.279461e+002 -1.394504e-002 -1.196926e+001
45744375 -1.647192e-001 -2.563486e+001 -1.275807e+001 -3.531505e+001 -6.573899e+001 1.742991e+002 -6.200247e-003 -1.209021e+001
46116562.5 -1.642010e-001 -2.567373e+001 -1.260399e+001 -3.560606e+001 -6.616031e+001 1.377348e+002 -2.923602e-002 -1.211080e+001
46488750 -1.588629e-001 -2.596961e+001 -1.245234e+001 -3.557671e+001 -5.956153e+001 1.749391e+002 -1.193873e-002 -1.220782e+001
46860937.5 -1.774075e-001 -2.608989e+001 -1.232695e+001 -3.555221e+001 -5.737371e+001 -1.777325e+002 -1.650758e-002 -1.228393e+001
47233125 -1.734531e-001 -2.634269e+001 -1.217512e+001 -3.576889e+001 -6.088961e+001 1.436661e+002 -3.145469e-002 -1.250994e+001
47605312.5 -1.862374e-001 -2.652874e+001 -1.208331e+001 -3.606264e+001 -6.414852e+001 1.708916e+002 -1.943478e-002 -1.272352e+001
47977500 -1.903659e-001 -2.672710e+001 -1.196507e+001 -3.625201e+001 -6.130520e+001 1.280313e+002 -1.232970e-002 -1.274315e+001
48349687.5 -2.056130e-001 -2.695138e+001 -1.183988e+001 -3.622222e+001 -5.903479e+001 1.394224e+002 -5.458103e-003 -1.286493e+001
48721875 -2.020758e-001 -2.714323e+001 -1.172655e+001 -3.676583e+001 -5.973812e+001 1.183463e+002 3.744092e-004 -1.289910e+001
49094062.5 -2.006276e-001 -2.739037e+001 -1.163244e+001 -3.663789e+001 -5.824446e+001 1.710573e+002 6.104496e-003 -1.299130e+001
49466250 -2.039570e-001 -2.764194e+001 -1.147019e+001 -3.668498e+001 -5.560634e+001 1.798915e+002 -1.103419e-002 -1.305071e+001
49838437.5 -2.102841e-001 -2.783134e+001 -1.137826e+001 -3.703518e+001 -6.453526e+001 -1.704151e+002 5.038416e-003 -1.317521e+001
50210625 -2.214402e-001 -2.802847e+001 -1.124420e+001 -3.732191e+001 -7.368589e+001 3.106868e+001 -1.599191e-002 -1.338111e+001
50582812.5 -2.278355e-001 -2.819725e+001 -1.113610e+001 -3.728006e+001 -6.050935e+001 1.372662e+002 -2.401468e-002 -1.325678e+001
50955000 -2.350044e-001 -2.839095e+001 -1.100951e+001 -3.734215e+001 -5.960038e+001 1.178180e+002 -2.552073e-002 -1.350581e+001
51327187.5 -2.383357e-001 -2.855389e+001 -1.089560e+001 -3.760036e+001 -6.247282e+001 1.422110e+002 -7.947084e-003 -1.359306e+001
51699375 -2.394935e-001 -2.880132e+001 -1.077488e+001 -3.779946e+001 -6.785205e+001 1.636740e+002 -3.393441e-002 -1.379653e+001
52071562.5 -2.358831e-001 -2.902143e+001 -1.066505e+001 -3.784456e+001 -6.052904e+001 1.692634e+002 -2.988783e-002 -1.374319e+001
52443750 -2.579804e-001 -2.920901e+001 -1.056996e+001 -3.807721e+001 -5.873592e+001 1.478212e+002 -7.552054e-003 -1.391260e+001
52815937.5 -2.444783e-001 -2.950825e+001 -1.040096e+001 -3.829847e+001 -5.774560e+001 1.657054e+002 -2.119624e-002 -1.411372e+001
53188125 -2.682351e-001 -2.958109e+001 -1.032855e+001 -3.823177e+001 -6.232643e+001 -1.682522e+002 -1.575548e-002 -1.409506e+001
53560312.5 -2.753845e-001 -2.991779e+001 -1.021614e+001 -3.848252e+001 -6.056924e+001 1.401382e+002 -2.283704e-002 -1.417755e+001
53932500 -2.797847e-001 -3.004739e+001 -1.010210e+001 -3.863396e+001 -6.717802e+001 1.568576e+002 -2.576941e-002 -1.429384e+001
54304687.5 -2.766505e-001 -3.030234e+001 -9.990256e+000 -3.876665e+001 -6.233403e+001 1.766716e+002 -3.494162e-002 -1.439705e+001
54676875 -2.857511e-001 -3.042569e+001 -9.877875e+000 -3.882415e+001 -5.754855e+001 1.093416e+002 -1.980311e-002 -1.442151e+001
55049062.5 -2.903094e-001 -3.063900e+001 -9.786731e+000 -3.904222e+001 -5.994460e+001 1.600591e+002 -1.626899e-002 -1.457696e+001
55421250 -3.051964e-001 -3.080220e+001 -9.671451e+000 -3.922423e+001 -6.094044e+001 1.705149e+002 -2.344738e-002 -1.463572e+001
55793437.5 -3.119363e-001 -3.103094e+001 -9.570964e+000 -3.927793e+001 -5.993893e+001 1.657809e+002 -3.043435e-002 -1.480250e+001
56165625 -3.084312e-001 -3.125680e+001 -9.449351e+000 -3.939855e+001 -5.782730e+001 1.504072e+002 -2.741784e-002 -1.495361e+001
56537812.5 -3.101967e-001 -3.144286e+001 -9.319655e+000 -3.958871e+001 -6.473174e+001 1.625308e+002 -1.872399e-002 -1.491257e+001
56910000 -3.306461e-001 -3.174128e+001 -9.246516e+000 -3.974792e+001 -5.693121e+001 1.485288e+002 -2.275868e-002 -1.506277e+001
57282187.5 -3.292619e-001 -3.184042e+001 -9.120429e+000 -4.007488e+001 -5.636180e+001 1.431488e+002 -2.928747e-002 -1.526335e+001
57654375 -3.243970e-001 -3.201775e+001 -9.033811e+000 -4.012314e+001 -5.772065e+001 1.406448e+002 -1.523816e-002 -1.527618e+001
58026562.5 -3.435437e-001 -3.225307e+001 -8.937820e+000 -4.040379e+001 -6.248277e+001 1.509219e+002 -1.329382e-002 -1.533498e+001
58398750 -3.475848e-001 -3.244075e+001 -8.852339e+000 -4.045095e+001 -6.394101e+001 -1.758830e+002 -2.220583e-002 -1.551058e+001
58770937.5 -3.564550e-001 -3.269978e+001 -8.720538e+000 -4.063822e+001 -5.870783e+001 1.591321e+002 -2.105249e-002 -1.548504e+001
59143125 -3.640924e-001 -3.292266e+001 -8.613667e+000 -4.084579e+001 -5.606794e+001 1.642694e+002 -3.677703e-002 -1.577529e+001
59515312.5 -3.654793e-001 -3.309436e+001 -8.540209e+000 -4.105431e+001 -5.756830e+001 1.615820e+002 -2.805129e-002 -1.572176e+001
59887500 -3.798276e-001 -3.324367e+001 -8.432867e+000 -4.109170e+001 -5.466774e+001 1.684077e+002 -1.123845e-002 -1.584819e+001
60259687.5 -3.805564e-001 -3.347572e+001 -8.333658e+000 -4.120247e+001 -5.683131e+001 -1.662104e+002 -2.584308e-002 -1.600584e+001
60631875 -3.852433e-001 -3.377125e+001 -8.235055e+000 -4.151172e+001 -5.617612e+001 1.556044e+002 -2.671796e-002 -1.614030e+001
61004062.5 -3.963311e-001 -3.385214e+001 -8.155070e+000 -4.157409e+001 -6.018968e+001 1.760149e+002 -3.012934e-002 -1.623824e+001
61376250 -3.979564e-001 -3.411952e+001 -8.036042e+000 -4.170353e+001 -5.653827e+001 1.456736e+002 -2.418117e-002 -1.619035e+001
61748437.5 -4.144980e-001 -3.424453e+001 -7.949027e+000 -4.193731e+001 -5.847149e+001 1.649730e+002 -3.773052e-002 -1.650933e+001
62120625 -4.194027e-001 -3.449197e+001 -7.857118e+000 -4.219411e+001 -5.549385e+001 1.342012e+002 -2.638687e-002 -1.654671e+001
62492812.5 -4.247195e-001 -3.469283e+001 -7.760244e+000 -4.229557e+001 -5.662339e+001 1.633858e+002 -2.597999e-002 -1.653967e+001
62865000 -4.338853e-001 -3.491265e+001 -7.672344e+000 -4.262223e+001 -5.809439e+001 1.695803e+002 -2.144063e-002 -1.671836e+001
63237187.5 -4.241265e-001 -3.508076e+001 -7.576872e+000 -4.257643e+001 -5.524206e+001 1.507962e+002 -1.218146e-002 -1.675937e+001
63609375 -4.454885e-001 -3.535353e+001 -7.478169e+000 -4.294276e+001 -5.938444e+001 1.549223e+002 -4.182050e-002 -1.684776e+001
63981562.5 -4.425480e-001 -3.539980e+001 -7.405424e+000 -4.286736e+001 -5.708124e+001 1.440212e+002 -3.436089e-002 -1.696910e+001
64353750 -4.466250e-001 -3.563363e+001 -7.291869e+000 -4.305373e+001 -6.049407e+001 1.449118e+002 -2.949239e-002 -1.719445e+001
64725937.5 -4.565555e-001 -3.588237e+001 -7.207500e+000 -4.342342e+001 -5.367231e+001 1.541670e+002 -2.191297e-002 -1.726178e+001
65098125 -4.797273e-001 -3.609496e+001 -7.115737e+000 -4.355963e+001 -5.763534e+001 1.440563e+002 -1.646591e-002 -1.730681e+001
65470312.5 -4.830858e-001 -3.624928e+001 -7.049673e+000 -4.359901e+001 -5.420870e+001 1.530995e+002 -2.941143e-002 -1.729878e+001
65842500 -4.934726e-001 -3.651345e+001 -6.943990e+000 -4.383292e+001 -5.840344e+001 1.453346e+002 -3.572712e-002 -1.751720e+001
66214687.5 -4.962596e-001 -3.669974e+001 -6.846947e+000 -4.397730e+001 -5.692465e+001 1.539758e+002 -3.383771e-002 -1.762188e+001
66586875 -5.052427e-001 -3.684104e+001 -6.791282e+000 -4.420440e+001 -5.627875e+001 1.472257e+002 -4.327272e-002 -1.774550e+001
66959062.5 -5.185650e-001 -3.706849e+001 -6.694337e+000 -4.421121e+001 -5.786797e+001 1.562684e+002 -3.759900e-002 -1.784208e+001
67331250 -5.182832e-001 -3.721751e+001 -6.603846e+000 -4.450245e+001 -5.639049e+001 1.457160e+002 -4.310110e-002 -1.790268e+001
67703437.5 -5.298969e-001 -3.753007e+001 -6.506886e+000 -4.479769e+001 -5.852508e+001 1.549328e+002 -4.767869e-002 -1.803054e+001
68075625 -5.479105e-001 -3.762249e+001 -6.434372e+000 -4.482822e+001 -5.632922e+001 1.432609e+002 -4.713714e-002 -1.805508e+001
68447812.5 -5.493526e-001 -3.781705e+001 -6.335427e+000 -4.504221e+001 -5.781299e+001 1.472563e+002 -2.513508e-002 -1.818474e+001
68820000 -5.604603e-001 -3.797965e+001 -6.277038e+000 -4.525748e+001 -5.925434e+001 1.512260e+002 -3.458804e-002 -1.828728e+001
69192187.5 -5.568938e-001 -3.827665e+001 -6.173858e+000 -4.536564e+001 -5.720168e+001 1.354706e+002 -3.523340e-002 -1.845545e+001
69564375 -5.611514e-001 -3.840701e+001 -6.104963e+000 -4.556236e+001 -5.420540e+001 1.571809e+002 -3.840370e-002 -1.860006e+001
69936562.5 -5.671650e-001 -3.859225e+001 -6.009503e+000 -4.579749e+001 -5.471381e+001 1.431726e+002 -4.273488e-002 -1.865569e+001
70308750 -5.876990e-001 -3.877805e+001 -5.934367e+000 -4.592033e+001 -5.540599e+001 1.541152e+002 -3.589531e-002 -1.870013e+001
70680937.5 -5.964303e-001 -3.899997e+001 -5.852804e+000 -4.612251e+001 -5.860462e+001 1.469790e+002 -5.715622e-002 -1.884504e+001
71053125 -6.070431e-001 -3.914973e+001 -5.778033e+000 -4.623015e+001 -5.465099e+001 1.572837e+002 -4.249904e-002 -1.880022e+001
71425312.5 -5.994335e-001 -3.934060e+001 -5.708053e+000 -4.642369e+001 -5.716964e+001 1.546920e+002 -3.169725e-002 -1.898956e+001
71797500 -6.067142e-001 -3.951956e+001 -5.616142e+000 -4.655906e+001 -5.429242e+001 1.542686e+002 -4.999510e-002 -1.913126e+001
72169687.5 -6.280926e-001 -3.969633e+001 -5.539986e+000 -4.677129e+001 -5.411248e+001 1.602953e+002 -5.199426e-002 -1.915199e+001
72541875 -6.398867e-001 -3.996222e+001 -5.466565e+000 -4.702348e+001 -5.441081e+001 1.369093e+002 -6.751714e-002 -1.923676e+001
72914062.5 -6.565604e-001 -4.005089e+001 -5.401153e+000 -4.719634e+001 -5.565277e+001 1.425649e+002 -5.020121e-002 -1.936747e+001
73286250 -6.660147e-001 -4.032007e+001 -5.321311e+000 -4.729952e+001 -5.433622e+001 1.485106e+002 -4.579892e-002 -1.953389e+001
73658437.5 -6.710455e-001 -4.048325e+001 -5.233462e+000 -4.761009e+001 -5.428916e+001 1.458728e+002 -4.732261e-002 -1.954941e+001
74030625 -6.806844e-001 -4.064256e+001 -5.163612e+000 -4.775834e+001 -5.706503e+001 1.450663e+002 -4.113099e-002 -1.958603e+001
74402812.5 -6.803626e-001 -4.097408e+001 -5.090713e+000 -4.801368e+001 -5.627390e+001 1.486360e+002 -5.219396e-002 -1.993465e+001
74775000 -7.003772e-001 -4.113292e+001 -5.008206e+000 -4.822594e+001 -5.508343e+001 1.419232e+002 -6.096458e-002 -2.007691e+001
75147187.5 -7.026039e-001 -4.120551e+001 -4.939283e+000 -4.820889e+001 -5.510519e+001 1.422253e+002 -3.747423e-002 -2.003121e+001
75519375 -7.052918e-001 -4.149829e+001 -4.857469e+000 -4.853745e+001 -5.347009e+001 1.528564e+002 -3.854335e-002 -2.008881e+001
75891562.5 -7.469019e-001 -4.164338e+001 -4.797394e+000 -4.876724e+001 -5.610649e+001 1.438537e+002 -4.971251e-002 -2.014007e+001
76263750 -7.503409e-001 -4.180158e+001 -4.727754e+000 -4.896674e+001 -5.530454e+001 1.311376e+002 -5.562367e-002 -2.027522e+001
76635937.5 -7.435735e-001 -4.217471e+001 -4.648785e+000 -4.909946e+001 -5.577091e+001 1.258443e+002 -5.956256e-002 -2.031216e+001
77008125 -7.365159e-001 -4.215363e+001 -4.576066e+000 -4.933598e+001 -5.357754e+001 1.377848e+002 -6.821613e-002 -2.033187e+001
77380312.5 -7.513767e-001 -4.224810e+001 -4.519167e+000 -4.942879e+001 -5.467936e+001 1.499155e+002 -6.263040e-002 -2.072902e+001
77752500 -7.740609e-001 -4.258199e+001 -4.463439e+000 -4.972470e+001 -5.306299e+001 1.434772e+002 -5.378117e-002 -2.061751e+001
78124687.5 -7.964763e-001 -4.271041e+001 -4.362869e+000 -4.983418e+001 -5.502895e+001 1.466535e+002 -6.046821e-002 -2.078905e+001
78496875 -7.912570e-001 -4.292670e+001 -4.296420e+000 -5.008361e+001 -5.215159e+001 1.443821e+002 -4.929985e-002 -2.087523e+001
78869062.5 -8.128053e-001 -4.313767e+001 -4.247314e+000 -5.034546e+001 -5.484836e+001 1.408342e+002 -5.025298e-002 -2.095771e+001
79241250 -8.257750e-001 -4.325856e+001 -4.175255e+000 -5.040825e+001 -5.508766e+001 1.428383e+002 -7.119217e-002 -2.121361e+001
79613437.5 -8.145353e-001 -4.343426e+001 -4.094502e+000 -5.072385e+001 -5.595033e+001 1.487038e+002 -8.360685e-002 -2.121696e+001
79985625 -8.298327e-001 -4.380135e+001 -4.029420e+000 -5.088414e+001 -5.357675e+001 1.485897e+002 -7.501454e-002 -2.130686e+001
80357812.5 -8.669046e-001 -4.390217e+001 -3.976601e+000 -5.107101e+001 -5.423901e+001 1.481677e+002 -7.191028e-002 -2.131331e+001
80730000 -8.558247e-001 -4.399380e+001 -3.897605e+000 -5.144119e+001 -5.408399e+001 1.384690e+002 -6.575854e-002 -2.138441e+001
81102187.5 -9.065124e-001 -4.400779e+001 -3.870805e+000 -5.133352e+001 -5.360725e+001 1.425020e+002 -6.221467e-002 -2.169001e+001
81474375 -8.866199e-001 -4.417061e+001 -3.798375e+000 -5.171227e+001 -5.333967e+001 1.443071e+002 -5.738964e-002 -2.181273e+001
81846562.5 -9.066645e-001 -4.439218e+001 -3.720173e+000 -5.188064e+001 -5.240507e+001 1.390219e+002 -7.599448e-002 -2.174342e+001
82218750 -9.061447e-001 -4.454168e+001 -3.661995e+000 -5.194397e+001 -5.499776e+001 1.339977e+002 -3.305870e-002 -2.182370e+001
82590937.5 -9.452587e-001 -4.480964e+001 -3.617490e+000 -5.231696e+001 -5.460528e+001 1.334681e+002 -7.288089e-002 -2.190904e+001
82963125 -9.447373e-001 -4.502460e+001 -3.538126e+000 -5.248727e+001 -5.469271e+001 1.423149e+002 -5.255108e-002 -2.218547e+001
83335312.5 -9.489717e-001 -4.514016e+001 -3.476779e+000 -5.283120e+001 -5.529415e+001 1.261355e+002 -7.445106e-002 -2.213128e+001
83707500 -9.589868e-001 -4.521593e+001 -3.423466e+000 -5.280235e+001 -5.464291e+001 1.308467e+002 -5.279280e-002 -2.224764e+001
84079687.5 -9.769365e-001 -4.531509e+001 -3.383807e+000 -5.306123e+001 -5.318079e+001 1.475641e+002 -5.512700e-002 -2.220896e+001
84451875 -1.004364e+000 -4.538345e+001 -3.339256e+000 -5.317735e+001 -5.393562e+001 1.419245e+002 -8.080656e-002 -2.250405e+001
84824062.5 -1.027458e+000 -4.572639e+001 -3.254495e+000 -5.342790e+001 -5.357659e+001 1.464748e+002 -5.966656e-002 -2.261409e+001
85196250 -1.009012e+000 -4.579593e+001 -3.228997e+000 -5.364367e+001 -5.379704e+001 1.521371e+002 -5.608821e-002 -2.258718e+001
85568437.5 -1.033475e+000 -4.597830e+001 -3.138929e+000 -5.383551e+001 -5.417557e+001 1.318719e+002 -4.528193e-002 -2.251525e+001
85940625 -1.034777e+000 -4.629016e+001 -3.095721e+000 -5.409862e+001 -5.422091e+001 1.461898e+002 -7.578261e-002 -2.276742e+001
86312812.5 -1.066177e+000 -4.632890e+001 -3.041103e+000 -5.427477e+001 -5.142209e+001 1.373844e+002 -8.510759e-002 -2.288985e+001
86685000 -1.035531e+000 -4.638604e+001 -2.986608e+000 -5.432259e+001 -5.325062e+001 1.513215e+002 -8.139723e-002 -2.294718e+001
87057187.5 -1.050350e+000 -4.651674e+001 -2.939410e+000 -5.466219e+001 -5.410081e+001 1.410481e+002 -6.924105e-002 -2.320278e+001
87429375 -1.071080e+000 -4.655583e+001 -2.906789e+000 -5.465314e+001 -5.302853e+001 1.410816e+002 -8.077978e-002 -2.312293e+001
87801562.5 -1.080162e+000 -4.689336e+001 -2.846413e+000 -5.503382e+001 -5.222637e+001 1.342343e+002 -5.485667e-002 -2.335659e+001
88173750 -1.097040e+000 -4.704372e+001 -2.793927e+000 -5.507239e+001 -5.264257e+001 1.259662e+002 -6.021354e-002 -2.352339e+001
88545937.5 -1.083953e+000 -4.710999e+001 -2.741210e+000 -5.536525e+001 -5.230264e+001 1.440991e+002 -5.662405e-002 -2.364965e+001
88918125 -1.129054e+000 -4.709661e+001 -2.726251e+000 -5.536520e+001 -5.161452e+001 1.411347e+002 -6.084817e-002 -2.364300e+001
89290312.5 -1.130870e+000 -4.733350e+001 -2.675483e+000 -5.564413e+001 -5.159230e+001 1.365194e+002 -6.670794e-002 -2.379629e+001
89662500 -1.159452e+000 -4.748298e+001 -2.650241e+000 -5.557712e+001 -5.409719e+001 1.441389e+002 -8.067236e-002 -2.392442e+001
90034687.5 -1.133356e+000 -4.745560e+001 -2.581356e+000 -5.587637e+001 -5.272751e+001 1.456144e+002 -3.794277e-002 -2.381582e+001
90406875 -1.141540e+000 -4.753919e+001 -2.530906e+000 -5.594743e+001 -5.287875e+001 1.361927e+002 -9.163018e-002 -2.410891e+001
90779062.5 -1.179647e+000 -4.768729e+001 -2.505399e+000 -5.608902e+001 -5.185010e+001 1.370115e+002 -9.859347e-002 -2.413226e+001
91151250 -1.185265e+000 -4.781013e+001 -2.467308e+000 -5.600293e+001 -5.298719e+001 1.393138e+002 -1.098980e-001 -2.420499e+001
91523437.5 -1.177795e+000 -4.792971e+001 -2.419158e+000 -5.616955e+001 -5.183251e+001 1.366836e+002 -1.059829e-001 -2.426246e+001
91895625 -1.188922e+000 -4.800647e+001 -2.390445e+000 -5.612344e+001 -5.316278e+001 1.395450e+002 -7.504616e-002 -2.434194e+001
92267812.5 -1.188481e+000 -4.805383e+001 -2.344078e+000 -5.641286e+001 -5.292741e+001 1.363704e+002 -6.323807e-002 -2.439023e+001
92640000 -1.201599e+000 -4.830384e+001 -2.308933e+000 -5.641683e+001 -5.265538e+001 1.352751e+002 -9.526514e-002 -2.458108e+001
93012187.5 -1.206481e+000 -4.820316e+001 -2.266270e+000 -5.649024e+001 -5.288899e+001 1.385943e+002 -8.923621e-002 -2.489519e+001
93384375 -1.207142e+000 -4.838840e+001 -2.214909e+000 -5.674230e+001 -5.146266e+001 1.325586e+002 -7.521816e-002 -2.496533e+001
93756562.5 -1.179922e+000 -4.832498e+001 -2.171233e+000 -5.674549e+001 -5.197799e+001 1.398525e+002 -7.950931e-002 -2.486825e+001
94128750 -1.219558e+000 -4.858421e+001 -2.135683e+000 -5.682346e+001 -5.220574e+001 1.337026e+002 -7.162882e-002 -2.515307e+001
94500937.5 -1.217641e+000 -4.868766e+001 -2.088369e+000 -5.674229e+001 -5.180154e+001 1.308974e+002 -8.619979e-002 -2.514817e+001
94873125 -1.217235e+000 -4.890671e+001 -2.050501e+000 -5.689000e+001 -5.158104e+001 1.360579e+002 -8.908533e-002 -2.519994e+001
95245312.5 -1.223005e+000 -4.884410e+001 -2.004231e+000 -5.706459e+001 -5.079601e+001 1.430631e+002 -7.621909e-002 -2.524610e+001
95617500 -1.212170e+000 -4.910643e+001 -1.950494e+000 -5.694408e+001 -5.074769e+001 1.384048e+002 -1.054006e-001 -2.536812e+001
95989687.5 -1.208934e+000 -4.921666e+001 -1.904362e+000 -5.694266e+001 -5.284797e+001 1.362113e+002 -9.481616e-002 -2.554453e+001
96361875 -1.225331e+000 -4.930695e+001 -1.853767e+000 -5.711161e+001 -5.148619e+001 1.398029e+002 -8.362689e-002 -2.565183e+001
96734062.5 -1.228500e+000 -4.941253e+001 -1.816600e+000 -5.722359e+001 -5.250819e+001 1.326502e+002 -8.634934e-002 -2.573668e+001
97106250 -1.203932e+000 -4.951037e+001 -1.769421e+000 -5.715778e+001 -5.215616e+001 1.366812e+002 -7.606085e-002 -2.602913e+001
97478437.5 -1.187714e+000 -4.956573e+001 -1.748538e+000 -5.734985e+001 -5.212748e+001 1.354745e+002 -6.493004e-002 -2.609027e+001
97850625 -1.222168e+000 -4.980003e+001 -1.698563e+000 -5.738173e+001 -5.085150e+001 1.304981e+002 -8.288573e-002 -2.604757e+001
98222812.5 -1.212255e+000 -4.992583e+001 -1.636453e+000 -5.737407e+001 -5.218212e+001 1.297769e+002 -8.048391e-002 -2.612735e+001
98595000 -1.210482e+000 -5.002056e+001 -1.601163e+000 -5.726655e+001 -5.125647e+001 1.383436e+002 -7.849844e-002 -2.608666e+001
98967187.5 -1.251064e+000 -5.016551e+001 -1.548142e+000 -5.741678e+001 -5.138527e+001 1.397427e+002 -1.063628e-001 -2.622641e+001
99339375 -1.245399e+000 -5.023721e+001 -1.511681e+000 -5.737452e+001 -5.088279e+001 1.378629e+002 -6.774610e-002 -2.635185e+001
99711562.5 -1.234026e+000 -5.036192e+001 -1.420233e+000 -5.765567e+001 -5.047971e+001 1.358469e+002 -1.155041e-001 -2.649795e+001
100083750 -1.264768e+000 -5.060952e+001 -1.415986e+000 -5.758142e+001 -5.092657e+001 1.316761e+002 -9.641305e-002 -2.660258e+001
100455937.5 -1.227585e+000 -5.059400e+001 -1.327678e+000 -5.765594e+001 -5.154998e+001 1.363680e+002 -8.341875e-002 -2.676614e+001
100828125 -1.216361e+000 -5.094525e+001 -1.272596e+000 -5.775949e+001 -5.058059e+001 1.372785e+002 -6.813955e-002 -2.676846e+001
