!Agilent Technologies,E8364A,US41440144,A.06.04.32
!Agilent E8364A: A.06.04.32
!Date: Thursday, November 08, 2018 15:06:15
!Correction: S11(Full 2 Port(1,2)) S21(Full 2 Port(1,2)) S12(Full 2 Port(1,2)) S22(Full 2 Port(1,2)) 
!S2P File: Measurements: S11, S21, S12, S22:
# Hz S  dB   R 50
45000000 -1.214719e-001 -2.592085e+001 1.945582e+000 -4.902463e+001 -4.882243e+001 1.563084e+002 -1.868606e-001 -3.624023e+001
45372187.5 -1.102598e-001 -2.612665e+001 2.091928e+000 -4.926936e+001 -4.982119e+001 1.529629e+002 -1.833103e-001 -3.660316e+001
45744375 -1.131401e-001 -2.629586e+001 2.229591e+000 -4.952003e+001 -4.833710e+001 1.579250e+002 -1.815775e-001 -3.692413e+001
46116562.5 -1.188489e-001 -2.661101e+001 2.339613e+000 -4.973976e+001 -4.774789e+001 1.565842e+002 -2.077191e-001 -3.719392e+001
46488750 -1.168299e-001 -2.680041e+001 2.478413e+000 -5.004731e+001 -4.760747e+001 1.454379e+002 -2.022962e-001 -3.750840e+001
46860937.5 -1.445965e-001 -2.694867e+001 2.611238e+000 -5.022827e+001 -4.753682e+001 1.598333e+002 -1.858266e-001 -3.781377e+001
47233125 -1.366158e-001 -2.724464e+001 2.738112e+000 -5.048898e+001 -4.737575e+001 1.492721e+002 -2.198129e-001 -3.815417e+001
47605312.5 -1.480825e-001 -2.742995e+001 2.850619e+000 -5.074507e+001 -4.910682e+001 1.403654e+002 -2.030021e-001 -3.848064e+001
47977500 -1.619054e-001 -2.760593e+001 2.971931e+000 -5.104177e+001 -4.899622e+001 1.433061e+002 -2.208758e-001 -3.881743e+001
48349687.5 -1.658511e-001 -2.795425e+001 3.076593e+000 -5.138191e+001 -4.798814e+001 1.556310e+002 -2.301336e-001 -3.903654e+001
48721875 -1.674313e-001 -2.809135e+001 3.204195e+000 -5.165411e+001 -4.630114e+001 1.492383e+002 -2.282050e-001 -3.926695e+001
49094062.5 -1.653443e-001 -2.835390e+001 3.318922e+000 -5.181386e+001 -4.649392e+001 1.515227e+002 -2.202066e-001 -3.965806e+001
49466250 -1.667502e-001 -2.854062e+001 3.430026e+000 -5.205789e+001 -4.596889e+001 1.557764e+002 -2.100366e-001 -3.995942e+001
49838437.5 -1.682498e-001 -2.876991e+001 3.538062e+000 -5.237733e+001 -4.783506e+001 1.618585e+002 -2.123743e-001 -4.019151e+001
50210625 -1.882401e-001 -2.902597e+001 3.677347e+000 -5.275613e+001 -4.808591e+001 1.415771e+002 -2.322626e-001 -4.052341e+001
50582812.5 -1.878883e-001 -2.919760e+001 3.803758e+000 -5.292480e+001 -4.709037e+001 1.465801e+002 -2.464265e-001 -4.071040e+001
50955000 -1.964501e-001 -2.938332e+001 3.890831e+000 -5.322566e+001 -4.660461e+001 1.401939e+002 -2.576284e-001 -4.112590e+001
51327187.5 -2.066544e-001 -2.964487e+001 4.001454e+000 -5.350636e+001 -4.667221e+001 1.490137e+002 -2.460157e-001 -4.143851e+001
51699375 -2.071977e-001 -2.981464e+001 4.117749e+000 -5.395583e+001 -4.633549e+001 1.471276e+002 -2.577763e-001 -4.175510e+001
52071562.5 -2.106423e-001 -3.012313e+001 4.201081e+000 -5.406057e+001 -4.646922e+001 1.478181e+002 -2.672467e-001 -4.206799e+001
52443750 -2.260041e-001 -3.037100e+001 4.337442e+000 -5.450605e+001 -4.650870e+001 1.453406e+002 -2.578833e-001 -4.237131e+001
52815937.5 -2.237082e-001 -3.053711e+001 4.464858e+000 -5.452792e+001 -4.574319e+001 1.471551e+002 -2.647631e-001 -4.266375e+001
53188125 -2.435973e-001 -3.070586e+001 4.558468e+000 -5.469909e+001 -4.597515e+001 1.465986e+002 -2.721611e-001 -4.304308e+001
53560312.5 -2.503512e-001 -3.107171e+001 4.666476e+000 -5.518176e+001 -4.568018e+001 1.401618e+002 -3.023860e-001 -4.326183e+001
53932500 -2.494178e-001 -3.124388e+001 4.774233e+000 -5.543932e+001 -4.656876e+001 1.449006e+002 -2.991404e-001 -4.358900e+001
54304687.5 -2.519593e-001 -3.140759e+001 4.874243e+000 -5.566307e+001 -4.588094e+001 1.412088e+002 -2.986812e-001 -4.378529e+001
54676875 -2.580434e-001 -3.159766e+001 5.000984e+000 -5.581709e+001 -4.501662e+001 1.434244e+002 -2.930284e-001 -4.413336e+001
55049062.5 -2.632421e-001 -3.188719e+001 5.082266e+000 -5.615746e+001 -4.578233e+001 1.457947e+002 -2.990276e-001 -4.447304e+001
55421250 -2.670638e-001 -3.197851e+001 5.194341e+000 -5.644372e+001 -4.642466e+001 1.470239e+002 -3.169205e-001 -4.473841e+001
55793437.5 -2.794404e-001 -3.224446e+001 5.301376e+000 -5.669698e+001 -4.482237e+001 1.421304e+002 -3.192128e-001 -4.512096e+001
56165625 -2.961977e-001 -3.256214e+001 5.400382e+000 -5.691792e+001 -4.520997e+001 1.445851e+002 -3.227705e-001 -4.549300e+001
56537812.5 -3.014606e-001 -3.271091e+001 5.515708e+000 -5.719497e+001 -4.534128e+001 1.450141e+002 -3.192688e-001 -4.569851e+001
56910000 -3.144062e-001 -3.290558e+001 5.588028e+000 -5.740234e+001 -4.481922e+001 1.398037e+002 -3.238100e-001 -4.598057e+001
57282187.5 -3.146992e-001 -3.309953e+001 5.714293e+000 -5.786758e+001 -4.557605e+001 1.381084e+002 -3.531669e-001 -4.630904e+001
57654375 -3.121309e-001 -3.338643e+001 5.798474e+000 -5.812818e+001 -4.429078e+001 1.407941e+002 -3.330280e-001 -4.661665e+001
58026562.5 -3.347997e-001 -3.354128e+001 5.881401e+000 -5.834981e+001 -4.501031e+001 1.356179e+002 -3.268046e-001 -4.691396e+001
58398750 -3.258054e-001 -3.382771e+001 6.007376e+000 -5.857697e+001 -4.538932e+001 1.411966e+002 -3.599632e-001 -4.720509e+001
58770937.5 -3.410911e-001 -3.403577e+001 6.099472e+000 -5.893107e+001 -4.436641e+001 1.475372e+002 -3.569826e-001 -4.740593e+001
59143125 -3.513604e-001 -3.431420e+001 6.193902e+000 -5.919530e+001 -4.375367e+001 1.400594e+002 -3.531539e-001 -4.785193e+001
59515312.5 -3.594645e-001 -3.443366e+001 6.267404e+000 -5.954999e+001 -4.405295e+001 1.388184e+002 -3.804578e-001 -4.806353e+001
59887500 -3.773823e-001 -3.466994e+001 6.362197e+000 -5.969630e+001 -4.361724e+001 1.383560e+002 -3.696437e-001 -4.831078e+001
60259687.5 -3.738909e-001 -3.486868e+001 6.464806e+000 -6.000697e+001 -4.491727e+001 1.428811e+002 -3.880674e-001 -4.869548e+001
60631875 -3.913535e-001 -3.514102e+001 6.550327e+000 -6.027031e+001 -4.342054e+001 1.390813e+002 -3.745813e-001 -4.912815e+001
61004062.5 -3.840663e-001 -3.526647e+001 6.648499e+000 -6.051644e+001 -4.464954e+001 1.361370e+002 -3.793631e-001 -4.931784e+001
61376250 -3.922260e-001 -3.554398e+001 6.746680e+000 -6.084209e+001 -4.335204e+001 1.420372e+002 -3.935268e-001 -4.958902e+001
61748437.5 -4.140972e-001 -3.576465e+001 6.811060e+000 -6.120022e+001 -4.439822e+001 1.359756e+002 -4.021794e-001 -4.996020e+001
62120625 -4.110290e-001 -3.599791e+001 6.932278e+000 -6.143457e+001 -4.266356e+001 1.366368e+002 -3.974785e-001 -5.021925e+001
62492812.5 -4.293100e-001 -3.618554e+001 7.002715e+000 -6.164289e+001 -4.317402e+001 1.382998e+002 -4.019878e-001 -5.045734e+001
62865000 -4.282534e-001 -3.642943e+001 7.097048e+000 -6.206773e+001 -4.355230e+001 1.358308e+002 -4.050348e-001 -5.085729e+001
63237187.5 -4.414483e-001 -3.662092e+001 7.165006e+000 -6.224910e+001 -4.257252e+001 1.371872e+002 -4.130633e-001 -5.112725e+001
63609375 -4.457664e-001 -3.692723e+001 7.278127e+000 -6.269161e+001 -4.287352e+001 1.357883e+002 -4.404844e-001 -5.143228e+001
63981562.5 -4.527932e-001 -3.705187e+001 7.346656e+000 -6.279991e+001 -4.330740e+001 1.322776e+002 -4.418695e-001 -5.171029e+001
64353750 -4.762667e-001 -3.722941e+001 7.428889e+000 -6.319831e+001 -4.288706e+001 1.330827e+002 -4.516470e-001 -5.210260e+001
64725937.5 -4.709579e-001 -3.743046e+001 7.528132e+000 -6.343895e+001 -4.298181e+001 1.367070e+002 -4.524428e-001 -5.229271e+001
65098125 -4.923979e-001 -3.771992e+001 7.614351e+000 -6.376696e+001 -4.210037e+001 1.331578e+002 -4.428499e-001 -5.257199e+001
65470312.5 -4.863625e-001 -3.794667e+001 7.690910e+000 -6.410287e+001 -4.260350e+001 1.355243e+002 -4.498661e-001 -5.290836e+001
65842500 -4.949496e-001 -3.815654e+001 7.780254e+000 -6.437444e+001 -4.271893e+001 1.315872e+002 -4.692071e-001 -5.311295e+001
66214687.5 -5.058323e-001 -3.839631e+001 7.883156e+000 -6.459077e+001 -4.243004e+001 1.371114e+002 -4.848510e-001 -5.355394e+001
66586875 -5.243499e-001 -3.860057e+001 7.931020e+000 -6.497179e+001 -4.240369e+001 1.325973e+002 -4.884466e-001 -5.381191e+001
66959062.5 -5.202630e-001 -3.885225e+001 8.033192e+000 -6.519731e+001 -4.260126e+001 1.281438e+002 -4.985823e-001 -5.413914e+001
67331250 -5.496306e-001 -3.895190e+001 8.084574e+000 -6.544832e+001 -4.250105e+001 1.311292e+002 -5.071687e-001 -5.441138e+001
67703437.5 -5.552340e-001 -3.924537e+001 8.192492e+000 -6.586697e+001 -4.187937e+001 1.274943e+002 -5.050473e-001 -5.470668e+001
68075625 -5.654479e-001 -3.941120e+001 8.243946e+000 -6.604090e+001 -4.255624e+001 1.300909e+002 -5.211955e-001 -5.489928e+001
68447812.5 -5.671086e-001 -3.968205e+001 8.359148e+000 -6.643978e+001 -4.240171e+001 1.292857e+002 -5.122889e-001 -5.521204e+001
68820000 -5.916563e-001 -3.986784e+001 8.403540e+000 -6.673374e+001 -4.174177e+001 1.297170e+002 -5.290436e-001 -5.553834e+001
69192187.5 -5.964929e-001 -4.004800e+001 8.498333e+000 -6.691058e+001 -4.090557e+001 1.296146e+002 -5.463188e-001 -5.596761e+001
69564375 -5.997257e-001 -4.025168e+001 8.579296e+000 -6.725942e+001 -4.161229e+001 1.283292e+002 -5.628838e-001 -5.617370e+001
69936562.5 -5.982024e-001 -4.047085e+001 8.658243e+000 -6.759843e+001 -4.130904e+001 1.269564e+002 -5.535664e-001 -5.647913e+001
70308750 -6.193553e-001 -4.067276e+001 8.730856e+000 -6.788336e+001 -4.215539e+001 1.299056e+002 -5.729809e-001 -5.665567e+001
70680937.5 -6.305074e-001 -4.086665e+001 8.789618e+000 -6.814298e+001 -4.164265e+001 1.295710e+002 -5.712487e-001 -5.696869e+001
71053125 -6.383376e-001 -4.107071e+001 8.875454e+000 -6.841605e+001 -4.144419e+001 1.298469e+002 -5.690122e-001 -5.721970e+001
71425312.5 -6.487318e-001 -4.125555e+001 8.944317e+000 -6.868136e+001 -4.182477e+001 1.265132e+002 -5.901802e-001 -5.762289e+001
71797500 -6.587762e-001 -4.157002e+001 9.017587e+000 -6.910716e+001 -4.154092e+001 1.253898e+002 -5.926278e-001 -5.794788e+001
72169687.5 -6.784462e-001 -4.166985e+001 9.092483e+000 -6.931406e+001 -4.119022e+001 1.275778e+002 -6.015747e-001 -5.818982e+001
72541875 -6.992294e-001 -4.197817e+001 9.146642e+000 -6.972517e+001 -4.099185e+001 1.253149e+002 -6.100329e-001 -5.829424e+001
72914062.5 -7.082464e-001 -4.207718e+001 9.224047e+000 -6.998694e+001 -4.137351e+001 1.250628e+002 -6.248306e-001 -5.882565e+001
73286250 -7.203849e-001 -4.242556e+001 9.296015e+000 -7.026259e+001 -4.061541e+001 1.290708e+002 -6.251546e-001 -5.910054e+001
73658437.5 -7.411709e-001 -4.256111e+001 9.352937e+000 -7.070699e+001 -4.114000e+001 1.257763e+002 -6.450745e-001 -5.938474e+001
74030625 -7.542358e-001 -4.275406e+001 9.420361e+000 -7.084145e+001 -4.095458e+001 1.235496e+002 -6.378924e-001 -5.960717e+001
74402812.5 -7.455264e-001 -4.303202e+001 9.502702e+000 -7.134562e+001 -4.123889e+001 1.226356e+002 -6.554739e-001 -5.996930e+001
74775000 -7.813362e-001 -4.327325e+001 9.575264e+000 -7.166405e+001 -4.097101e+001 1.221471e+002 -6.685848e-001 -6.025187e+001
75147187.5 -7.848575e-001 -4.341594e+001 9.635984e+000 -7.185983e+001 -4.074694e+001 1.241505e+002 -6.552243e-001 -6.059027e+001
75519375 -7.805932e-001 -4.359735e+001 9.716415e+000 -7.215768e+001 -4.052229e+001 1.246947e+002 -6.740968e-001 -6.091228e+001
75891562.5 -8.329493e-001 -4.383559e+001 9.768114e+000 -7.254832e+001 -4.049714e+001 1.230986e+002 -6.709565e-001 -6.107469e+001
76263750 -8.167552e-001 -4.395732e+001 9.837394e+000 -7.283862e+001 -4.016408e+001 1.202675e+002 -6.847029e-001 -6.124054e+001
76635937.5 -8.285195e-001 -4.433115e+001 9.897073e+000 -7.315746e+001 -4.046189e+001 1.234280e+002 -6.944463e-001 -6.161046e+001
77008125 -8.354092e-001 -4.430783e+001 9.950894e+000 -7.346590e+001 -4.051088e+001 1.212976e+002 -7.194681e-001 -6.188781e+001
77380312.5 -8.589152e-001 -4.446935e+001 1.000668e+001 -7.372043e+001 -4.045045e+001 1.229633e+002 -7.197561e-001 -6.229937e+001
77752500 -8.642231e-001 -4.477753e+001 1.006993e+001 -7.411126e+001 -3.999028e+001 1.213752e+002 -7.098910e-001 -6.257213e+001
78124687.5 -8.951930e-001 -4.502541e+001 1.015141e+001 -7.438795e+001 -3.992880e+001 1.217294e+002 -7.230380e-001 -6.286781e+001
78496875 -9.044766e-001 -4.521276e+001 1.020404e+001 -7.467731e+001 -3.995834e+001 1.232332e+002 -7.274910e-001 -6.321189e+001
78869062.5 -9.098547e-001 -4.531724e+001 1.025424e+001 -7.504209e+001 -3.988683e+001 1.200200e+002 -7.563676e-001 -6.355481e+001
79241250 -9.308273e-001 -4.538649e+001 1.030302e+001 -7.519471e+001 -4.033481e+001 1.217101e+002 -7.583960e-001 -6.373792e+001
79613437.5 -9.262044e-001 -4.573017e+001 1.037813e+001 -7.560532e+001 -4.006561e+001 1.192476e+002 -7.820308e-001 -6.397530e+001
79985625 -9.352800e-001 -4.593220e+001 1.042338e+001 -7.594872e+001 -3.957477e+001 1.196633e+002 -7.775666e-001 -6.428764e+001
80357812.5 -9.684048e-001 -4.609334e+001 1.048211e+001 -7.627522e+001 -3.955431e+001 1.214678e+002 -7.657207e-001 -6.450109e+001
80730000 -1.001674e+000 -4.626588e+001 1.053709e+001 -7.674528e+001 -3.944833e+001 1.185680e+002 -7.764421e-001 -6.482811e+001
81102187.5 -1.020053e+000 -4.635690e+001 1.055321e+001 -7.671785e+001 -3.933361e+001 1.200113e+002 -7.863429e-001 -6.507594e+001
81474375 -1.014502e+000 -4.650032e+001 1.062335e+001 -7.724247e+001 -3.947222e+001 1.180940e+002 -7.919711e-001 -6.549708e+001
81846562.5 -1.036603e+000 -4.673317e+001 1.069635e+001 -7.753275e+001 -3.943451e+001 1.189893e+002 -8.274211e-001 -6.569621e+001
82218750 -1.058286e+000 -4.692770e+001 1.073046e+001 -7.777175e+001 -3.914995e+001 1.172096e+002 -7.851724e-001 -6.593226e+001
82590937.5 -1.089706e+000 -4.695617e+001 1.078752e+001 -7.810490e+001 -3.934106e+001 1.174978e+002 -8.215307e-001 -6.627444e+001
82963125 -1.097050e+000 -4.716761e+001 1.084341e+001 -7.841270e+001 -3.932914e+001 1.155926e+002 -7.974661e-001 -6.657023e+001
83335312.5 -1.116926e+000 -4.746992e+001 1.089054e+001 -7.890324e+001 -3.926682e+001 1.142244e+002 -8.376421e-001 -6.691180e+001
83707500 -1.135867e+000 -4.769506e+001 1.093404e+001 -7.902659e+001 -3.929603e+001 1.134786e+002 -8.326565e-001 -6.718074e+001
84079687.5 -1.162049e+000 -4.772025e+001 1.096920e+001 -7.938470e+001 -3.907888e+001 1.141712e+002 -8.389581e-001 -6.746729e+001
84451875 -1.167383e+000 -4.793580e+001 1.101709e+001 -7.961929e+001 -3.943584e+001 1.143466e+002 -8.524156e-001 -6.770210e+001
84824062.5 -1.190770e+000 -4.813214e+001 1.107770e+001 -7.993024e+001 -3.937764e+001 1.159196e+002 -8.714530e-001 -6.785190e+001
85196250 -1.210963e+000 -4.818776e+001 1.108892e+001 -8.026461e+001 -3.914312e+001 1.154529e+002 -8.595021e-001 -6.828940e+001
85568437.5 -1.213177e+000 -4.854507e+001 1.117591e+001 -8.052962e+001 -3.906396e+001 1.143458e+002 -8.790938e-001 -6.837178e+001
85940625 -1.211349e+000 -4.850092e+001 1.121434e+001 -8.087360e+001 -3.896746e+001 1.153405e+002 -9.039736e-001 -6.876726e+001
86312812.5 -1.243526e+000 -4.872293e+001 1.124352e+001 -8.123768e+001 -3.871225e+001 1.147584e+002 -9.112620e-001 -6.896117e+001
86685000 -1.231251e+000 -4.878354e+001 1.128493e+001 -8.135820e+001 -3.882044e+001 1.137102e+002 -9.168484e-001 -6.916121e+001
87057187.5 -1.263244e+000 -4.896341e+001 1.133422e+001 -8.175664e+001 -3.898148e+001 1.115704e+002 -9.206598e-001 -6.963503e+001
87429375 -1.258611e+000 -4.904156e+001 1.135064e+001 -8.195401e+001 -3.897227e+001 1.119194e+002 -9.127880e-001 -6.975977e+001
87801562.5 -1.284029e+000 -4.910874e+001 1.141159e+001 -8.229054e+001 -3.845833e+001 1.136807e+002 -9.602669e-001 -7.003667e+001
88173750 -1.317638e+000 -4.924894e+001 1.144207e+001 -8.248371e+001 -3.850834e+001 1.111060e+002 -9.523702e-001 -7.034106e+001
88545937.5 -1.319445e+000 -4.945498e+001 1.147863e+001 -8.292241e+001 -3.849039e+001 1.127556e+002 -9.633737e-001 -7.071527e+001
88918125 -1.354041e+000 -4.952330e+001 1.149523e+001 -8.309828e+001 -3.871759e+001 1.133558e+002 -9.623903e-001 -7.090870e+001
89290312.5 -1.356443e+000 -4.977672e+001 1.151995e+001 -8.339661e+001 -3.858209e+001 1.119699e+002 -9.572555e-001 -7.124234e+001
89662500 -1.374277e+000 -4.987374e+001 1.155840e+001 -8.344344e+001 -3.853343e+001 1.106954e+002 -9.851832e-001 -7.133643e+001
90034687.5 -1.370748e+000 -4.986330e+001 1.162258e+001 -8.382767e+001 -3.838493e+001 1.128806e+002 -9.652267e-001 -7.189145e+001
90406875 -1.371546e+000 -5.010436e+001 1.165333e+001 -8.395390e+001 -3.832244e+001 1.108029e+002 -9.824840e-001 -7.211589e+001
90779062.5 -1.404677e+000 -5.003427e+001 1.167053e+001 -8.426529e+001 -3.829805e+001 1.113496e+002 -9.845642e-001 -7.220920e+001
91151250 -1.395933e+000 -5.010918e+001 1.169857e+001 -8.424268e+001 -3.825770e+001 1.103678e+002 -1.056686e+000 -7.248656e+001
91523437.5 -1.404827e+000 -5.043327e+001 1.174199e+001 -8.450172e+001 -3.836554e+001 1.093562e+002 -1.039658e+000 -7.286020e+001
91895625 -1.427454e+000 -5.041739e+001 1.176984e+001 -8.461184e+001 -3.820886e+001 1.104059e+002 -1.018803e+000 -7.335306e+001
92267812.5 -1.410025e+000 -5.048876e+001 1.180923e+001 -8.495544e+001 -3.816331e+001 1.089531e+002 -1.004881e+000 -7.343736e+001
92640000 -1.429505e+000 -5.069984e+001 1.183956e+001 -8.507959e+001 -3.810727e+001 1.090584e+002 -1.045903e+000 -7.377589e+001
93012187.5 -1.470128e+000 -5.074879e+001 1.186672e+001 -8.531732e+001 -3.795596e+001 1.094128e+002 -1.053285e+000 -7.429017e+001
93384375 -1.448566e+000 -5.087681e+001 1.191283e+001 -8.556526e+001 -3.814220e+001 1.092991e+002 -1.053984e+000 -7.446049e+001
93756562.5 -1.460582e+000 -5.087875e+001 1.194798e+001 -8.572397e+001 -3.810966e+001 1.100077e+002 -1.057113e+000 -7.447812e+001
94128750 -1.481868e+000 -5.116854e+001 1.197125e+001 -8.591674e+001 -3.774961e+001 1.101916e+002 -1.103330e+000 -7.499072e+001
94500937.5 -1.464581e+000 -5.118509e+001 1.202143e+001 -8.584717e+001 -3.756836e+001 1.077829e+002 -1.081549e+000 -7.502793e+001
94873125 -1.477020e+000 -5.142354e+001 1.205136e+001 -8.610024e+001 -3.764665e+001 1.080261e+002 -1.081611e+000 -7.530019e+001
95245312.5 -1.481328e+000 -5.152607e+001 1.208294e+001 -8.638648e+001 -3.772538e+001 1.085420e+002 -1.090240e+000 -7.558742e+001
95617500 -1.473258e+000 -5.165871e+001 1.214395e+001 -8.644509e+001 -3.773584e+001 1.089756e+002 -1.142979e+000 -7.604980e+001
95989687.5 -1.465695e+000 -5.182595e+001 1.218630e+001 -8.657719e+001 -3.783565e+001 1.074053e+002 -1.113385e+000 -7.629942e+001
96361875 -1.492618e+000 -5.190834e+001 1.222059e+001 -8.681017e+001 -3.771087e+001 1.089405e+002 -1.133624e+000 -7.662116e+001
96734062.5 -1.490276e+000 -5.202882e+001 1.226193e+001 -8.709431e+001 -3.765601e+001 1.062482e+002 -1.127167e+000 -7.697540e+001
97106250 -1.508133e+000 -5.209702e+001 1.228503e+001 -8.711508e+001 -3.762389e+001 1.076130e+002 -1.161456e+000 -7.725311e+001
97478437.5 -1.502211e+000 -5.234352e+001 1.231613e+001 -8.740931e+001 -3.757998e+001 1.068100e+002 -1.144091e+000 -7.750997e+001
97850625 -1.487132e+000 -5.239168e+001 1.236449e+001 -8.742397e+001 -3.749638e+001 1.063986e+002 -1.126403e+000 -7.773456e+001
98222812.5 -1.537207e+000 -5.264132e+001 1.240053e+001 -8.774516e+001 -3.731966e+001 1.062601e+002 -1.174714e+000 -7.780160e+001
98595000 -1.547193e+000 -5.276001e+001 1.245840e+001 -8.779284e+001 -3.713237e+001 1.077936e+002 -1.162941e+000 -7.813792e+001
98967187.5 -1.539577e+000 -5.294027e+001 1.248739e+001 -8.803279e+001 -3.747105e+001 1.058538e+002 -1.173554e+000 -7.851958e+001
99339375 -1.532187e+000 -5.306527e+001 1.252554e+001 -8.824641e+001 -3.736146e+001 1.073245e+002 -1.169960e+000 -7.874612e+001
99711562.5 -1.541102e+000 -5.316629e+001 1.258273e+001 -8.850233e+001 -3.712675e+001 1.052042e+002 -1.195406e+000 -7.917327e+001
100083750 -1.567712e+000 -5.336512e+001 1.260385e+001 -8.849957e+001 -3.718866e+001 1.052654e+002 -1.198797e+000 -7.932889e+001
100455937.5 -1.546911e+000 -5.349201e+001 1.267014e+001 -8.875698e+001 -3.700262e+001 1.052412e+002 -1.202576e+000 -7.962015e+001
100828125 -1.550954e+000 -5.376698e+001 1.272482e+001 -8.896929e+001 -3.697039e+001 1.054595e+002 -1.192642e+000 -8.005836e+001
101200312.5 -1.561508e+000 -5.374755e+001 1.274720e+001 -8.914879e+001 -3.672519e+001 1.052865e+002 -1.236234e+000 -8.019096e+001
