!Agilent Technologies,E8364A,US41440144,A.06.04.32
!Agilent E8364A: A.06.04.32
!Date: Thursday, November 08, 2018 14:15:06
!Correction: S11(Full 2 Port(1,2)) S21(Full 2 Port(1,2)) S12(Full 2 Port(1,2)) S22(Full 2 Port(1,2)) 
!S2P File: Measurements: S11, S21, S12, S22:
# Hz S  dB   R 50
45000000 -1.222509e+000 -3.475293e+001 -7.070850e+000 5.537725e+001 -7.050218e+000 5.540916e+001 -1.208733e+000 -3.517370e+001
45372187.5 -1.242920e+000 -3.503402e+001 -6.990479e+000 5.520877e+001 -7.000810e+000 5.506674e+001 -1.217204e+000 -3.553285e+001
45744375 -1.252959e+000 -3.528293e+001 -6.924797e+000 5.489347e+001 -6.956311e+000 5.475805e+001 -1.228416e+000 -3.574078e+001
46116562.5 -1.260773e+000 -3.541069e+001 -6.875865e+000 5.468760e+001 -6.889172e+000 5.465980e+001 -1.272879e+000 -3.593781e+001
46488750 -1.271706e+000 -3.583877e+001 -6.819663e+000 5.421039e+001 -6.824101e+000 5.432567e+001 -1.259253e+000 -3.619540e+001
46860937.5 -1.299812e+000 -3.597937e+001 -6.761528e+000 5.403620e+001 -6.789251e+000 5.409547e+001 -1.288770e+000 -3.643378e+001
47233125 -1.303559e+000 -3.630348e+001 -6.705064e+000 5.384159e+001 -6.735830e+000 5.381128e+001 -1.308013e+000 -3.676338e+001
47605312.5 -1.342802e+000 -3.643851e+001 -6.676205e+000 5.361940e+001 -6.688680e+000 5.349947e+001 -1.317256e+000 -3.704797e+001
47977500 -1.357307e+000 -3.669413e+001 -6.607912e+000 5.337269e+001 -6.621359e+000 5.314878e+001 -1.351412e+000 -3.728508e+001
48349687.5 -1.375722e+000 -3.703261e+001 -6.580917e+000 5.299500e+001 -6.605524e+000 5.307829e+001 -1.372022e+000 -3.739304e+001
48721875 -1.378189e+000 -3.720881e+001 -6.532458e+000 5.270530e+001 -6.540128e+000 5.274771e+001 -1.377077e+000 -3.768843e+001
49094062.5 -1.397863e+000 -3.752791e+001 -6.475361e+000 5.258224e+001 -6.483840e+000 5.241436e+001 -1.398744e+000 -3.800624e+001
49466250 -1.408559e+000 -3.772106e+001 -6.436556e+000 5.229780e+001 -6.429842e+000 5.250494e+001 -1.403054e+000 -3.815672e+001
49838437.5 -1.431040e+000 -3.797521e+001 -6.391994e+000 5.208706e+001 -6.397162e+000 5.186874e+001 -1.419039e+000 -3.842789e+001
50210625 -1.457047e+000 -3.815456e+001 -6.353001e+000 5.185529e+001 -6.325468e+000 5.169428e+001 -1.427162e+000 -3.858522e+001
50582812.5 -1.473736e+000 -3.841069e+001 -6.309079e+000 5.156821e+001 -6.283665e+000 5.151374e+001 -1.445491e+000 -3.881937e+001
50955000 -1.479765e+000 -3.858413e+001 -6.230431e+000 5.138675e+001 -6.235962e+000 5.116298e+001 -1.485520e+000 -3.911491e+001
51327187.5 -1.514247e+000 -3.883592e+001 -6.199447e+000 5.097955e+001 -6.195297e+000 5.097709e+001 -1.494503e+000 -3.934646e+001
51699375 -1.513222e+000 -3.903304e+001 -6.147906e+000 5.085227e+001 -6.174819e+000 5.074890e+001 -1.509988e+000 -3.959902e+001
52071562.5 -1.523938e+000 -3.941085e+001 -6.118036e+000 5.052656e+001 -6.136120e+000 5.047059e+001 -1.524519e+000 -3.982562e+001
52443750 -1.568602e+000 -3.961744e+001 -6.071349e+000 5.019907e+001 -6.089801e+000 5.013628e+001 -1.535132e+000 -4.021304e+001
52815937.5 -1.567996e+000 -3.987896e+001 -6.011230e+000 5.006672e+001 -6.019096e+000 5.003528e+001 -1.554616e+000 -4.030668e+001
53188125 -1.595813e+000 -4.010291e+001 -5.989169e+000 4.986179e+001 -5.991706e+000 4.973959e+001 -1.581638e+000 -4.064801e+001
53560312.5 -1.608052e+000 -4.036049e+001 -5.939598e+000 4.955047e+001 -5.936531e+000 4.941488e+001 -1.597223e+000 -4.086488e+001
53932500 -1.628121e+000 -4.048255e+001 -5.899364e+000 4.936120e+001 -5.917876e+000 4.923386e+001 -1.630923e+000 -4.105154e+001
54304687.5 -1.636958e+000 -4.073952e+001 -5.859134e+000 4.920204e+001 -5.860200e+000 4.897431e+001 -1.631782e+000 -4.122995e+001
54676875 -1.659780e+000 -4.100273e+001 -5.818683e+000 4.895382e+001 -5.812181e+000 4.884804e+001 -1.642992e+000 -4.143130e+001
55049062.5 -1.672589e+000 -4.123228e+001 -5.758066e+000 4.865751e+001 -5.778291e+000 4.857271e+001 -1.651345e+000 -4.178686e+001
55421250 -1.695282e+000 -4.136551e+001 -5.728537e+000 4.838276e+001 -5.732331e+000 4.827382e+001 -1.691407e+000 -4.191812e+001
55793437.5 -1.720244e+000 -4.160842e+001 -5.691635e+000 4.817175e+001 -5.710335e+000 4.803712e+001 -1.722774e+000 -4.219241e+001
56165625 -1.723499e+000 -4.192308e+001 -5.649032e+000 4.787457e+001 -5.646139e+000 4.778687e+001 -1.727521e+000 -4.246083e+001
56537812.5 -1.748401e+000 -4.210215e+001 -5.597895e+000 4.776933e+001 -5.627061e+000 4.762584e+001 -1.737649e+000 -4.270046e+001
56910000 -1.775506e+000 -4.236087e+001 -5.594509e+000 4.739760e+001 -5.585376e+000 4.734835e+001 -1.758695e+000 -4.284986e+001
57282187.5 -1.796521e+000 -4.252342e+001 -5.553955e+000 4.715224e+001 -5.540703e+000 4.714624e+001 -1.778455e+000 -4.313086e+001
57654375 -1.804325e+000 -4.277448e+001 -5.505258e+000 4.691730e+001 -5.506832e+000 4.698546e+001 -1.789318e+000 -4.331001e+001
58026562.5 -1.827281e+000 -4.303205e+001 -5.466990e+000 4.673103e+001 -5.449709e+000 4.661237e+001 -1.794735e+000 -4.358785e+001
58398750 -1.823795e+000 -4.319766e+001 -5.442144e+000 4.665206e+001 -5.433704e+000 4.651804e+001 -1.812304e+000 -4.370033e+001
58770937.5 -1.857014e+000 -4.347538e+001 -5.406359e+000 4.626530e+001 -5.410206e+000 4.613747e+001 -1.858398e+000 -4.398248e+001
59143125 -1.887586e+000 -4.368914e+001 -5.352120e+000 4.608474e+001 -5.360796e+000 4.596850e+001 -1.866222e+000 -4.429696e+001
59515312.5 -1.892800e+000 -4.387884e+001 -5.333797e+000 4.576865e+001 -5.322895e+000 4.577945e+001 -1.870251e+000 -4.446225e+001
59887500 -1.917506e+000 -4.403542e+001 -5.293676e+000 4.565089e+001 -5.289316e+000 4.557987e+001 -1.884801e+000 -4.465494e+001
60259687.5 -1.920399e+000 -4.429297e+001 -5.246883e+000 4.546407e+001 -5.273050e+000 4.533857e+001 -1.911229e+000 -4.488436e+001
60631875 -1.946943e+000 -4.449177e+001 -5.235459e+000 4.516733e+001 -5.213456e+000 4.511436e+001 -1.927273e+000 -4.514874e+001
61004062.5 -1.958933e+000 -4.465928e+001 -5.199220e+000 4.496872e+001 -5.184598e+000 4.480848e+001 -1.931809e+000 -4.530922e+001
61376250 -1.985643e+000 -4.499685e+001 -5.160532e+000 4.462437e+001 -5.159955e+000 4.467840e+001 -1.957962e+000 -4.548652e+001
61748437.5 -2.014654e+000 -4.511459e+001 -5.143264e+000 4.448502e+001 -5.151794e+000 4.433453e+001 -2.002716e+000 -4.585895e+001
62120625 -2.029668e+000 -4.536253e+001 -5.098402e+000 4.418735e+001 -5.082185e+000 4.420617e+001 -1.985629e+000 -4.601702e+001
62492812.5 -2.046962e+000 -4.555771e+001 -5.067402e+000 4.409654e+001 -5.076165e+000 4.390068e+001 -2.014917e+000 -4.613387e+001
62865000 -2.064550e+000 -4.575785e+001 -5.049939e+000 4.375254e+001 -5.017567e+000 4.374704e+001 -2.038249e+000 -4.638761e+001
63237187.5 -2.088012e+000 -4.598845e+001 -5.005207e+000 4.357335e+001 -4.990634e+000 4.357855e+001 -2.043672e+000 -4.658971e+001
63609375 -2.103171e+000 -4.617598e+001 -4.969856e+000 4.334317e+001 -4.958930e+000 4.331416e+001 -2.069450e+000 -4.680778e+001
63981562.5 -2.115504e+000 -4.637566e+001 -4.950126e+000 4.320019e+001 -4.926548e+000 4.299208e+001 -2.078699e+000 -4.696834e+001
64353750 -2.121344e+000 -4.660791e+001 -4.903828e+000 4.295300e+001 -4.899831e+000 4.286772e+001 -2.109327e+000 -4.727404e+001
64725937.5 -2.129255e+000 -4.678085e+001 -4.870971e+000 4.275944e+001 -4.879137e+000 4.263418e+001 -2.121941e+000 -4.747594e+001
65098125 -2.169100e+000 -4.701469e+001 -4.838916e+000 4.255016e+001 -4.829869e+000 4.239485e+001 -2.130557e+000 -4.768221e+001
65470312.5 -2.176711e+000 -4.719794e+001 -4.808885e+000 4.228978e+001 -4.792109e+000 4.221633e+001 -2.158185e+000 -4.782183e+001
65842500 -2.204973e+000 -4.753339e+001 -4.791800e+000 4.201649e+001 -4.777289e+000 4.195580e+001 -2.172981e+000 -4.809212e+001
66214687.5 -2.228590e+000 -4.769501e+001 -4.743331e+000 4.188034e+001 -4.740408e+000 4.173850e+001 -2.205060e+000 -4.831900e+001
66586875 -2.235918e+000 -4.782968e+001 -4.750740e+000 4.169621e+001 -4.721410e+000 4.153008e+001 -2.225204e+000 -4.855507e+001
66959062.5 -2.253578e+000 -4.807127e+001 -4.702280e+000 4.151107e+001 -4.703679e+000 4.126301e+001 -2.235343e+000 -4.873283e+001
67331250 -2.271569e+000 -4.827000e+001 -4.672280e+000 4.122229e+001 -4.662179e+000 4.105272e+001 -2.263338e+000 -4.888248e+001
67703437.5 -2.311486e+000 -4.848973e+001 -4.652359e+000 4.085955e+001 -4.626174e+000 4.089075e+001 -2.265985e+000 -4.909734e+001
68075625 -2.317219e+000 -4.865139e+001 -4.620169e+000 4.075368e+001 -4.614983e+000 4.078602e+001 -2.291915e+000 -4.930910e+001
68447812.5 -2.339497e+000 -4.880120e+001 -4.593359e+000 4.063311e+001 -4.574110e+000 4.049597e+001 -2.307214e+000 -4.947953e+001
68820000 -2.352852e+000 -4.903457e+001 -4.571158e+000 4.045087e+001 -4.573254e+000 4.021737e+001 -2.333290e+000 -4.974269e+001
69192187.5 -2.374964e+000 -4.928558e+001 -4.536291e+000 4.022737e+001 -4.527485e+000 4.004203e+001 -2.354670e+000 -4.994016e+001
69564375 -2.386405e+000 -4.942953e+001 -4.507446e+000 4.002908e+001 -4.497433e+000 3.977469e+001 -2.366218e+000 -5.016639e+001
69936562.5 -2.407177e+000 -4.964682e+001 -4.472531e+000 3.975575e+001 -4.492515e+000 3.962646e+001 -2.386047e+000 -5.036681e+001
70308750 -2.421994e+000 -4.981291e+001 -4.451356e+000 3.959679e+001 -4.473519e+000 3.931548e+001 -2.409166e+000 -5.050895e+001
70680937.5 -2.443113e+000 -5.003753e+001 -4.439548e+000 3.932136e+001 -4.441783e+000 3.921240e+001 -2.417668e+000 -5.065624e+001
71053125 -2.460535e+000 -5.023197e+001 -4.404716e+000 3.918805e+001 -4.423849e+000 3.910858e+001 -2.440848e+000 -5.086795e+001
71425312.5 -2.476732e+000 -5.030816e+001 -4.384109e+000 3.904194e+001 -4.369928e+000 3.880122e+001 -2.458037e+000 -5.104813e+001
71797500 -2.486046e+000 -5.070090e+001 -4.362737e+000 3.872540e+001 -4.358639e+000 3.862440e+001 -2.483192e+000 -5.129943e+001
72169687.5 -2.510812e+000 -5.075595e+001 -4.326911e+000 3.859547e+001 -4.315614e+000 3.858471e+001 -2.498260e+000 -5.151857e+001
72541875 -2.531103e+000 -5.099495e+001 -4.309676e+000 3.833300e+001 -4.321637e+000 3.815370e+001 -2.524167e+000 -5.163380e+001
72914062.5 -2.550306e+000 -5.110581e+001 -4.279163e+000 3.820434e+001 -4.291529e+000 3.803791e+001 -2.526442e+000 -5.184188e+001
73286250 -2.576778e+000 -5.140150e+001 -4.264987e+000 3.799343e+001 -4.257046e+000 3.792999e+001 -2.538428e+000 -5.208472e+001
73658437.5 -2.591358e+000 -5.152795e+001 -4.237068e+000 3.768136e+001 -4.240475e+000 3.750663e+001 -2.567127e+000 -5.234386e+001
74030625 -2.618736e+000 -5.181069e+001 -4.212881e+000 3.754129e+001 -4.207139e+000 3.750734e+001 -2.585451e+000 -5.236144e+001
74402812.5 -2.626429e+000 -5.198479e+001 -4.180914e+000 3.734101e+001 -4.207340e+000 3.734660e+001 -2.624797e+000 -5.268912e+001
74775000 -2.660288e+000 -5.221135e+001 -4.163780e+000 3.703339e+001 -4.171185e+000 3.702458e+001 -2.627462e+000 -5.286831e+001
75147187.5 -2.677697e+000 -5.237238e+001 -4.149245e+000 3.696021e+001 -4.151457e+000 3.686025e+001 -2.646269e+000 -5.312019e+001
75519375 -2.681196e+000 -5.255516e+001 -4.118707e+000 3.670715e+001 -4.134767e+000 3.663383e+001 -2.657848e+000 -5.336471e+001
75891562.5 -2.724653e+000 -5.270829e+001 -4.093851e+000 3.649672e+001 -4.101786e+000 3.641691e+001 -2.665384e+000 -5.337516e+001
76263750 -2.720501e+000 -5.285739e+001 -4.073953e+000 3.632598e+001 -4.075233e+000 3.631090e+001 -2.700638e+000 -5.344121e+001
76635937.5 -2.745333e+000 -5.320473e+001 -4.064953e+000 3.616310e+001 -4.051699e+000 3.625391e+001 -2.716451e+000 -5.375789e+001
77008125 -2.748209e+000 -5.318051e+001 -4.030266e+000 3.592641e+001 -4.048163e+000 3.600686e+001 -2.742829e+000 -5.387938e+001
77380312.5 -2.770957e+000 -5.334967e+001 -4.016590e+000 3.574537e+001 -4.030634e+000 3.558265e+001 -2.771947e+000 -5.415369e+001
77752500 -2.799365e+000 -5.362740e+001 -4.003243e+000 3.557316e+001 -3.982241e+000 3.551231e+001 -2.754086e+000 -5.429855e+001
78124687.5 -2.818556e+000 -5.383014e+001 -3.957174e+000 3.537326e+001 -3.973502e+000 3.543323e+001 -2.797359e+000 -5.455301e+001
78496875 -2.834491e+000 -5.409121e+001 -3.936049e+000 3.524443e+001 -3.955607e+000 3.513952e+001 -2.805619e+000 -5.488620e+001
78869062.5 -2.845110e+000 -5.421700e+001 -3.929958e+000 3.500791e+001 -3.936896e+000 3.485612e+001 -2.831630e+000 -5.505537e+001
79241250 -2.859531e+000 -5.433049e+001 -3.905951e+000 3.490899e+001 -3.916193e+000 3.482862e+001 -2.850879e+000 -5.509529e+001
79613437.5 -2.869382e+000 -5.452921e+001 -3.879674e+000 3.465165e+001 -3.905690e+000 3.450062e+001 -2.889634e+000 -5.526992e+001
79985625 -2.900495e+000 -5.466259e+001 -3.865041e+000 3.445160e+001 -3.873796e+000 3.442728e+001 -2.891990e+000 -5.549366e+001
80357812.5 -2.930239e+000 -5.496878e+001 -3.850816e+000 3.426643e+001 -3.852286e+000 3.416278e+001 -2.889712e+000 -5.570513e+001
80730000 -2.951704e+000 -5.505230e+001 -3.831629e+000 3.395148e+001 -3.808875e+000 3.399638e+001 -2.908667e+000 -5.586682e+001
81102187.5 -2.977346e+000 -5.517052e+001 -3.835775e+000 3.408149e+001 -3.807017e+000 3.392235e+001 -2.931774e+000 -5.604867e+001
81474375 -2.968109e+000 -5.536610e+001 -3.801443e+000 3.369788e+001 -3.790562e+000 3.359867e+001 -2.939213e+000 -5.640385e+001
81846562.5 -3.003463e+000 -5.558694e+001 -3.773542e+000 3.345974e+001 -3.758922e+000 3.342259e+001 -2.981448e+000 -5.636331e+001
82218750 -3.025937e+000 -5.581194e+001 -3.767805e+000 3.331581e+001 -3.736750e+000 3.330644e+001 -2.959913e+000 -5.649976e+001
82590937.5 -3.047969e+000 -5.573508e+001 -3.739040e+000 3.326544e+001 -3.725105e+000 3.318768e+001 -3.012405e+000 -5.671327e+001
82963125 -3.067134e+000 -5.612326e+001 -3.711263e+000 3.292694e+001 -3.693705e+000 3.289108e+001 -2.998110e+000 -5.701842e+001
83335312.5 -3.072093e+000 -5.631663e+001 -3.691221e+000 3.265937e+001 -3.687682e+000 3.260561e+001 -3.038334e+000 -5.713840e+001
83707500 -3.091405e+000 -5.653436e+001 -3.677776e+000 3.266192e+001 -3.654661e+000 3.252130e+001 -3.048399e+000 -5.737796e+001
84079687.5 -3.113225e+000 -5.655074e+001 -3.671982e+000 3.250389e+001 -3.645876e+000 3.224045e+001 -3.073864e+000 -5.751838e+001
84451875 -3.125092e+000 -5.673740e+001 -3.652140e+000 3.232385e+001 -3.646484e+000 3.216038e+001 -3.100214e+000 -5.767074e+001
84824062.5 -3.152770e+000 -5.699505e+001 -3.617706e+000 3.210311e+001 -3.619485e+000 3.199518e+001 -3.114926e+000 -5.781705e+001
85196250 -3.165103e+000 -5.713348e+001 -3.617101e+000 3.191805e+001 -3.616526e+000 3.181731e+001 -3.131609e+000 -5.803318e+001
85568437.5 -3.186567e+000 -5.724507e+001 -3.570260e+000 3.183671e+001 -3.595608e+000 3.162218e+001 -3.152997e+000 -5.809418e+001
85940625 -3.202995e+000 -5.749710e+001 -3.560287e+000 3.159590e+001 -3.564629e+000 3.141121e+001 -3.164878e+000 -5.834379e+001
86312812.5 -3.225751e+000 -5.769691e+001 -3.545645e+000 3.135275e+001 -3.546215e+000 3.126799e+001 -3.183143e+000 -5.854845e+001
86685000 -3.231206e+000 -5.779673e+001 -3.533375e+000 3.127738e+001 -3.520431e+000 3.111129e+001 -3.210207e+000 -5.859235e+001
87057187.5 -3.253093e+000 -5.805580e+001 -3.512190e+000 3.095949e+001 -3.550209e+000 3.093451e+001 -3.230538e+000 -5.883086e+001
87429375 -3.252809e+000 -5.817371e+001 -3.506452e+000 3.086765e+001 -3.496448e+000 3.082048e+001 -3.242244e+000 -5.902719e+001
87801562.5 -3.283312e+000 -5.844339e+001 -3.474707e+000 3.057002e+001 -3.496421e+000 3.057090e+001 -3.269703e+000 -5.921500e+001
88173750 -3.292588e+000 -5.845884e+001 -3.449744e+000 3.050321e+001 -3.473310e+000 3.050327e+001 -3.281626e+000 -5.931666e+001
88545937.5 -3.323065e+000 -5.865264e+001 -3.443757e+000 3.026660e+001 -3.433812e+000 3.010307e+001 -3.287773e+000 -5.966013e+001
88918125 -3.350450e+000 -5.881063e+001 -3.441075e+000 3.005304e+001 -3.435466e+000 2.999966e+001 -3.324564e+000 -5.973387e+001
89290312.5 -3.370830e+000 -5.900518e+001 -3.430494e+000 2.988847e+001 -3.400125e+000 3.003235e+001 -3.321292e+000 -5.994297e+001
89662500 -3.387150e+000 -5.925684e+001 -3.421247e+000 2.980880e+001 -3.399295e+000 2.977844e+001 -3.353174e+000 -6.003220e+001
90034687.5 -3.391326e+000 -5.939590e+001 -3.383461e+000 2.954926e+001 -3.392191e+000 2.974557e+001 -3.345567e+000 -6.021750e+001
90406875 -3.413144e+000 -5.959804e+001 -3.361632e+000 2.934577e+001 -3.375291e+000 2.947824e+001 -3.375234e+000 -6.049380e+001
90779062.5 -3.445343e+000 -5.960682e+001 -3.359560e+000 2.922074e+001 -3.363571e+000 2.927208e+001 -3.419107e+000 -6.057390e+001
91151250 -3.458113e+000 -5.976670e+001 -3.342998e+000 2.923952e+001 -3.348357e+000 2.922906e+001 -3.443694e+000 -6.061887e+001
91523437.5 -3.472697e+000 -5.999062e+001 -3.326920e+000 2.905377e+001 -3.329468e+000 2.869501e+001 -3.450916e+000 -6.090506e+001
91895625 -3.492612e+000 -6.016510e+001 -3.318512e+000 2.892326e+001 -3.320734e+000 2.876552e+001 -3.461215e+000 -6.105915e+001
92267812.5 -3.503981e+000 -6.027568e+001 -3.298736e+000 2.860452e+001 -3.281213e+000 2.860381e+001 -3.458344e+000 -6.115245e+001
92640000 -3.522265e+000 -6.042581e+001 -3.283381e+000 2.865260e+001 -3.268914e+000 2.847392e+001 -3.502794e+000 -6.133791e+001
93012187.5 -3.550942e+000 -6.062014e+001 -3.269185e+000 2.833163e+001 -3.250912e+000 2.828162e+001 -3.505201e+000 -6.171709e+001
93384375 -3.565868e+000 -6.083852e+001 -3.256813e+000 2.799164e+001 -3.232441e+000 2.808912e+001 -3.524221e+000 -6.178645e+001
93756562.5 -3.569610e+000 -6.079519e+001 -3.245436e+000 2.788003e+001 -3.233102e+000 2.794740e+001 -3.555664e+000 -6.188226e+001
94128750 -3.595864e+000 -6.112263e+001 -3.227404e+000 2.771154e+001 -3.229018e+000 2.767567e+001 -3.574785e+000 -6.218925e+001
94500937.5 -3.618473e+000 -6.116267e+001 -3.209535e+000 2.773662e+001 -3.223256e+000 2.771325e+001 -3.589000e+000 -6.206703e+001
94873125 -3.628408e+000 -6.145892e+001 -3.201823e+000 2.749947e+001 -3.191916e+000 2.757032e+001 -3.596311e+000 -6.235194e+001
95245312.5 -3.648240e+000 -6.155604e+001 -3.182755e+000 2.725254e+001 -3.166096e+000 2.720352e+001 -3.613289e+000 -6.252546e+001
95617500 -3.674360e+000 -6.181840e+001 -3.161055e+000 2.717958e+001 -3.181245e+000 2.717959e+001 -3.659462e+000 -6.270568e+001
95989687.5 -3.676317e+000 -6.191584e+001 -3.143420e+000 2.707554e+001 -3.157064e+000 2.700774e+001 -3.660621e+000 -6.286372e+001
96361875 -3.721469e+000 -6.205769e+001 -3.129857e+000 2.686426e+001 -3.159154e+000 2.691233e+001 -3.682255e+000 -6.305978e+001
96734062.5 -3.734076e+000 -6.219182e+001 -3.128627e+000 2.661888e+001 -3.135630e+000 2.681949e+001 -3.686755e+000 -6.309308e+001
97106250 -3.750783e+000 -6.238171e+001 -3.115720e+000 2.649244e+001 -3.125622e+000 2.644868e+001 -3.719960e+000 -6.336399e+001
97478437.5 -3.757720e+000 -6.248106e+001 -3.123274e+000 2.628360e+001 -3.097924e+000 2.638224e+001 -3.737093e+000 -6.359439e+001
97850625 -3.767321e+000 -6.261782e+001 -3.090244e+000 2.627715e+001 -3.082883e+000 2.610142e+001 -3.732125e+000 -6.363352e+001
98222812.5 -3.801856e+000 -6.282708e+001 -3.084235e+000 2.598810e+001 -3.088317e+000 2.601552e+001 -3.764563e+000 -6.372904e+001
98595000 -3.815414e+000 -6.316164e+001 -3.050336e+000 2.591726e+001 -3.050717e+000 2.588951e+001 -3.773199e+000 -6.385923e+001
98967187.5 -3.828264e+000 -6.310626e+001 -3.054684e+000 2.572052e+001 -3.058256e+000 2.558542e+001 -3.809262e+000 -6.402229e+001
99339375 -3.847544e+000 -6.334290e+001 -3.040243e+000 2.553195e+001 -3.039775e+000 2.546171e+001 -3.797857e+000 -6.419054e+001
99711562.5 -3.859942e+000 -6.343463e+001 -3.006318e+000 2.530532e+001 -3.014588e+000 2.551213e+001 -3.842087e+000 -6.442703e+001
100083750 -3.888459e+000 -6.361894e+001 -3.022903e+000 2.532720e+001 -3.012742e+000 2.509193e+001 -3.847225e+000 -6.457652e+001
100455937.5 -3.907622e+000 -6.377147e+001 -2.994023e+000 2.506727e+001 -2.993779e+000 2.520312e+001 -3.861706e+000 -6.474563e+001
100828125 -3.911538e+000 -6.399528e+001 -2.962842e+000 2.497974e+001 -2.978646e+000 2.499181e+001 -3.889427e+000 -6.489118e+001
101200312.5 -3.936549e+000 -6.398139e+001 -2.965969e+000 2.483990e+001 -2.951518e+000 2.481096e+001 -3.899112e+000 -6.498135e+001
