!Agilent Technologies,E8364A,US41440144,A.06.04.32
!Agilent E8364A: A.06.04.32
!Date: Thursday, November 08, 2018 14:32:05
!Correction: S11(Full 2 Port(1,2)) S21(Full 2 Port(1,2)) S12(Full 2 Port(1,2)) S22(Full 2 Port(1,2)) 
!S2P File: Measurements: S11, S21, S12, S22:
# Hz S  dB   R 50
45000000 -1.709436e-001 -2.675765e+001 7.317984e+000 -6.648857e+001 -4.396075e+001 1.396669e+002 -6.993283e-001 -6.525806e+001
45372187.5 -1.719594e-001 -2.699408e+001 7.437737e+000 -6.693868e+001 -4.458744e+001 1.414913e+002 -7.059929e-001 -6.582473e+001
45744375 -1.703488e-001 -2.726288e+001 7.548664e+000 -6.726891e+001 -4.260322e+001 1.379045e+002 -7.039018e-001 -6.635580e+001
46116562.5 -1.798045e-001 -2.746794e+001 7.637622e+000 -6.766692e+001 -4.254382e+001 1.381450e+002 -7.536867e-001 -6.679956e+001
46488750 -1.863605e-001 -2.771733e+001 7.747788e+000 -6.809984e+001 -4.285859e+001 1.337336e+002 -7.252269e-001 -6.732650e+001
46860937.5 -1.950258e-001 -2.789613e+001 7.876233e+000 -6.844627e+001 -4.274617e+001 1.424352e+002 -7.322661e-001 -6.788010e+001
47233125 -2.037172e-001 -2.813138e+001 7.977821e+000 -6.871269e+001 -4.355338e+001 1.347070e+002 -7.817305e-001 -6.841325e+001
47605312.5 -2.214722e-001 -2.832886e+001 8.062623e+000 -6.905428e+001 -4.322511e+001 1.295301e+002 -7.749227e-001 -6.894189e+001
47977500 -2.200959e-001 -2.858874e+001 8.187726e+000 -6.951421e+001 -4.269804e+001 1.305798e+002 -8.056415e-001 -6.932883e+001
48349687.5 -2.413162e-001 -2.883907e+001 8.255190e+000 -6.984026e+001 -4.256776e+001 1.335666e+002 -8.101263e-001 -6.979427e+001
48721875 -2.337991e-001 -2.911797e+001 8.370503e+000 -7.032513e+001 -4.175560e+001 1.335362e+002 -8.248300e-001 -7.028873e+001
49094062.5 -2.400222e-001 -2.924463e+001 8.473627e+000 -7.057821e+001 -4.192394e+001 1.295184e+002 -8.421171e-001 -7.085580e+001
49466250 -2.419319e-001 -2.958756e+001 8.558203e+000 -7.106055e+001 -4.157465e+001 1.387672e+002 -8.248691e-001 -7.137278e+001
49838437.5 -2.599812e-001 -2.971346e+001 8.657990e+000 -7.146472e+001 -4.213013e+001 1.328732e+002 -8.464836e-001 -7.176107e+001
50210625 -2.780675e-001 -3.000520e+001 8.755273e+000 -7.163290e+001 -4.223230e+001 1.240066e+002 -8.664855e-001 -7.221500e+001
50582812.5 -2.740626e-001 -3.019889e+001 8.865038e+000 -7.201347e+001 -4.170075e+001 1.319353e+002 -8.505526e-001 -7.267372e+001
50955000 -2.893338e-001 -3.039534e+001 8.962833e+000 -7.234731e+001 -4.142396e+001 1.278155e+002 -9.008437e-001 -7.322243e+001
51327187.5 -2.927101e-001 -3.060781e+001 9.064303e+000 -7.277412e+001 -4.140988e+001 1.295343e+002 -9.147909e-001 -7.377299e+001
51699375 -3.000494e-001 -3.077243e+001 9.161361e+000 -7.312778e+001 -4.115674e+001 1.294733e+002 -9.435585e-001 -7.427923e+001
52071562.5 -2.992410e-001 -3.117262e+001 9.246618e+000 -7.347747e+001 -4.111449e+001 1.244659e+002 -9.361287e-001 -7.464890e+001
52443750 -3.171331e-001 -3.133095e+001 9.345345e+000 -7.387743e+001 -4.087467e+001 1.281876e+002 -9.279447e-001 -7.508498e+001
52815937.5 -3.173462e-001 -3.150721e+001 9.459163e+000 -7.412832e+001 -4.165358e+001 1.315140e+002 -9.607595e-001 -7.561199e+001
53188125 -3.386509e-001 -3.175707e+001 9.529510e+000 -7.449524e+001 -4.080492e+001 1.264604e+002 -9.764271e-001 -7.612197e+001
53560312.5 -3.491484e-001 -3.208766e+001 9.618625e+000 -7.496729e+001 -4.090249e+001 1.256146e+002 -1.000093e+000 -7.660586e+001
53932500 -3.488409e-001 -3.214730e+001 9.709945e+000 -7.519048e+001 -4.082459e+001 1.248395e+002 -1.017122e+000 -7.714598e+001
54304687.5 -3.524061e-001 -3.245498e+001 9.803678e+000 -7.560883e+001 -4.071469e+001 1.269911e+002 -1.010623e+000 -7.755419e+001
54676875 -3.751024e-001 -3.266482e+001 9.886521e+000 -7.589474e+001 -4.019994e+001 1.218398e+002 -1.023883e+000 -7.797523e+001
55049062.5 -3.799098e-001 -3.286954e+001 9.977363e+000 -7.627712e+001 -4.046169e+001 1.226963e+002 -1.029935e+000 -7.843867e+001
55421250 -3.909888e-001 -3.309127e+001 1.005593e+001 -7.670321e+001 -4.039806e+001 1.230675e+002 -1.058593e+000 -7.890674e+001
55793437.5 -4.087434e-001 -3.329450e+001 1.013694e+001 -7.698557e+001 -4.067237e+001 1.228145e+002 -1.094347e+000 -7.950008e+001
56165625 -4.106783e-001 -3.361943e+001 1.023282e+001 -7.736916e+001 -3.987308e+001 1.238513e+002 -1.087581e+000 -7.993446e+001
56537812.5 -4.148983e-001 -3.375371e+001 1.032706e+001 -7.770013e+001 -4.034074e+001 1.235948e+002 -1.093768e+000 -8.038284e+001
56910000 -4.320835e-001 -3.397968e+001 1.039480e+001 -7.801284e+001 -3.956087e+001 1.219625e+002 -1.122716e+000 -8.082309e+001
57282187.5 -4.410503e-001 -3.419368e+001 1.046920e+001 -7.845035e+001 -4.004871e+001 1.226725e+002 -1.144576e+000 -8.136098e+001
57654375 -4.491522e-001 -3.440185e+001 1.055662e+001 -7.865394e+001 -3.988314e+001 1.200570e+002 -1.132331e+000 -8.172854e+001
58026562.5 -4.625940e-001 -3.470070e+001 1.064237e+001 -7.917715e+001 -3.994660e+001 1.183619e+002 -1.140685e+000 -8.224820e+001
58398750 -4.667126e-001 -3.481460e+001 1.070395e+001 -7.937831e+001 -3.991499e+001 1.207279e+002 -1.173371e+000 -8.262775e+001
58770937.5 -4.784138e-001 -3.509831e+001 1.079902e+001 -7.981670e+001 -3.983678e+001 1.202154e+002 -1.186742e+000 -8.306689e+001
59143125 -4.922734e-001 -3.530147e+001 1.088370e+001 -8.016001e+001 -3.959166e+001 1.192922e+002 -1.181539e+000 -8.361268e+001
59515312.5 -4.992452e-001 -3.554221e+001 1.094503e+001 -8.057743e+001 -3.908945e+001 1.188073e+002 -1.216385e+000 -8.397507e+001
59887500 -5.288648e-001 -3.576724e+001 1.101323e+001 -8.088670e+001 -3.968016e+001 1.199670e+002 -1.214004e+000 -8.437705e+001
60259687.5 -5.182458e-001 -3.592060e+001 1.109601e+001 -8.119180e+001 -3.955914e+001 1.194694e+002 -1.251884e+000 -8.485139e+001
60631875 -5.360804e-001 -3.614648e+001 1.116414e+001 -8.146297e+001 -3.887602e+001 1.179016e+002 -1.252419e+000 -8.555711e+001
61004062.5 -5.364449e-001 -3.627217e+001 1.124951e+001 -8.180148e+001 -3.947169e+001 1.183668e+002 -1.274438e+000 -8.592764e+001
61376250 -5.428182e-001 -3.664519e+001 1.133702e+001 -8.233018e+001 -3.852205e+001 1.184494e+002 -1.280054e+000 -8.618819e+001
61748437.5 -5.735343e-001 -3.683870e+001 1.137341e+001 -8.261941e+001 -3.885190e+001 1.188902e+002 -1.302271e+000 -8.678711e+001
62120625 -5.656862e-001 -3.703690e+001 1.146615e+001 -8.305547e+001 -3.831764e+001 1.175456e+002 -1.294000e+000 -8.711960e+001
62492812.5 -5.940508e-001 -3.715868e+001 1.153108e+001 -8.319527e+001 -3.879386e+001 1.148749e+002 -1.313505e+000 -8.756022e+001
62865000 -5.967610e-001 -3.748275e+001 1.160933e+001 -8.374106e+001 -3.896227e+001 1.153736e+002 -1.348650e+000 -8.805612e+001
63237187.5 -6.057476e-001 -3.769514e+001 1.167240e+001 -8.400690e+001 -3.840516e+001 1.145512e+002 -1.341853e+000 -8.853354e+001
63609375 -6.214109e-001 -3.790457e+001 1.174284e+001 -8.435561e+001 -3.883284e+001 1.152962e+002 -1.382280e+000 -8.899320e+001
63981562.5 -6.278635e-001 -3.806806e+001 1.180761e+001 -8.468690e+001 -3.824847e+001 1.125069e+002 -1.388345e+000 -8.939639e+001
64353750 -6.331070e-001 -3.824204e+001 1.188959e+001 -8.498820e+001 -3.835906e+001 1.119546e+002 -1.407736e+000 -8.991473e+001
64725937.5 -6.513381e-001 -3.844464e+001 1.195915e+001 -8.538388e+001 -3.829348e+001 1.130749e+002 -1.422957e+000 -9.023553e+001
65098125 -6.779041e-001 -3.870171e+001 1.202109e+001 -8.571332e+001 -3.834084e+001 1.136507e+002 -1.429812e+000 -9.066210e+001
65470312.5 -6.822038e-001 -3.890686e+001 1.206900e+001 -8.608720e+001 -3.785824e+001 1.111623e+002 -1.450639e+000 -9.120480e+001
65842500 -6.943661e-001 -3.922270e+001 1.214275e+001 -8.652197e+001 -3.805433e+001 1.104959e+002 -1.460835e+000 -9.149977e+001
66214687.5 -7.090268e-001 -3.940781e+001 1.221773e+001 -8.677183e+001 -3.821076e+001 1.112681e+002 -1.483578e+000 -9.201214e+001
66586875 -7.137660e-001 -3.954070e+001 1.226644e+001 -8.712524e+001 -3.772646e+001 1.114994e+002 -1.490737e+000 -9.239529e+001
66959062.5 -7.232193e-001 -3.975174e+001 1.234089e+001 -8.734968e+001 -3.808703e+001 1.106741e+002 -1.522039e+000 -9.283147e+001
67331250 -7.437738e-001 -3.992714e+001 1.239074e+001 -8.780008e+001 -3.782343e+001 1.099877e+002 -1.551301e+000 -9.327734e+001
67703437.5 -7.692384e-001 -4.024651e+001 1.245690e+001 -8.829482e+001 -3.748690e+001 1.104734e+002 -1.545278e+000 -9.377856e+001
68075625 -7.598361e-001 -4.037807e+001 1.251654e+001 -8.845210e+001 -3.749176e+001 1.102072e+002 -1.574224e+000 -9.406752e+001
68447812.5 -7.837772e-001 -4.054259e+001 1.258404e+001 -8.876559e+001 -3.759430e+001 1.098424e+002 -1.573174e+000 -9.450858e+001
68820000 -8.038683e-001 -4.071421e+001 1.262710e+001 -8.909287e+001 -3.752176e+001 1.085296e+002 -1.595794e+000 -9.489560e+001
69192187.5 -8.137565e-001 -4.101852e+001 1.269299e+001 -8.950319e+001 -3.708065e+001 1.091240e+002 -1.615461e+000 -9.546841e+001
69564375 -8.186035e-001 -4.119016e+001 1.276083e+001 -8.985913e+001 -3.755140e+001 1.090026e+002 -1.644109e+000 -9.590041e+001
69936562.5 -8.287655e-001 -4.140723e+001 1.282289e+001 -9.029116e+001 -3.702247e+001 1.060637e+002 -1.657815e+000 -9.632800e+001
70308750 -8.616735e-001 -4.160612e+001 1.286154e+001 -9.055487e+001 -3.737299e+001 1.086034e+002 -1.667045e+000 -9.652682e+001
70680937.5 -8.686165e-001 -4.179564e+001 1.291137e+001 -9.084687e+001 -3.717419e+001 1.072450e+002 -1.677530e+000 -9.698695e+001
71053125 -8.730834e-001 -4.205528e+001 1.298537e+001 -9.125481e+001 -3.706735e+001 1.079626e+002 -1.687794e+000 -9.737082e+001
71425312.5 -8.798661e-001 -4.215198e+001 1.303786e+001 -9.153380e+001 -3.710619e+001 1.055343e+002 -1.711101e+000 -9.789740e+001
71797500 -8.945078e-001 -4.246593e+001 1.307696e+001 -9.200113e+001 -3.712873e+001 1.058435e+002 -1.734228e+000 -9.829317e+001
72169687.5 -9.128519e-001 -4.263381e+001 1.314562e+001 -9.233667e+001 -3.705432e+001 1.053107e+002 -1.744170e+000 -9.871293e+001
72541875 -9.405649e-001 -4.279478e+001 1.318210e+001 -9.260303e+001 -3.683966e+001 1.052141e+002 -1.754746e+000 -9.904076e+001
72914062.5 -9.581423e-001 -4.292509e+001 1.323837e+001 -9.295155e+001 -3.677400e+001 1.039714e+002 -1.772448e+000 -9.950190e+001
73286250 -9.645773e-001 -4.325891e+001 1.330062e+001 -9.328308e+001 -3.664197e+001 1.055791e+002 -1.798324e+000 -9.995020e+001
73658437.5 -9.829953e-001 -4.341702e+001 1.335098e+001 -9.375196e+001 -3.662323e+001 1.056202e+002 -1.811945e+000 -1.003233e+002
74030625 -9.974056e-001 -4.358826e+001 1.339615e+001 -9.399463e+001 -3.642934e+001 1.031769e+002 -1.805979e+000 -1.006338e+002
74402812.5 -1.007317e+000 -4.380111e+001 1.344249e+001 -9.441612e+001 -3.694617e+001 1.011229e+002 -1.836236e+000 -1.011207e+002
74775000 -1.032875e+000 -4.407732e+001 1.350217e+001 -9.477783e+001 -3.642539e+001 1.014741e+002 -1.870303e+000 -1.015387e+002
75147187.5 -1.039122e+000 -4.414207e+001 1.354690e+001 -9.501517e+001 -3.670083e+001 1.018451e+002 -1.861663e+000 -1.019308e+002
75519375 -1.047896e+000 -4.435869e+001 1.360263e+001 -9.538566e+001 -3.650518e+001 1.011286e+002 -1.891538e+000 -1.023975e+002
75891562.5 -1.085519e+000 -4.455676e+001 1.364997e+001 -9.576378e+001 -3.636982e+001 1.020141e+002 -1.884280e+000 -1.025497e+002
76263750 -1.088580e+000 -4.463230e+001 1.369543e+001 -9.601586e+001 -3.622490e+001 9.899151e+001 -1.919908e+000 -1.029558e+002
76635937.5 -1.098087e+000 -4.502489e+001 1.372710e+001 -9.639362e+001 -3.628408e+001 1.002065e+002 -1.935868e+000 -1.033985e+002
77008125 -1.104862e+000 -4.508595e+001 1.377744e+001 -9.681738e+001 -3.616294e+001 9.983679e+001 -1.970193e+000 -1.037585e+002
77380312.5 -1.121934e+000 -4.517989e+001 1.381350e+001 -9.703119e+001 -3.641085e+001 9.951977e+001 -1.983268e+000 -1.041843e+002
77752500 -1.143234e+000 -4.547055e+001 1.385505e+001 -9.746520e+001 -3.586806e+001 9.888729e+001 -1.980102e+000 -1.046393e+002
78124687.5 -1.174046e+000 -4.561540e+001 1.391644e+001 -9.776861e+001 -3.613927e+001 9.934711e+001 -1.985635e+000 -1.050447e+002
78496875 -1.190692e+000 -4.589209e+001 1.395551e+001 -9.810551e+001 -3.584110e+001 9.922418e+001 -2.022049e+000 -1.054060e+002
78869062.5 -1.182695e+000 -4.603532e+001 1.399905e+001 -9.842442e+001 -3.596868e+001 9.824265e+001 -2.045949e+000 -1.058215e+002
79241250 -1.208303e+000 -4.621082e+001 1.403539e+001 -9.869926e+001 -3.606994e+001 9.865875e+001 -2.057439e+000 -1.061348e+002
79613437.5 -1.215407e+000 -4.638336e+001 1.407806e+001 -9.913755e+001 -3.604009e+001 9.635744e+001 -2.087164e+000 -1.064169e+002
79985625 -1.238839e+000 -4.646661e+001 1.410985e+001 -9.943378e+001 -3.589927e+001 9.828683e+001 -2.086937e+000 -1.068694e+002
80357812.5 -1.264979e+000 -4.671951e+001 1.415330e+001 -9.976029e+001 -3.590570e+001 9.629848e+001 -2.087353e+000 -1.072452e+002
80730000 -1.290926e+000 -4.684146e+001 1.418331e+001 -1.002888e+002 -3.585294e+001 9.627651e+001 -2.111046e+000 -1.076180e+002
81102187.5 -1.306562e+000 -4.690367e+001 1.420234e+001 -1.002821e+002 -3.554165e+001 9.686260e+001 -2.124035e+000 -1.080478e+002
81474375 -1.315176e+000 -4.709984e+001 1.424191e+001 -1.007588e+002 -3.573410e+001 9.653680e+001 -2.133315e+000 -1.085144e+002
81846562.5 -1.331272e+000 -4.726362e+001 1.429576e+001 -1.011157e+002 -3.576565e+001 9.567848e+001 -2.173267e+000 -1.086611e+002
82218750 -1.359454e+000 -4.748148e+001 1.431548e+001 -1.013325e+002 -3.546949e+001 9.482508e+001 -2.157777e+000 -1.090356e+002
82590937.5 -1.379679e+000 -4.749108e+001 1.435814e+001 -1.017533e+002 -3.556179e+001 9.356133e+001 -2.198333e+000 -1.094808e+002
82963125 -1.388574e+000 -4.778158e+001 1.440149e+001 -1.021170e+002 -3.551886e+001 9.311395e+001 -2.188073e+000 -1.099307e+002
83335312.5 -1.408597e+000 -4.795948e+001 1.442338e+001 -1.025506e+002 -3.563161e+001 9.254000e+001 -2.227406e+000 -1.102884e+002
83707500 -1.427515e+000 -4.808038e+001 1.445500e+001 -1.026808e+002 -3.530233e+001 9.271050e+001 -2.234459e+000 -1.106408e+002
84079687.5 -1.448128e+000 -4.815598e+001 1.447028e+001 -1.030005e+002 -3.534262e+001 9.258875e+001 -2.272883e+000 -1.109407e+002
84451875 -1.468215e+000 -4.836362e+001 1.450051e+001 -1.033541e+002 -3.534274e+001 9.163416e+001 -2.275428e+000 -1.112565e+002
84824062.5 -1.483735e+000 -4.847620e+001 1.455412e+001 -1.036549e+002 -3.539318e+001 9.298716e+001 -2.296046e+000 -1.116001e+002
85196250 -1.492939e+000 -4.857365e+001 1.455020e+001 -1.039551e+002 -3.543649e+001 9.238746e+001 -2.295190e+000 -1.119748e+002
85568437.5 -1.511742e+000 -4.871716e+001 1.461335e+001 -1.042272e+002 -3.535661e+001 9.058683e+001 -2.304905e+000 -1.123117e+002
85940625 -1.517400e+000 -4.888575e+001 1.463136e+001 -1.045759e+002 -3.526524e+001 9.076017e+001 -2.331782e+000 -1.126397e+002
86312812.5 -1.553278e+000 -4.904831e+001 1.466171e+001 -1.049309e+002 -3.518842e+001 9.162708e+001 -2.344730e+000 -1.130316e+002
86685000 -1.541137e+000 -4.910880e+001 1.468853e+001 -1.050658e+002 -3.514488e+001 8.996896e+001 -2.371569e+000 -1.132733e+002
87057187.5 -1.583871e+000 -4.922912e+001 1.470681e+001 -1.055559e+002 -3.505360e+001 8.960252e+001 -2.382798e+000 -1.135988e+002
87429375 -1.569797e+000 -4.937832e+001 1.471656e+001 -1.057337e+002 -3.534636e+001 9.075368e+001 -2.383291e+000 -1.140052e+002
87801562.5 -1.572387e+000 -4.959955e+001 1.476592e+001 -1.061136e+002 -3.500132e+001 9.002027e+001 -2.415999e+000 -1.142984e+002
88173750 -1.614005e+000 -4.942612e+001 1.477805e+001 -1.062902e+002 -3.510218e+001 8.876821e+001 -2.415630e+000 -1.147075e+002
88545937.5 -1.624603e+000 -4.976871e+001 1.480345e+001 -1.067007e+002 -3.507848e+001 8.844363e+001 -2.418895e+000 -1.152011e+002
88918125 -1.660387e+000 -4.970684e+001 1.480429e+001 -1.069090e+002 -3.507787e+001 8.962336e+001 -2.438954e+000 -1.153709e+002
89290312.5 -1.663468e+000 -5.000263e+001 1.481745e+001 -1.072450e+002 -3.484534e+001 8.844546e+001 -2.446620e+000 -1.157534e+002
89662500 -1.687585e+000 -5.012866e+001 1.483810e+001 -1.072862e+002 -3.498615e+001 8.942211e+001 -2.481758e+000 -1.160997e+002
90034687.5 -1.664960e+000 -5.008073e+001 1.488234e+001 -1.076394e+002 -3.484924e+001 8.881286e+001 -2.465672e+000 -1.164577e+002
90406875 -1.673661e+000 -5.020881e+001 1.490615e+001 -1.078742e+002 -3.482626e+001 8.739529e+001 -2.482391e+000 -1.167911e+002
90779062.5 -1.696894e+000 -5.019081e+001 1.491074e+001 -1.080980e+002 -3.486662e+001 8.825593e+001 -2.509604e+000 -1.170872e+002
91151250 -1.722283e+000 -5.036630e+001 1.493009e+001 -1.081406e+002 -3.485814e+001 8.695927e+001 -2.537916e+000 -1.173168e+002
91523437.5 -1.715641e+000 -5.048354e+001 1.495049e+001 -1.083817e+002 -3.494349e+001 8.668797e+001 -2.553466e+000 -1.177346e+002
91895625 -1.747215e+000 -5.062594e+001 1.495776e+001 -1.085968e+002 -3.485301e+001 8.593606e+001 -2.539619e+000 -1.180932e+002
92267812.5 -1.741702e+000 -5.054436e+001 1.498330e+001 -1.088274e+002 -3.481291e+001 8.582340e+001 -2.538244e+000 -1.184567e+002
92640000 -1.760805e+000 -5.077402e+001 1.500557e+001 -1.089432e+002 -3.470577e+001 8.537505e+001 -2.562913e+000 -1.187664e+002
93012187.5 -1.788891e+000 -5.078978e+001 1.501443e+001 -1.092053e+002 -3.464784e+001 8.653378e+001 -2.584721e+000 -1.193121e+002
93384375 -1.775517e+000 -5.101300e+001 1.504481e+001 -1.095869e+002 -3.464011e+001 8.436195e+001 -2.592026e+000 -1.195589e+002
93756562.5 -1.759174e+000 -5.086699e+001 1.506732e+001 -1.097047e+002 -3.471146e+001 8.613453e+001 -2.606994e+000 -1.198882e+002
94128750 -1.794488e+000 -5.118843e+001 1.508429e+001 -1.098913e+002 -3.465010e+001 8.531729e+001 -2.633682e+000 -1.203972e+002
94500937.5 -1.798122e+000 -5.123084e+001 1.511468e+001 -1.099144e+002 -3.449607e+001 8.440854e+001 -2.618249e+000 -1.204439e+002
94873125 -1.810949e+000 -5.153386e+001 1.513778e+001 -1.101548e+002 -3.457206e+001 8.521461e+001 -2.635504e+000 -1.210089e+002
95245312.5 -1.815551e+000 -5.162542e+001 1.515950e+001 -1.104923e+002 -3.462769e+001 8.553724e+001 -2.653193e+000 -1.213308e+002
95617500 -1.838907e+000 -5.175185e+001 1.519606e+001 -1.104938e+002 -3.445716e+001 8.533497e+001 -2.668742e+000 -1.215572e+002
95989687.5 -1.813575e+000 -5.179062e+001 1.521527e+001 -1.106131e+002 -3.455223e+001 8.434813e+001 -2.671964e+000 -1.219086e+002
96361875 -1.833319e+000 -5.188824e+001 1.525057e+001 -1.109074e+002 -3.456382e+001 8.475257e+001 -2.685524e+000 -1.224027e+002
96734062.5 -1.855448e+000 -5.200758e+001 1.526509e+001 -1.110746e+002 -3.459935e+001 8.365591e+001 -2.679092e+000 -1.225787e+002
97106250 -1.850176e+000 -5.211555e+001 1.528559e+001 -1.112308e+002 -3.427915e+001 8.404173e+001 -2.707410e+000 -1.230446e+002
97478437.5 -1.842074e+000 -5.242271e+001 1.529609e+001 -1.115245e+002 -3.436527e+001 8.337756e+001 -2.730989e+000 -1.233976e+002
97850625 -1.849922e+000 -5.244722e+001 1.533475e+001 -1.114848e+002 -3.432646e+001 8.221918e+001 -2.708611e+000 -1.235710e+002
98222812.5 -1.878211e+000 -5.253562e+001 1.535819e+001 -1.118196e+002 -3.435169e+001 8.329293e+001 -2.735192e+000 -1.239129e+002
98595000 -1.885540e+000 -5.272666e+001 1.539881e+001 -1.118683e+002 -3.430529e+001 8.363715e+001 -2.748159e+000 -1.243581e+002
98967187.5 -1.905866e+000 -5.276654e+001 1.540816e+001 -1.121013e+002 -3.442243e+001 8.314236e+001 -2.768437e+000 -1.246759e+002
99339375 -1.908526e+000 -5.297731e+001 1.543398e+001 -1.123407e+002 -3.427271e+001 8.188223e+001 -2.770223e+000 -1.250352e+002
99711562.5 -1.919590e+000 -5.307123e+001 1.547948e+001 -1.126003e+002 -3.417168e+001 8.303459e+001 -2.803822e+000 -1.254567e+002
100083750 -1.904076e+000 -5.334303e+001 1.549144e+001 -1.127190e+002 -3.407343e+001 8.162135e+001 -2.809431e+000 -1.256730e+002
100455937.5 -1.915077e+000 -5.340262e+001 1.554065e+001 -1.129099e+002 -3.402408e+001 8.184811e+001 -2.810261e+000 -1.261909e+002
100828125 -1.909468e+000 -5.363627e+001 1.557908e+001 -1.131048e+002 -3.408273e+001 8.188472e+001 -2.821167e+000 -1.265195e+002
101200312.5 -1.913277e+000 -5.368388e+001 1.559540e+001 -1.132418e+002 -3.392981e+001 8.171854e+001 -2.831695e+000 -1.268034e+002
