!Agilent Technologies,E8364A,US41440144,A.06.04.32
!Agilent E8364A: A.06.04.32
!Date: Thursday, November 08, 2018 14:15:29
!Correction: S11(Full 2 Port(1,2)) S21(Full 2 Port(1,2)) S12(Full 2 Port(1,2)) S22(Full 2 Port(1,2)) 
!S2P File: Measurements: S11, S21, S12, S22:
# Hz S  dB   R 50
45000000 -1.652724e-001 -2.664054e+001 7.323150e+000 -6.636019e+001 -4.281932e+001 1.415619e+002 -6.824762e-001 -6.505271e+001
45372187.5 -1.664338e-001 -2.683340e+001 7.432497e+000 -6.689636e+001 -4.396202e+001 1.357278e+002 -6.909636e-001 -6.571519e+001
45744375 -1.627383e-001 -2.711617e+001 7.558604e+000 -6.728384e+001 -4.263387e+001 1.392898e+002 -7.007021e-001 -6.618912e+001
46116562.5 -1.678414e-001 -2.736517e+001 7.639563e+000 -6.773012e+001 -4.264471e+001 1.352428e+002 -7.284794e-001 -6.657328e+001
46488750 -1.740519e-001 -2.758778e+001 7.744681e+000 -6.811465e+001 -4.250054e+001 1.367645e+002 -7.067602e-001 -6.709383e+001
46860937.5 -1.850646e-001 -2.781759e+001 7.870255e+000 -6.840497e+001 -4.198429e+001 1.384947e+002 -7.273895e-001 -6.766956e+001
47233125 -1.883487e-001 -2.801346e+001 7.979733e+000 -6.868976e+001 -4.277505e+001 1.345165e+002 -7.603866e-001 -6.818354e+001
47605312.5 -2.112094e-001 -2.823168e+001 8.062747e+000 -6.906897e+001 -4.332502e+001 1.338649e+002 -7.526423e-001 -6.876025e+001
47977500 -2.118564e-001 -2.848256e+001 8.178319e+000 -6.950704e+001 -4.300081e+001 1.330399e+002 -7.842284e-001 -6.912259e+001
48349687.5 -2.263297e-001 -2.883632e+001 8.249104e+000 -6.989749e+001 -4.169289e+001 1.346323e+002 -7.838486e-001 -6.957532e+001
48721875 -2.147894e-001 -2.897943e+001 8.362877e+000 -7.029632e+001 -4.145485e+001 1.327139e+002 -7.870454e-001 -7.005301e+001
49094062.5 -2.216125e-001 -2.920531e+001 8.470686e+000 -7.058353e+001 -4.158638e+001 1.314555e+002 -8.213875e-001 -7.059705e+001
49466250 -2.281823e-001 -2.939554e+001 8.556273e+000 -7.098382e+001 -4.125615e+001 1.374413e+002 -8.037479e-001 -7.109708e+001
49838437.5 -2.493849e-001 -2.966547e+001 8.680387e+000 -7.133866e+001 -4.256897e+001 1.328591e+002 -8.175589e-001 -7.158844e+001
50210625 -2.574805e-001 -2.993671e+001 8.766536e+000 -7.167511e+001 -4.222990e+001 1.235401e+002 -8.460304e-001 -7.205456e+001
50582812.5 -2.625978e-001 -3.011175e+001 8.859904e+000 -7.203778e+001 -4.193001e+001 1.283298e+002 -8.430017e-001 -7.246515e+001
50955000 -2.664573e-001 -3.029435e+001 8.957082e+000 -7.242825e+001 -4.134003e+001 1.264476e+002 -8.875824e-001 -7.303039e+001
51327187.5 -2.759031e-001 -3.047997e+001 9.050854e+000 -7.282781e+001 -4.177282e+001 1.298275e+002 -9.011223e-001 -7.359214e+001
51699375 -2.848496e-001 -3.075001e+001 9.152629e+000 -7.314605e+001 -4.149183e+001 1.287025e+002 -9.118190e-001 -7.399311e+001
52071562.5 -2.867200e-001 -3.107749e+001 9.258639e+000 -7.342767e+001 -4.154937e+001 1.271616e+002 -9.100782e-001 -7.446490e+001
52443750 -3.095229e-001 -3.119933e+001 9.333912e+000 -7.392647e+001 -4.116189e+001 1.290983e+002 -9.106616e-001 -7.490424e+001
52815937.5 -3.149786e-001 -3.153967e+001 9.450134e+000 -7.423898e+001 -4.076186e+001 1.281250e+002 -9.407722e-001 -7.547466e+001
53188125 -3.274173e-001 -3.167698e+001 9.536816e+000 -7.450957e+001 -4.099098e+001 1.301375e+002 -9.490509e-001 -7.586095e+001
53560312.5 -3.366913e-001 -3.192401e+001 9.611571e+000 -7.490927e+001 -4.099828e+001 1.264805e+002 -9.620470e-001 -7.640139e+001
53932500 -3.407422e-001 -3.214827e+001 9.702870e+000 -7.519234e+001 -4.095607e+001 1.279035e+002 -9.926615e-001 -7.689553e+001
54304687.5 -3.359892e-001 -3.237154e+001 9.804950e+000 -7.558526e+001 -4.093843e+001 1.249679e+002 -9.971939e-001 -7.718197e+001
54676875 -3.634132e-001 -3.257970e+001 9.885921e+000 -7.582001e+001 -4.064320e+001 1.230884e+002 -9.991220e-001 -7.773898e+001
55049062.5 -3.566560e-001 -3.280129e+001 9.974286e+000 -7.627097e+001 -4.081195e+001 1.247529e+002 -1.014711e+000 -7.823624e+001
55421250 -3.858719e-001 -3.303281e+001 1.004843e+001 -7.668206e+001 -4.037157e+001 1.256579e+002 -1.030381e+000 -7.868604e+001
55793437.5 -3.807077e-001 -3.318894e+001 1.014602e+001 -7.703539e+001 -4.036680e+001 1.238296e+002 -1.062383e+000 -7.925858e+001
56165625 -3.924454e-001 -3.351985e+001 1.023333e+001 -7.735526e+001 -4.016827e+001 1.252643e+002 -1.063317e+000 -7.966584e+001
56537812.5 -4.008471e-001 -3.371398e+001 1.032044e+001 -7.766756e+001 -4.047102e+001 1.256347e+002 -1.068505e+000 -8.012579e+001
56910000 -4.129479e-001 -3.387477e+001 1.037910e+001 -7.792695e+001 -3.977305e+001 1.211431e+002 -1.087644e+000 -8.046263e+001
57282187.5 -4.259551e-001 -3.415421e+001 1.046921e+001 -7.844550e+001 -4.009980e+001 1.234629e+002 -1.104874e+000 -8.107764e+001
57654375 -4.237117e-001 -3.436340e+001 1.054942e+001 -7.862404e+001 -4.000011e+001 1.220877e+002 -1.111608e+000 -8.148727e+001
58026562.5 -4.440895e-001 -3.455695e+001 1.063912e+001 -7.901545e+001 -4.008198e+001 1.179439e+002 -1.115359e+000 -8.196404e+001
58398750 -4.565985e-001 -3.478755e+001 1.069684e+001 -7.932126e+001 -3.996170e+001 1.220147e+002 -1.128058e+000 -8.241284e+001
58770937.5 -4.666086e-001 -3.505978e+001 1.079422e+001 -7.974450e+001 -3.942321e+001 1.221761e+002 -1.174066e+000 -8.273789e+001
59143125 -4.735484e-001 -3.524153e+001 1.087099e+001 -8.013317e+001 -3.941031e+001 1.193988e+002 -1.161514e+000 -8.330888e+001
59515312.5 -4.809181e-001 -3.542109e+001 1.095058e+001 -8.044888e+001 -3.914411e+001 1.201713e+002 -1.173839e+000 -8.378325e+001
59887500 -5.076227e-001 -3.565598e+001 1.100945e+001 -8.076875e+001 -3.926830e+001 1.211460e+002 -1.179777e+000 -8.412635e+001
60259687.5 -4.944558e-001 -3.592258e+001 1.110393e+001 -8.115955e+001 -3.978072e+001 1.194347e+002 -1.221747e+000 -8.465018e+001
60631875 -5.162360e-001 -3.612162e+001 1.116730e+001 -8.150424e+001 -3.900023e+001 1.203701e+002 -1.211026e+000 -8.517557e+001
61004062.5 -5.240803e-001 -3.623407e+001 1.124639e+001 -8.175452e+001 -3.966257e+001 1.161458e+002 -1.233650e+000 -8.553403e+001
61376250 -5.328807e-001 -3.654840e+001 1.131851e+001 -8.221313e+001 -3.886154e+001 1.214819e+002 -1.239024e+000 -8.593345e+001
61748437.5 -5.548387e-001 -3.677671e+001 1.137444e+001 -8.253333e+001 -3.897683e+001 1.192175e+002 -1.270568e+000 -8.645023e+001
62120625 -5.555410e-001 -3.693850e+001 1.146400e+001 -8.296477e+001 -3.862288e+001 1.162010e+002 -1.259654e+000 -8.693140e+001
62492812.5 -5.640373e-001 -3.713152e+001 1.152527e+001 -8.315353e+001 -3.894555e+001 1.163895e+002 -1.287721e+000 -8.736384e+001
62865000 -5.778644e-001 -3.737414e+001 1.160540e+001 -8.358575e+001 -3.883988e+001 1.153310e+002 -1.312122e+000 -8.775646e+001
63237187.5 -5.810755e-001 -3.763437e+001 1.166628e+001 -8.396416e+001 -3.862149e+001 1.159696e+002 -1.312948e+000 -8.823664e+001
63609375 -6.018190e-001 -3.788752e+001 1.173635e+001 -8.436375e+001 -3.903146e+001 1.153706e+002 -1.358643e+000 -8.868705e+001
63981562.5 -6.136770e-001 -3.801939e+001 1.180377e+001 -8.460175e+001 -3.833491e+001 1.157069e+002 -1.347834e+000 -8.906881e+001
64353750 -6.174043e-001 -3.818413e+001 1.187914e+001 -8.491014e+001 -3.850051e+001 1.125145e+002 -1.376008e+000 -8.970094e+001
64725937.5 -6.445754e-001 -3.842902e+001 1.194754e+001 -8.525384e+001 -3.822917e+001 1.135808e+002 -1.371973e+000 -8.997182e+001
65098125 -6.560510e-001 -3.865029e+001 1.202472e+001 -8.562386e+001 -3.849379e+001 1.122740e+002 -1.395013e+000 -9.034180e+001
65470312.5 -6.611114e-001 -3.892400e+001 1.206783e+001 -8.599787e+001 -3.808536e+001 1.140353e+002 -1.419218e+000 -9.089855e+001
65842500 -6.690612e-001 -3.917105e+001 1.214311e+001 -8.635637e+001 -3.804435e+001 1.124372e+002 -1.437505e+000 -9.122345e+001
66214687.5 -6.913881e-001 -3.933762e+001 1.221296e+001 -8.669182e+001 -3.790148e+001 1.136362e+002 -1.457136e+000 -9.182610e+001
66586875 -6.919157e-001 -3.949077e+001 1.225801e+001 -8.697854e+001 -3.800916e+001 1.118796e+002 -1.453880e+000 -9.214824e+001
66959062.5 -6.946588e-001 -3.973016e+001 1.234473e+001 -8.729577e+001 -3.763146e+001 1.093970e+002 -1.485336e+000 -9.258269e+001
67331250 -7.279937e-001 -3.995425e+001 1.238343e+001 -8.772934e+001 -3.782246e+001 1.108170e+002 -1.491599e+000 -9.302131e+001
67703437.5 -7.481179e-001 -4.019863e+001 1.245109e+001 -8.813712e+001 -3.764849e+001 1.098677e+002 -1.501250e+000 -9.347455e+001
68075625 -7.478428e-001 -4.030718e+001 1.251238e+001 -8.830779e+001 -3.767887e+001 1.105176e+002 -1.526157e+000 -9.385223e+001
68447812.5 -7.613748e-001 -4.060480e+001 1.257900e+001 -8.870631e+001 -3.793943e+001 1.092768e+002 -1.533273e+000 -9.426503e+001
68820000 -7.812514e-001 -4.083537e+001 1.262736e+001 -8.910582e+001 -3.790465e+001 1.097271e+002 -1.550372e+000 -9.460662e+001
69192187.5 -7.899711e-001 -4.095559e+001 1.268645e+001 -8.938275e+001 -3.693478e+001 1.081600e+002 -1.579861e+000 -9.508642e+001
69564375 -7.997856e-001 -4.115536e+001 1.275101e+001 -8.974809e+001 -3.748877e+001 1.078773e+002 -1.588059e+000 -9.550280e+001
69936562.5 -8.045666e-001 -4.140464e+001 1.281747e+001 -9.019254e+001 -3.711115e+001 1.068296e+002 -1.601526e+000 -9.596655e+001
70308750 -8.274036e-001 -4.156793e+001 1.286865e+001 -9.039788e+001 -3.730782e+001 1.077580e+002 -1.618718e+000 -9.620491e+001
70680937.5 -8.361644e-001 -4.179021e+001 1.291840e+001 -9.077803e+001 -3.722157e+001 1.073630e+002 -1.626881e+000 -9.666491e+001
71053125 -8.426309e-001 -4.199514e+001 1.299073e+001 -9.110880e+001 -3.709538e+001 1.075010e+002 -1.644701e+000 -9.714928e+001
71425312.5 -8.630424e-001 -4.209618e+001 1.303021e+001 -9.143137e+001 -3.736811e+001 1.056744e+002 -1.682036e+000 -9.755382e+001
71797500 -8.704619e-001 -4.247623e+001 1.307821e+001 -9.187936e+001 -3.708508e+001 1.052966e+002 -1.679448e+000 -9.790919e+001
72169687.5 -8.896070e-001 -4.248361e+001 1.314606e+001 -9.210520e+001 -3.695377e+001 1.077052e+002 -1.692286e+000 -9.844385e+001
72541875 -9.060796e-001 -4.275465e+001 1.317581e+001 -9.246822e+001 -3.674068e+001 1.058932e+002 -1.707383e+000 -9.864424e+001
72914062.5 -9.332584e-001 -4.289170e+001 1.323637e+001 -9.282990e+001 -3.684684e+001 1.036337e+002 -1.725775e+000 -9.910964e+001
73286250 -9.314224e-001 -4.320005e+001 1.330288e+001 -9.313011e+001 -3.670158e+001 1.062475e+002 -1.746963e+000 -9.965646e+001
73658437.5 -9.556568e-001 -4.337261e+001 1.334775e+001 -9.361687e+001 -3.685704e+001 1.026091e+002 -1.767616e+000 -1.000011e+002
74030625 -9.870766e-001 -4.355801e+001 1.337755e+001 -9.380191e+001 -3.659426e+001 1.030482e+002 -1.758849e+000 -1.003652e+002
74402812.5 -9.905227e-001 -4.379802e+001 1.343212e+001 -9.428296e+001 -3.688174e+001 1.032623e+002 -1.796335e+000 -1.008019e+002
74775000 -1.008405e+000 -4.399635e+001 1.349498e+001 -9.455515e+001 -3.673417e+001 1.022634e+002 -1.808239e+000 -1.012905e+002
75147187.5 -1.022607e+000 -4.411832e+001 1.353568e+001 -9.481091e+001 -3.668241e+001 1.027774e+002 -1.810739e+000 -1.016284e+002
75519375 -1.020972e+000 -4.439704e+001 1.359905e+001 -9.522998e+001 -3.643137e+001 1.020582e+002 -1.843096e+000 -1.019948e+002
75891562.5 -1.072779e+000 -4.451033e+001 1.363720e+001 -9.554252e+001 -3.636306e+001 1.002857e+002 -1.850060e+000 -1.023365e+002
76263750 -1.064682e+000 -4.463563e+001 1.368892e+001 -9.586743e+001 -3.641874e+001 1.005833e+002 -1.867375e+000 -1.026489e+002
76635937.5 -1.075813e+000 -4.500415e+001 1.372866e+001 -9.619944e+001 -3.630953e+001 9.889989e+001 -1.886933e+000 -1.030037e+002
77008125 -1.073727e+000 -4.509246e+001 1.377250e+001 -9.665465e+001 -3.630988e+001 1.010862e+002 -1.908931e+000 -1.034099e+002
77380312.5 -1.095459e+000 -4.514635e+001 1.381404e+001 -9.682972e+001 -3.626205e+001 1.007514e+002 -1.929648e+000 -1.039056e+002
77752500 -1.113461e+000 -4.543396e+001 1.385393e+001 -9.722416e+001 -3.600998e+001 1.006073e+002 -1.931383e+000 -1.043290e+002
78124687.5 -1.144892e+000 -4.564988e+001 1.391741e+001 -9.756790e+001 -3.607873e+001 9.949332e+001 -1.940459e+000 -1.047791e+002
78496875 -1.143666e+000 -4.582433e+001 1.396669e+001 -9.784599e+001 -3.606209e+001 1.001582e+002 -1.963241e+000 -1.050772e+002
78869062.5 -1.167868e+000 -4.602979e+001 1.398931e+001 -9.825658e+001 -3.611332e+001 9.848858e+001 -1.986266e+000 -1.055724e+002
79241250 -1.180065e+000 -4.620037e+001 1.403588e+001 -9.845911e+001 -3.617711e+001 9.766417e+001 -2.006816e+000 -1.058211e+002
79613437.5 -1.183782e+000 -4.634927e+001 1.408308e+001 -9.886456e+001 -3.614731e+001 9.615717e+001 -2.029860e+000 -1.061101e+002
79985625 -1.209752e+000 -4.648359e+001 1.411526e+001 -9.926154e+001 -3.592849e+001 9.849589e+001 -2.045475e+000 -1.066239e+002
80357812.5 -1.239290e+000 -4.669941e+001 1.415872e+001 -9.953764e+001 -3.607022e+001 9.715057e+001 -2.039098e+000 -1.069123e+002
80730000 -1.250964e+000 -4.684680e+001 1.420142e+001 -1.000179e+002 -3.569155e+001 9.692616e+001 -2.067651e+000 -1.073262e+002
81102187.5 -1.288399e+000 -4.700298e+001 1.419779e+001 -1.000914e+002 -3.563696e+001 9.763427e+001 -2.063713e+000 -1.076256e+002
81474375 -1.274130e+000 -4.716752e+001 1.425482e+001 -1.005700e+002 -3.569072e+001 9.691289e+001 -2.076236e+000 -1.081523e+002
81846562.5 -1.300968e+000 -4.726959e+001 1.430800e+001 -1.008780e+002 -3.567479e+001 9.622643e+001 -2.120893e+000 -1.084043e+002
82218750 -1.328102e+000 -4.756638e+001 1.432599e+001 -1.011707e+002 -3.551081e+001 9.530548e+001 -2.099432e+000 -1.087541e+002
82590937.5 -1.350819e+000 -4.757555e+001 1.436989e+001 -1.015331e+002 -3.555519e+001 9.462549e+001 -2.150081e+000 -1.091241e+002
82963125 -1.352262e+000 -4.781728e+001 1.441347e+001 -1.018510e+002 -3.559475e+001 9.499352e+001 -2.134561e+000 -1.096211e+002
83335312.5 -1.367332e+000 -4.798644e+001 1.445058e+001 -1.023456e+002 -3.562609e+001 9.281206e+001 -2.175353e+000 -1.099220e+002
83707500 -1.406680e+000 -4.813778e+001 1.446078e+001 -1.024645e+002 -3.518982e+001 9.308169e+001 -2.185112e+000 -1.103229e+002
84079687.5 -1.418541e+000 -4.816630e+001 1.448469e+001 -1.027167e+002 -3.555260e+001 9.327884e+001 -2.201807e+000 -1.106407e+002
84451875 -1.426104e+000 -4.835038e+001 1.452323e+001 -1.030590e+002 -3.548801e+001 9.241755e+001 -2.219194e+000 -1.110313e+002
84824062.5 -1.455153e+000 -4.856535e+001 1.456928e+001 -1.034315e+002 -3.543279e+001 9.282109e+001 -2.238170e+000 -1.112505e+002
85196250 -1.462090e+000 -4.872572e+001 1.456910e+001 -1.037673e+002 -3.561953e+001 9.225166e+001 -2.253487e+000 -1.115539e+002
85568437.5 -1.503961e+000 -4.878901e+001 1.462632e+001 -1.039861e+002 -3.539437e+001 9.028359e+001 -2.258538e+000 -1.119020e+002
85940625 -1.494651e+000 -4.906240e+001 1.465426e+001 -1.044233e+002 -3.523166e+001 9.207217e+001 -2.274873e+000 -1.123263e+002
86312812.5 -1.528196e+000 -4.915781e+001 1.467424e+001 -1.047423e+002 -3.506178e+001 9.172687e+001 -2.287006e+000 -1.126916e+002
86685000 -1.527371e+000 -4.916766e+001 1.470292e+001 -1.048528e+002 -3.515888e+001 9.029734e+001 -2.319133e+000 -1.130465e+002
87057187.5 -1.558157e+000 -4.962775e+001 1.473359e+001 -1.054303e+002 -3.522003e+001 8.935789e+001 -2.319664e+000 -1.133226e+002
87429375 -1.538306e+000 -4.949673e+001 1.474309e+001 -1.055787e+002 -3.512721e+001 9.054665e+001 -2.321699e+000 -1.136172e+002
87801562.5 -1.557856e+000 -4.972873e+001 1.478138e+001 -1.059321e+002 -3.516822e+001 9.006910e+001 -2.367522e+000 -1.139825e+002
88173750 -1.581298e+000 -4.971877e+001 1.480839e+001 -1.061511e+002 -3.515062e+001 8.816087e+001 -2.356654e+000 -1.144227e+002
88545937.5 -1.585093e+000 -4.987139e+001 1.482795e+001 -1.065210e+002 -3.502904e+001 8.805280e+001 -2.367205e+000 -1.147816e+002
88918125 -1.658667e+000 -4.997969e+001 1.482211e+001 -1.068093e+002 -3.512445e+001 8.977567e+001 -2.380296e+000 -1.149544e+002
89290312.5 -1.621460e+000 -5.014948e+001 1.484711e+001 -1.070883e+002 -3.496059e+001 8.821335e+001 -2.391284e+000 -1.154901e+002
89662500 -1.648427e+000 -5.029750e+001 1.485712e+001 -1.071659e+002 -3.495563e+001 8.883084e+001 -2.434518e+000 -1.157819e+002
90034687.5 -1.654661e+000 -5.035424e+001 1.491036e+001 -1.075836e+002 -3.493053e+001 8.790411e+001 -2.412323e+000 -1.160643e+002
90406875 -1.653679e+000 -5.058144e+001 1.493514e+001 -1.078488e+002 -3.486069e+001 8.720224e+001 -2.425572e+000 -1.165070e+002
90779062.5 -1.688832e+000 -5.052997e+001 1.493313e+001 -1.081051e+002 -3.487026e+001 8.777051e+001 -2.456447e+000 -1.167584e+002
91151250 -1.690758e+000 -5.046342e+001 1.496050e+001 -1.080797e+002 -3.480727e+001 8.687666e+001 -2.481067e+000 -1.169029e+002
91523437.5 -1.713449e+000 -5.070295e+001 1.497639e+001 -1.083160e+002 -3.486816e+001 8.704344e+001 -2.505083e+000 -1.173925e+002
91895625 -1.726191e+000 -5.087227e+001 1.498866e+001 -1.085573e+002 -3.495940e+001 8.820543e+001 -2.484006e+000 -1.178236e+002
92267812.5 -1.722577e+000 -5.084217e+001 1.501248e+001 -1.088470e+002 -3.466410e+001 8.606197e+001 -2.500330e+000 -1.180700e+002
92640000 -1.753201e+000 -5.108722e+001 1.502100e+001 -1.089265e+002 -3.480949e+001 8.549744e+001 -2.516655e+000 -1.184219e+002
93012187.5 -1.766182e+000 -5.119478e+001 1.504680e+001 -1.092941e+002 -3.471773e+001 8.616750e+001 -2.537860e+000 -1.189711e+002
93384375 -1.761179e+000 -5.109944e+001 1.507268e+001 -1.095683e+002 -3.465747e+001 8.565558e+001 -2.542737e+000 -1.191462e+002
93756562.5 -1.765609e+000 -5.111401e+001 1.509425e+001 -1.097065e+002 -3.469412e+001 8.622408e+001 -2.552699e+000 -1.195146e+002
94128750 -1.807900e+000 -5.141673e+001 1.510498e+001 -1.099547e+002 -3.474775e+001 8.591069e+001 -2.580813e+000 -1.199280e+002
94500937.5 -1.807593e+000 -5.130960e+001 1.512907e+001 -1.099485e+002 -3.451246e+001 8.481395e+001 -2.575443e+000 -1.200443e+002
94873125 -1.802841e+000 -5.165607e+001 1.514773e+001 -1.101968e+002 -3.451285e+001 8.514039e+001 -2.570262e+000 -1.205355e+002
95245312.5 -1.813549e+000 -5.177731e+001 1.517715e+001 -1.104832e+002 -3.460149e+001 8.482450e+001 -2.598598e+000 -1.209609e+002
95617500 -1.797727e+000 -5.188111e+001 1.520682e+001 -1.105385e+002 -3.445849e+001 8.592174e+001 -2.619535e+000 -1.211719e+002
95989687.5 -1.801739e+000 -5.197564e+001 1.522272e+001 -1.106765e+002 -3.464339e+001 8.453379e+001 -2.624779e+000 -1.215475e+002
96361875 -1.829562e+000 -5.211707e+001 1.526794e+001 -1.109546e+002 -3.461716e+001 8.454217e+001 -2.632650e+000 -1.219061e+002
96734062.5 -1.827811e+000 -5.210443e+001 1.527368e+001 -1.112475e+002 -3.443460e+001 8.287395e+001 -2.632194e+000 -1.221844e+002
97106250 -1.841573e+000 -5.227203e+001 1.529184e+001 -1.112983e+002 -3.447192e+001 8.312659e+001 -2.662679e+000 -1.225934e+002
97478437.5 -1.833246e+000 -5.234698e+001 1.530311e+001 -1.115574e+002 -3.442551e+001 8.373933e+001 -2.666383e+000 -1.229080e+002
97850625 -1.857612e+000 -5.255926e+001 1.533590e+001 -1.115701e+002 -3.420720e+001 8.243032e+001 -2.652717e+000 -1.232467e+002
98222812.5 -1.855525e+000 -5.272286e+001 1.536040e+001 -1.118775e+002 -3.420348e+001 8.341109e+001 -2.673350e+000 -1.235588e+002
98595000 -1.885352e+000 -5.280494e+001 1.539451e+001 -1.119391e+002 -3.415477e+001 8.355923e+001 -2.691443e+000 -1.238671e+002
98967187.5 -1.891554e+000 -5.290421e+001 1.541352e+001 -1.121904e+002 -3.431879e+001 8.288916e+001 -2.718652e+000 -1.241363e+002
99339375 -1.902605e+000 -5.311491e+001 1.542343e+001 -1.124052e+002 -3.417956e+001 8.199737e+001 -2.703552e+000 -1.246211e+002
99711562.5 -1.880883e+000 -5.325074e+001 1.547341e+001 -1.126762e+002 -3.415453e+001 8.211889e+001 -2.742193e+000 -1.249514e+002
100083750 -1.901342e+000 -5.339414e+001 1.548053e+001 -1.127091e+002 -3.411510e+001 8.276700e+001 -2.754913e+000 -1.252185e+002
100455937.5 -1.893170e+000 -5.344170e+001 1.553232e+001 -1.129549e+002 -3.403320e+001 8.163848e+001 -2.753316e+000 -1.256846e+002
100828125 -1.896919e+000 -5.374471e+001 1.556630e+001 -1.131747e+002 -3.412393e+001 8.206049e+001 -2.781192e+000 -1.260019e+002
101200312.5 -1.899424e+000 -5.365239e+001 1.558512e+001 -1.133024e+002 -3.379450e+001 8.166200e+001 -2.785229e+000 -1.262831e+002
