!Agilent Technologies,E8364A,US41440144,A.06.04.32
!Agilent E8364A: A.06.04.32
!Date: Tuesday, February 12, 2019 15:10:40
!Correction: S11(Off) S21(Off) S12(Off) S22(Off) 
!S2P File: Measurements: S11, S21, S12, S22:
# Hz S  dB   R 50
1000000000 -1.157734e+001 -6.547411e+001 -2.126827e+001 -4.769860e+001 1.274368e+001 1.095163e+002 -9.483650e+000 -5.806059e+001
1001875000 -1.161431e+001 -6.808369e+001 -2.129072e+001 -5.182973e+001 1.274084e+001 1.058783e+002 -9.488952e+000 -6.167295e+001
1003750000 -1.163962e+001 -7.137174e+001 -2.134116e+001 -5.496806e+001 1.273644e+001 1.021664e+002 -9.474593e+000 -6.521300e+001
1005625000 -1.166784e+001 -7.445544e+001 -2.136913e+001 -5.887433e+001 1.274407e+001 9.895853e+001 -9.457514e+000 -6.821295e+001
1007500000 -1.167215e+001 -7.752665e+001 -2.140398e+001 -6.240548e+001 1.277712e+001 9.522523e+001 -9.449789e+000 -7.165256e+001
1009375000 -1.171011e+001 -8.054544e+001 -2.138613e+001 -6.604033e+001 1.278497e+001 9.161461e+001 -9.417302e+000 -7.514967e+001
1011250000 -1.171646e+001 -8.342524e+001 -2.132393e+001 -6.941016e+001 1.279361e+001 8.801447e+001 -9.439045e+000 -7.855037e+001
1013125000 -1.170675e+001 -8.653996e+001 -2.134938e+001 -7.336118e+001 1.274073e+001 8.449014e+001 -9.477906e+000 -8.194770e+001
1015000000 -1.173110e+001 -8.959615e+001 -2.135726e+001 -7.697332e+001 1.274948e+001 8.084158e+001 -9.466942e+000 -8.532771e+001
1016875000 -1.168019e+001 -9.269947e+001 -2.132165e+001 -8.019427e+001 1.276827e+001 7.756100e+001 -9.434774e+000 -8.836166e+001
1018750000 -1.166688e+001 -9.576234e+001 -2.132225e+001 -8.381760e+001 1.277046e+001 7.394836e+001 -9.432525e+000 -9.184001e+001
1020625000 -1.166788e+001 -9.893815e+001 -2.135449e+001 -8.759033e+001 1.277572e+001 7.031657e+001 -9.431596e+000 -9.541251e+001
1022500000 -1.165884e+001 -1.018575e+002 -2.138742e+001 -9.125221e+001 1.280953e+001 6.690910e+001 -9.417277e+000 -9.859334e+001
1024375000 -1.159647e+001 -1.050938e+002 -2.139587e+001 -9.459406e+001 1.278786e+001 6.314920e+001 -9.429259e+000 -1.021302e+002
1026250000 -1.156448e+001 -1.079680e+002 -2.136357e+001 -9.769965e+001 1.275288e+001 5.977161e+001 -9.492478e+000 -1.055543e+002
1028125000 -1.154070e+001 -1.110965e+002 -2.135847e+001 -1.014322e+002 1.277720e+001 5.612241e+001 -9.465099e+000 -1.090902e+002
1030000000 -1.153470e+001 -1.143240e+002 -2.137417e+001 -1.053479e+002 1.280319e+001 5.277414e+001 -9.453292e+000 -1.123234e+002
1031875000 -1.148913e+001 -1.179394e+002 -2.132672e+001 -1.092737e+002 1.279996e+001 4.905012e+001 -9.467239e+000 -1.160008e+002
1033750000 -1.146609e+001 -1.207897e+002 -2.136171e+001 -1.124551e+002 1.276470e+001 4.556892e+001 -9.534266e+000 -1.194427e+002
1035625000 -1.142604e+001 -1.244197e+002 -2.143113e+001 -1.161931e+002 1.274380e+001 4.210080e+001 -9.553036e+000 -1.228844e+002
1037500000 -1.140486e+001 -1.278117e+002 -2.140326e+001 -1.191742e+002 1.280270e+001 3.844350e+001 -9.520786e+000 -1.264460e+002
1039375000 -1.136483e+001 -1.313246e+002 -2.143052e+001 -1.232559e+002 1.279208e+001 3.498927e+001 -9.548154e+000 -1.298074e+002
1041250000 -1.136922e+001 -1.347613e+002 -2.138880e+001 -1.268811e+002 1.278306e+001 3.133668e+001 -9.602860e+000 -1.334788e+002
1043125000 -1.137227e+001 -1.380343e+002 -2.145102e+001 -1.303806e+002 1.274632e+001 2.806066e+001 -9.666592e+000 -1.366450e+002
1045000000 -1.129350e+001 -1.415038e+002 -2.137790e+001 -1.339018e+002 1.278498e+001 2.442618e+001 -9.668970e+000 -1.403076e+002
1046875000 -1.131313e+001 -1.451847e+002 -2.139159e+001 -1.372882e+002 1.276580e+001 2.042319e+001 -9.723283e+000 -1.444077e+002
1048750000 -1.130730e+001 -1.489216e+002 -2.136473e+001 -1.412803e+002 1.278168e+001 1.709653e+001 -9.740123e+000 -1.475378e+002
1050625000 -1.130450e+001 -1.521348e+002 -2.134363e+001 -1.443166e+002 1.276129e+001 1.368410e+001 -9.835304e+000 -1.511552e+002
1052500000 -1.131071e+001 -1.557448e+002 -2.138522e+001 -1.482879e+002 1.276367e+001 1.019823e+001 -9.869153e+000 -1.545651e+002
1054375000 -1.134735e+001 -1.592278e+002 -2.139782e+001 -1.516909e+002 1.275730e+001 6.626631e+000 -9.897793e+000 -1.580581e+002
1056250000 -1.138357e+001 -1.630339e+002 -2.146022e+001 -1.553214e+002 1.282172e+001 2.784470e+000 -9.922902e+000 -1.618880e+002
1058125000 -1.136180e+001 -1.664129e+002 -2.143003e+001 -1.589706e+002 1.276563e+001 -6.052024e-001 -1.003517e+001 -1.653625e+002
1060000000 -1.139285e+001 -1.699968e+002 -2.138649e+001 -1.627012e+002 1.278491e+001 -4.183230e+000 -1.008641e+001 -1.687138e+002
1061875000 -1.148501e+001 -1.736082e+002 -2.140833e+001 -1.659941e+002 1.278682e+001 -7.575394e+000 -1.011902e+001 -1.721094e+002
1063750000 -1.149386e+001 -1.768882e+002 -2.133850e+001 -1.698527e+002 1.279385e+001 -1.131386e+001 -1.018877e+001 -1.757625e+002
1065625000 -1.151509e+001 1.794643e+002 -2.129340e+001 -1.728683e+002 1.275435e+001 -1.488523e+001 -1.028307e+001 -1.790713e+002
1067500000 -1.159518e+001 1.761412e+002 -2.137175e+001 -1.770551e+002 1.276481e+001 -1.834144e+001 -1.030545e+001 1.774532e+002
1069375000 -1.166826e+001 1.727042e+002 -2.136398e+001 1.798521e+002 1.275836e+001 -2.182613e+001 -1.037908e+001 1.738521e+002
1071250000 -1.169407e+001 1.693824e+002 -2.137645e+001 1.759597e+002 1.276021e+001 -2.560509e+001 -1.042707e+001 1.704403e+002
1073125000 -1.174177e+001 1.657680e+002 -2.143743e+001 1.723099e+002 1.280780e+001 -2.917657e+001 -1.042427e+001 1.668277e+002
1075000000 -1.181245e+001 1.625197e+002 -2.138967e+001 1.687853e+002 1.276240e+001 -3.253764e+001 -1.054469e+001 1.636546e+002
1076875000 -1.187237e+001 1.592484e+002 -2.146290e+001 1.656417e+002 1.272224e+001 -3.626891e+001 -1.059915e+001 1.600059e+002
1078750000 -1.185892e+001 1.557476e+002 -2.142311e+001 1.617814e+002 1.278869e+001 -3.959620e+001 -1.059863e+001 1.567845e+002
1080625000 -1.195233e+001 1.525028e+002 -2.144022e+001 1.583850e+002 1.276525e+001 -4.337898e+001 -1.069252e+001 1.533005e+002
1082500000 -1.200346e+001 1.492912e+002 -2.140252e+001 1.547146e+002 1.276129e+001 -4.662607e+001 -1.069790e+001 1.501709e+002
1084375000 -1.207855e+001 1.461926e+002 -2.147959e+001 1.510653e+002 1.275425e+001 -5.026852e+001 -1.075700e+001 1.465844e+002
1086250000 -1.207091e+001 1.428237e+002 -2.142480e+001 1.473196e+002 1.276235e+001 -5.391159e+001 -1.074911e+001 1.430304e+002
1088125000 -1.211407e+001 1.395390e+002 -2.142081e+001 1.440736e+002 1.275542e+001 -5.741816e+001 -1.080748e+001 1.395984e+002
1090000000 -1.219921e+001 1.364627e+002 -2.151894e+001 1.405333e+002 1.272085e+001 -6.087561e+001 -1.084236e+001 1.361347e+002
1091875000 -1.218217e+001 1.333432e+002 -2.138956e+001 1.367146e+002 1.273700e+001 -6.421965e+001 -1.088872e+001 1.328953e+002
1093750000 -1.221000e+001 1.299806e+002 -2.151375e+001 1.332862e+002 1.271744e+001 -6.788461e+001 -1.090518e+001 1.291807e+002
1095625000 -1.222199e+001 1.267019e+002 -2.148346e+001 1.297244e+002 1.276954e+001 -7.148652e+001 -1.087799e+001 1.256138e+002
1097500000 -1.223840e+001 1.234758e+002 -2.144543e+001 1.265978e+002 1.273358e+001 -7.471626e+001 -1.092031e+001 1.223061e+002
1099375000 -1.227070e+001 1.202046e+002 -2.150332e+001 1.230315e+002 1.274730e+001 -7.817372e+001 -1.091797e+001 1.188777e+002
1101250000 -1.225305e+001 1.170625e+002 -2.149956e+001 1.195265e+002 1.273013e+001 -8.204679e+001 -1.093527e+001 1.149845e+002
1103125000 -1.230131e+001 1.139920e+002 -2.156306e+001 1.162365e+002 1.273938e+001 -8.542522e+001 -1.096589e+001 1.115111e+002
1105000000 -1.231782e+001 1.105743e+002 -2.150633e+001 1.124064e+002 1.273257e+001 -8.883629e+001 -1.097808e+001 1.079419e+002
1106875000 -1.229823e+001 1.071466e+002 -2.157307e+001 1.091487e+002 1.273247e+001 -9.236430e+001 -1.097700e+001 1.041819e+002
1108750000 -1.231270e+001 1.038454e+002 -2.155470e+001 1.055969e+002 1.269747e+001 -9.604050e+001 -1.101917e+001 1.003128e+002
1110625000 -1.231013e+001 1.004283e+002 -2.153702e+001 1.020823e+002 1.275726e+001 -9.932587e+001 -1.096293e+001 9.683885e+001
1112500000 -1.234778e+001 9.716887e+001 -2.152424e+001 9.813343e+001 1.269013e+001 -1.025621e+002 -1.103608e+001 9.331494e+001
1114375000 -1.237252e+001 9.354391e+001 -2.150865e+001 9.515796e+001 1.278468e+001 -1.061585e+002 -1.097280e+001 8.958712e+001
1116250000 -1.241873e+001 9.030026e+001 -2.154848e+001 9.105201e+001 1.279166e+001 -1.099259e+002 -1.097009e+001 8.539016e+001
1118125000 -1.232717e+001 8.674733e+001 -2.148644e+001 8.806529e+001 1.274007e+001 -1.133073e+002 -1.104173e+001 8.192326e+001
1120000000 -1.234732e+001 8.349973e+001 -2.148365e+001 8.460761e+001 1.276619e+001 -1.168778e+002 -1.099614e+001 7.801389e+001
1121875000 -1.237419e+001 7.985347e+001 -2.150289e+001 8.068800e+001 1.277547e+001 -1.203282e+002 -1.105151e+001 7.437322e+001
1123750000 -1.241535e+001 7.654901e+001 -2.146482e+001 7.716773e+001 1.274665e+001 -1.238092e+002 -1.110414e+001 7.077777e+001
1125625000 -1.242856e+001 7.281613e+001 -2.151325e+001 7.352877e+001 1.282761e+001 -1.275011e+002 -1.103753e+001 6.683012e+001
1127500000 -1.248344e+001 6.923792e+001 -2.155143e+001 7.028331e+001 1.279942e+001 -1.310795e+002 -1.110729e+001 6.306365e+001
1129375000 -1.251332e+001 6.607133e+001 -2.147933e+001 6.637405e+001 1.277523e+001 -1.343696e+002 -1.114039e+001 5.969353e+001
1131250000 -1.252843e+001 6.278638e+001 -2.156414e+001 6.317090e+001 1.283265e+001 -1.380886e+002 -1.111751e+001 5.562669e+001
1133125000 -1.254909e+001 5.913379e+001 -2.142020e+001 5.945615e+001 1.281084e+001 -1.417926e+002 -1.121165e+001 5.186588e+001
1135000000 -1.260896e+001 5.556741e+001 -2.146874e+001 5.555387e+001 1.283892e+001 -1.454173e+002 -1.118931e+001 4.811086e+001
1136875000 -1.263175e+001 5.225566e+001 -2.144906e+001 5.218847e+001 1.285258e+001 -1.490777e+002 -1.124827e+001 4.439241e+001
1138750000 -1.265061e+001 4.901709e+001 -2.142032e+001 4.871826e+001 1.288786e+001 -1.524593e+002 -1.126535e+001 4.091599e+001
1140625000 -1.275232e+001 4.558324e+001 -2.137776e+001 4.504536e+001 1.287852e+001 -1.562473e+002 -1.130630e+001 3.733041e+001
1142500000 -1.277380e+001 4.216951e+001 -2.142965e+001 4.156982e+001 1.289654e+001 -1.595455e+002 -1.131262e+001 3.399987e+001
1144375000 -1.283036e+001 3.904458e+001 -2.141367e+001 3.829713e+001 1.285108e+001 -1.632211e+002 -1.143162e+001 3.024385e+001
1146250000 -1.285074e+001 3.583546e+001 -2.148149e+001 3.461253e+001 1.283729e+001 -1.669362e+002 -1.147146e+001 2.657921e+001
1148125000 -1.294193e+001 3.263853e+001 -2.146921e+001 3.080292e+001 1.285118e+001 -1.705343e+002 -1.154154e+001 2.307981e+001
1150000000 -1.296655e+001 2.954070e+001 -2.144697e+001 2.697952e+001 1.286814e+001 -1.738233e+002 -1.155411e+001 2.013551e+001
1151875000 -1.296777e+001 2.620736e+001 -2.135840e+001 2.360194e+001 1.281780e+001 -1.774296e+002 -1.164523e+001 1.646423e+001
1153750000 -1.298742e+001 2.320083e+001 -2.138872e+001 1.981895e+001 1.289362e+001 1.787255e+002 -1.161254e+001 1.313452e+001
1155625000 -1.302650e+001 2.017233e+001 -2.140739e+001 1.655734e+001 1.290015e+001 1.751143e+002 -1.163359e+001 1.019011e+001
1157500000 -1.307275e+001 1.746377e+001 -2.141550e+001 1.246866e+001 1.292178e+001 1.717299e+002 -1.166931e+001 6.996416e+000
1159375000 -1.309476e+001 1.425047e+001 -2.141119e+001 9.153542e+000 1.290574e+001 1.681681e+002 -1.169729e+001 3.540311e+000
1161250000 -1.305560e+001 1.140725e+001 -2.134675e+001 5.228750e+000 1.285694e+001 1.640869e+002 -1.176688e+001 -8.859382e-003
1163125000 -1.308411e+001 8.178451e+000 -2.141922e+001 1.621595e+000 1.290973e+001 1.607744e+002 -1.174140e+001 -2.896156e+000
1165000000 -1.308202e+001 5.130243e+000 -2.143225e+001 -1.833042e+000 1.286392e+001 1.570226e+002 -1.181465e+001 -6.006228e+000
1166875000 -1.311208e+001 2.425481e+000 -2.146738e+001 -5.322888e+000 1.291147e+001 1.533722e+002 -1.175243e+001 -9.361263e+000
1168750000 -1.303833e+001 -5.071003e-001 -2.138028e+001 -8.822889e+000 1.285412e+001 1.501468e+002 -1.183904e+001 -1.213171e+001
1170625000 -1.303442e+001 -3.416176e+000 -2.147322e+001 -1.220194e+001 1.288161e+001 1.462153e+002 -1.180162e+001 -1.546010e+001
1172500000 -1.298017e+001 -6.621059e+000 -2.150830e+001 -1.635192e+001 1.285172e+001 1.427755e+002 -1.182834e+001 -1.853403e+001
1174375000 -1.299145e+001 -9.767560e+000 -2.147301e+001 -1.955651e+001 1.283274e+001 1.392722e+002 -1.180921e+001 -2.195201e+001
1176250000 -1.290442e+001 -1.302418e+001 -2.146474e+001 -2.329361e+001 1.286251e+001 1.357751e+002 -1.182912e+001 -2.497183e+001
1178125000 -1.287101e+001 -1.579630e+001 -2.143650e+001 -2.657619e+001 1.283445e+001 1.320254e+002 -1.181405e+001 -2.833039e+001
1180000000 -1.281741e+001 -1.901538e+001 -2.152142e+001 -3.065919e+001 1.284659e+001 1.285739e+002 -1.177173e+001 -3.151539e+001
1181875000 -1.279954e+001 -2.244486e+001 -2.143417e+001 -3.376705e+001 1.285148e+001 1.249509e+002 -1.177242e+001 -3.482582e+001
1183750000 -1.276192e+001 -2.563883e+001 -2.154688e+001 -3.734717e+001 1.282240e+001 1.214494e+002 -1.178613e+001 -3.812619e+001
1185625000 -1.277174e+001 -2.874059e+001 -2.154243e+001 -4.074553e+001 1.280076e+001 1.177486e+002 -1.180972e+001 -4.162438e+001
1187500000 -1.272418e+001 -3.233581e+001 -2.154633e+001 -4.427324e+001 1.279627e+001 1.140896e+002 -1.179862e+001 -4.487689e+001
1189375000 -1.270544e+001 -3.558612e+001 -2.160730e+001 -4.782962e+001 1.277402e+001 1.107226e+002 -1.179766e+001 -4.816282e+001
1191250000 -1.266583e+001 -3.928199e+001 -2.162735e+001 -5.121600e+001 1.278700e+001 1.070529e+002 -1.175939e+001 -5.181247e+001
1193125000 -1.264159e+001 -4.263684e+001 -2.158513e+001 -5.511294e+001 1.279354e+001 1.036588e+002 -1.178381e+001 -5.502076e+001
1195000000 -1.266095e+001 -4.611823e+001 -2.157234e+001 -5.789952e+001 1.276637e+001 1.001326e+002 -1.181500e+001 -5.836748e+001
1196875000 -1.262013e+001 -4.974456e+001 -2.165825e+001 -6.195766e+001 1.276096e+001 9.654102e+001 -1.180065e+001 -6.213243e+001
1198750000 -1.265474e+001 -5.310775e+001 -2.163989e+001 -6.522777e+001 1.274406e+001 9.316984e+001 -1.183787e+001 -6.566920e+001
1200625000 -1.266326e+001 -5.628349e+001 -2.166918e+001 -6.892136e+001 1.273810e+001 8.940781e+001 -1.188157e+001 -6.925320e+001
1202500000 -1.264783e+001 -6.021673e+001 -2.162463e+001 -7.207912e+001 1.274717e+001 8.607745e+001 -1.189006e+001 -7.271901e+001
1204375000 -1.265746e+001 -6.382082e+001 -2.164108e+001 -7.592662e+001 1.271350e+001 8.258601e+001 -1.196326e+001 -7.630535e+001
1206250000 -1.269499e+001 -6.729984e+001 -2.165237e+001 -7.930816e+001 1.273258e+001 7.905732e+001 -1.198206e+001 -7.997405e+001
1208125000 -1.273155e+001 -7.087152e+001 -2.163026e+001 -8.291711e+001 1.271326e+001 7.556499e+001 -1.209146e+001 -8.354781e+001
1210000000 -1.279540e+001 -7.453912e+001 -2.164894e+001 -8.609541e+001 1.276120e+001 7.201457e+001 -1.206582e+001 -8.716164e+001
1211875000 -1.284865e+001 -7.775434e+001 -2.164030e+001 -8.977828e+001 1.272146e+001 6.890450e+001 -1.217244e+001 -9.036893e+001
1213750000 -1.292552e+001 -8.142928e+001 -2.159046e+001 -9.338846e+001 1.271190e+001 6.514928e+001 -1.228710e+001 -9.408851e+001
1215625000 -1.295979e+001 -8.481375e+001 -2.162235e+001 -9.601834e+001 1.271909e+001 6.173678e+001 -1.232116e+001 -9.783639e+001
1217500000 -1.306603e+001 -8.808988e+001 -2.166898e+001 -9.983631e+001 1.275620e+001 5.803274e+001 -1.238117e+001 -1.014405e+002
1219375000 -1.314757e+001 -9.136422e+001 -2.165505e+001 -1.035568e+002 1.276402e+001 5.472863e+001 -1.250171e+001 -1.050886e+002
1221250000 -1.327809e+001 -9.486410e+001 -2.165672e+001 -1.071601e+002 1.273012e+001 5.114988e+001 -1.262712e+001 -1.083676e+002
1223125000 -1.332630e+001 -9.811145e+001 -2.165708e+001 -1.105905e+002 1.272969e+001 4.762614e+001 -1.270303e+001 -1.118069e+002
1225000000 -1.342992e+001 -1.010747e+002 -2.160806e+001 -1.142943e+002 1.274403e+001 4.419130e+001 -1.280217e+001 -1.152787e+002
1226875000 -1.349689e+001 -1.044216e+002 -2.166691e+001 -1.180925e+002 1.276929e+001 4.045146e+001 -1.292306e+001 -1.192629e+002
1228750000 -1.360020e+001 -1.072833e+002 -2.160343e+001 -1.211077e+002 1.279007e+001 3.667647e+001 -1.301210e+001 -1.227282e+002
1230625000 -1.371019e+001 -1.103251e+002 -2.158915e+001 -1.249314e+002 1.277481e+001 3.352774e+001 -1.313924e+001 -1.259122e+002
1232500000 -1.380156e+001 -1.130777e+002 -2.157440e+001 -1.283767e+002 1.279718e+001 3.004733e+001 -1.322177e+001 -1.293287e+002
1234375000 -1.387899e+001 -1.158758e+002 -2.158295e+001 -1.318257e+002 1.282164e+001 2.631697e+001 -1.335139e+001 -1.326456e+002
1236250000 -1.398757e+001 -1.190087e+002 -2.157241e+001 -1.358792e+002 1.276730e+001 2.253888e+001 -1.354309e+001 -1.363488e+002
1238125000 -1.402146e+001 -1.216741e+002 -2.158993e+001 -1.393429e+002 1.281717e+001 1.936402e+001 -1.358107e+001 -1.390650e+002
1240000000 -1.413210e+001 -1.244317e+002 -2.156648e+001 -1.424541e+002 1.280440e+001 1.592061e+001 -1.372652e+001 -1.422656e+002
1241875000 -1.414902e+001 -1.266271e+002 -2.161223e+001 -1.459872e+002 1.278877e+001 1.215480e+001 -1.385741e+001 -1.456589e+002
1243750000 -1.422504e+001 -1.292600e+002 -2.155543e+001 -1.498094e+002 1.277931e+001 8.595565e+000 -1.399218e+001 -1.486687e+002
1245625000 -1.420749e+001 -1.320337e+002 -2.156876e+001 -1.531772e+002 1.278313e+001 5.034804e+000 -1.408728e+001 -1.520971e+002
1247500000 -1.429479e+001 -1.342644e+002 -2.158124e+001 -1.571237e+002 1.280657e+001 1.684713e+000 -1.417292e+001 -1.551063e+002
1249375000 -1.431313e+001 -1.370351e+002 -2.161535e+001 -1.608774e+002 1.281018e+001 -2.114863e+000 -1.425101e+001 -1.584116e+002
1251250000 -1.424744e+001 -1.398204e+002 -2.156197e+001 -1.639897e+002 1.279297e+001 -5.809804e+000 -1.436463e+001 -1.614585e+002
1253125000 -1.423549e+001 -1.422417e+002 -2.154432e+001 -1.674944e+002 1.281602e+001 -8.990987e+000 -1.439109e+001 -1.643491e+002
1255000000 -1.420202e+001 -1.454217e+002 -2.160247e+001 -1.711467e+002 1.283190e+001 -1.287101e+001 -1.444493e+001 -1.678117e+002
1256875000 -1.420242e+001 -1.481390e+002 -2.164879e+001 -1.749929e+002 1.287676e+001 -1.640313e+001 -1.444749e+001 -1.710219e+002
1258750000 -1.415838e+001 -1.503848e+002 -2.163862e+001 -1.781506e+002 1.281833e+001 -1.992906e+001 -1.458568e+001 -1.739165e+002
1260625000 -1.409635e+001 -1.535337e+002 -2.158050e+001 1.777027e+002 1.283834e+001 -2.371992e+001 -1.457195e+001 -1.775949e+002
1262500000 -1.408468e+001 -1.568424e+002 -2.163450e+001 1.745784e+002 1.279052e+001 -2.729941e+001 -1.468805e+001 1.791573e+002
1264375000 -1.399854e+001 -1.598884e+002 -2.154790e+001 1.704319e+002 1.285921e+001 -3.102302e+001 -1.462565e+001 1.755636e+002
1266250000 -1.391143e+001 -1.629708e+002 -2.160643e+001 1.672770e+002 1.280508e+001 -3.453551e+001 -1.470763e+001 1.723867e+002
1268125000 -1.384829e+001 -1.663230e+002 -2.159996e+001 1.632699e+002 1.282485e+001 -3.810725e+001 -1.474552e+001 1.691293e+002
1270000000 -1.383295e+001 -1.696314e+002 -2.168297e+001 1.600824e+002 1.280958e+001 -4.176797e+001 -1.474981e+001 1.656161e+002
1271875000 -1.379659e+001 -1.727933e+002 -2.167683e+001 1.563276e+002 1.284368e+001 -4.522717e+001 -1.474056e+001 1.620029e+002
1273750000 -1.374927e+001 -1.763235e+002 -2.166534e+001 1.527680e+002 1.279667e+001 -4.875222e+001 -1.477158e+001 1.583741e+002
1275625000 -1.368892e+001 -1.793885e+002 -2.167241e+001 1.497059e+002 1.278708e+001 -5.249497e+001 -1.477728e+001 1.547714e+002
1277500000 -1.364614e+001 1.769165e+002 -2.160556e+001 1.460554e+002 1.279439e+001 -5.604421e+001 -1.477987e+001 1.512987e+002
1279375000 -1.361821e+001 1.732141e+002 -2.166669e+001 1.420209e+002 1.281533e+001 -5.944448e+001 -1.476172e+001 1.474124e+002
1281250000 -1.360583e+001 1.697294e+002 -2.171411e+001 1.389379e+002 1.274432e+001 -6.312207e+001 -1.486745e+001 1.435631e+002
1283125000 -1.359060e+001 1.662969e+002 -2.161667e+001 1.354450e+002 1.280247e+001 -6.653248e+001 -1.483167e+001 1.401603e+002
