!Agilent Technologies,E8364A,US41440144,A.06.04.32
!Agilent E8364A: A.06.04.32
!Date: Monday, February 18, 2019 17:01:41
!Correction: S11(Off) S21(Off) S12(Off) S22(Off) 
!S2P File: Measurements: S11, S21, S12, S22:
# Hz S  dB   R 50
1500000000 -1.288018e+001 1.710913e+002 -2.215225e+001 8.506921e+001 1.252842e+001 -1.156245e+002 -2.320361e+001 1.588859e+002
1501250000 -1.286201e+001 1.686461e+002 -2.217716e+001 8.232568e+001 1.250373e+001 -1.180588e+002 -2.303448e+001 1.568410e+002
1502500000 -1.282233e+001 1.665004e+002 -2.221736e+001 7.998349e+001 1.250967e+001 -1.203918e+002 -2.285184e+001 1.547029e+002
1503750000 -1.275921e+001 1.642213e+002 -2.220344e+001 7.737466e+001 1.252399e+001 -1.228127e+002 -2.271994e+001 1.522083e+002
1505000000 -1.268949e+001 1.618744e+002 -2.220995e+001 7.510259e+001 1.251953e+001 -1.252283e+002 -2.254042e+001 1.500925e+002
1506250000 -1.263724e+001 1.595782e+002 -2.218513e+001 7.266969e+001 1.253110e+001 -1.274883e+002 -2.237384e+001 1.478451e+002
1507500000 -1.259347e+001 1.572915e+002 -2.217454e+001 6.994877e+001 1.253046e+001 -1.299840e+002 -2.223502e+001 1.455302e+002
1508750000 -1.256152e+001 1.551163e+002 -2.223691e+001 6.778906e+001 1.253804e+001 -1.323722e+002 -2.209377e+001 1.429383e+002
1510000000 -1.250211e+001 1.526853e+002 -2.220163e+001 6.543665e+001 1.253115e+001 -1.348120e+002 -2.194740e+001 1.408054e+002
1511250000 -1.243499e+001 1.502894e+002 -2.218984e+001 6.292431e+001 1.254616e+001 -1.372518e+002 -2.183024e+001 1.379558e+002
1512500000 -1.242830e+001 1.480983e+002 -2.219564e+001 6.049058e+001 1.253621e+001 -1.396857e+002 -2.172634e+001 1.355002e+002
1513750000 -1.239851e+001 1.456750e+002 -2.224813e+001 5.818542e+001 1.253445e+001 -1.419789e+002 -2.165153e+001 1.330641e+002
1515000000 -1.234864e+001 1.434011e+002 -2.221580e+001 5.570726e+001 1.253814e+001 -1.444268e+002 -2.153676e+001 1.306919e+002
1516250000 -1.230782e+001 1.409715e+002 -2.219526e+001 5.312251e+001 1.253601e+001 -1.468679e+002 -2.148206e+001 1.279303e+002
1517500000 -1.227409e+001 1.387000e+002 -2.218003e+001 5.083590e+001 1.254570e+001 -1.492211e+002 -2.139213e+001 1.255537e+002
1518750000 -1.228565e+001 1.362252e+002 -2.223916e+001 4.843745e+001 1.253859e+001 -1.516295e+002 -2.134024e+001 1.229549e+002
1520000000 -1.226271e+001 1.339607e+002 -2.224320e+001 4.615839e+001 1.253089e+001 -1.541451e+002 -2.133548e+001 1.201892e+002
1521250000 -1.224546e+001 1.316263e+002 -2.226316e+001 4.397252e+001 1.254880e+001 -1.566304e+002 -2.126026e+001 1.178532e+002
1522500000 -1.223856e+001 1.293178e+002 -2.226834e+001 4.136431e+001 1.252968e+001 -1.589842e+002 -2.125011e+001 1.150822e+002
1523750000 -1.220572e+001 1.269347e+002 -2.227681e+001 3.893568e+001 1.252390e+001 -1.614555e+002 -2.124817e+001 1.125861e+002
1525000000 -1.220465e+001 1.246540e+002 -2.231470e+001 3.659893e+001 1.252052e+001 -1.638195e+002 -2.123401e+001 1.102264e+002
1526250000 -1.220302e+001 1.222739e+002 -2.228608e+001 3.420528e+001 1.251843e+001 -1.661523e+002 -2.120475e+001 1.078987e+002
1527500000 -1.218182e+001 1.200899e+002 -2.229253e+001 3.184642e+001 1.251192e+001 -1.685731e+002 -2.123004e+001 1.057221e+002
1528750000 -1.217644e+001 1.177021e+002 -2.230512e+001 2.947174e+001 1.251211e+001 -1.710883e+002 -2.125948e+001 1.031924e+002
1530000000 -1.219204e+001 1.155098e+002 -2.231981e+001 2.701954e+001 1.251709e+001 -1.732906e+002 -2.126209e+001 1.011471e+002
1531250000 -1.218331e+001 1.131983e+002 -2.233146e+001 2.478840e+001 1.249680e+001 -1.759104e+002 -2.130503e+001 9.872697e+001
1532500000 -1.220356e+001 1.110794e+002 -2.233240e+001 2.222271e+001 1.249430e+001 -1.782678e+002 -2.132756e+001 9.654291e+001
1533750000 -1.220552e+001 1.087797e+002 -2.234867e+001 2.001078e+001 1.249038e+001 1.793375e+002 -2.136572e+001 9.451293e+001
1535000000 -1.219657e+001 1.066597e+002 -2.235166e+001 1.752478e+001 1.248641e+001 1.768929e+002 -2.144199e+001 9.221076e+001
1536250000 -1.219582e+001 1.043885e+002 -2.235704e+001 1.512895e+001 1.246930e+001 1.744990e+002 -2.150655e+001 9.047008e+001
1537500000 -1.222859e+001 1.022673e+002 -2.234988e+001 1.297545e+001 1.244658e+001 1.720917e+002 -2.155073e+001 8.857832e+001
1538750000 -1.222513e+001 1.002456e+002 -2.239632e+001 1.057501e+001 1.244542e+001 1.698465e+002 -2.159458e+001 8.699151e+001
1540000000 -1.223091e+001 9.819178e+001 -2.238006e+001 8.244979e+000 1.242960e+001 1.672379e+002 -2.170239e+001 8.501706e+001
1541250000 -1.224393e+001 9.601202e+001 -2.238505e+001 5.720531e+000 1.242146e+001 1.650117e+002 -2.176943e+001 8.356844e+001
1542500000 -1.225562e+001 9.385127e+001 -2.236782e+001 3.740728e+000 1.243912e+001 1.625334e+002 -2.180090e+001 8.186395e+001
1543750000 -1.226748e+001 9.180997e+001 -2.240448e+001 1.369009e+000 1.240124e+001 1.601458e+002 -2.190606e+001 8.043520e+001
1545000000 -1.228124e+001 8.976762e+001 -2.239833e+001 -1.179294e+000 1.240116e+001 1.577835e+002 -2.196669e+001 7.882710e+001
1546250000 -1.229457e+001 8.769731e+001 -2.243635e+001 -3.360388e+000 1.239525e+001 1.554298e+002 -2.202741e+001 7.756789e+001
1547500000 -1.228177e+001 8.576422e+001 -2.239092e+001 -5.908276e+000 1.240191e+001 1.530733e+002 -2.205492e+001 7.639415e+001
1548750000 -1.229026e+001 8.380585e+001 -2.240173e+001 -8.058173e+000 1.238767e+001 1.506273e+002 -2.212045e+001 7.474844e+001
1550000000 -1.230949e+001 8.182973e+001 -2.241140e+001 -1.041590e+001 1.237942e+001 1.484224e+002 -2.215635e+001 7.426737e+001
1551250000 -1.229671e+001 7.987872e+001 -2.244501e+001 -1.285983e+001 1.236919e+001 1.459649e+002 -2.215309e+001 7.289026e+001
1552500000 -1.230051e+001 7.794274e+001 -2.237606e+001 -1.523980e+001 1.235857e+001 1.434853e+002 -2.221734e+001 7.197678e+001
1553750000 -1.228479e+001 7.593169e+001 -2.245663e+001 -1.738406e+001 1.234380e+001 1.412586e+002 -2.222601e+001 7.082768e+001
1555000000 -1.228532e+001 7.405379e+001 -2.241579e+001 -2.010905e+001 1.233868e+001 1.388382e+002 -2.222738e+001 6.991859e+001
1556250000 -1.225816e+001 7.205578e+001 -2.244723e+001 -2.203949e+001 1.232925e+001 1.366013e+002 -2.218991e+001 6.910445e+001
1557500000 -1.224832e+001 7.017049e+001 -2.241554e+001 -2.460714e+001 1.232354e+001 1.342653e+002 -2.222703e+001 6.824829e+001
1558750000 -1.222553e+001 6.818964e+001 -2.244083e+001 -2.712402e+001 1.231256e+001 1.318354e+002 -2.216789e+001 6.717706e+001
1560000000 -1.222190e+001 6.637853e+001 -2.245409e+001 -2.926465e+001 1.232108e+001 1.295282e+002 -2.208356e+001 6.623864e+001
1561250000 -1.218397e+001 6.430894e+001 -2.247898e+001 -3.182662e+001 1.230554e+001 1.271080e+002 -2.203542e+001 6.527442e+001
1562500000 -1.215571e+001 6.237441e+001 -2.244962e+001 -3.392945e+001 1.229531e+001 1.247950e+002 -2.197969e+001 6.445370e+001
1563750000 -1.215198e+001 6.054428e+001 -2.245819e+001 -3.627189e+001 1.230466e+001 1.224952e+002 -2.189082e+001 6.314129e+001
1565000000 -1.210120e+001 5.851633e+001 -2.243712e+001 -3.879527e+001 1.230172e+001 1.201768e+002 -2.179153e+001 6.224913e+001
1566250000 -1.208836e+001 5.658637e+001 -2.247190e+001 -4.085448e+001 1.231317e+001 1.177561e+002 -2.170918e+001 6.119802e+001
1567500000 -1.206009e+001 5.455397e+001 -2.248408e+001 -4.338414e+001 1.229494e+001 1.154730e+002 -2.164703e+001 6.022706e+001
1568750000 -1.201295e+001 5.264005e+001 -2.246571e+001 -4.576822e+001 1.230481e+001 1.131441e+002 -2.151221e+001 5.892635e+001
1570000000 -1.198362e+001 5.065781e+001 -2.251334e+001 -4.785107e+001 1.229761e+001 1.107780e+002 -2.140372e+001 5.740413e+001
1571250000 -1.193479e+001 4.857486e+001 -2.247844e+001 -5.068799e+001 1.230398e+001 1.083530e+002 -2.126760e+001 5.602983e+001
1572500000 -1.191592e+001 4.644080e+001 -2.253068e+001 -5.284808e+001 1.227397e+001 1.059901e+002 -2.119725e+001 5.467908e+001
1573750000 -1.187439e+001 4.447849e+001 -2.250779e+001 -5.516687e+001 1.226555e+001 1.037009e+002 -2.111603e+001 5.313803e+001
1575000000 -1.182803e+001 4.232945e+001 -2.252349e+001 -5.754738e+001 1.226519e+001 1.014600e+002 -2.099586e+001 5.174434e+001
1576250000 -1.178221e+001 4.034663e+001 -2.254169e+001 -5.975949e+001 1.229082e+001 9.906475e+001 -2.081246e+001 5.009165e+001
1577500000 -1.176023e+001 3.805283e+001 -2.255402e+001 -6.247037e+001 1.224860e+001 9.662277e+001 -2.077228e+001 4.827742e+001
1578750000 -1.170854e+001 3.596313e+001 -2.253465e+001 -6.485831e+001 1.228001e+001 9.449587e+001 -2.063478e+001 4.654485e+001
1580000000 -1.167906e+001 3.386783e+001 -2.257076e+001 -6.696251e+001 1.228163e+001 9.201595e+001 -2.052178e+001 4.493262e+001
1581250000 -1.163018e+001 3.163696e+001 -2.256211e+001 -6.913760e+001 1.227343e+001 8.952725e+001 -2.041146e+001 4.271798e+001
1582500000 -1.161423e+001 2.930877e+001 -2.258300e+001 -7.183318e+001 1.229136e+001 8.726473e+001 -2.028897e+001 4.094522e+001
1583750000 -1.156983e+001 2.730579e+001 -2.255765e+001 -7.398705e+001 1.228280e+001 8.498505e+001 -2.024098e+001 3.911800e+001
1585000000 -1.154502e+001 2.502711e+001 -2.256335e+001 -7.643416e+001 1.227572e+001 8.248835e+001 -2.014937e+001 3.726035e+001
1586250000 -1.150188e+001 2.269799e+001 -2.258493e+001 -7.869686e+001 1.229543e+001 8.009270e+001 -2.004914e+001 3.534509e+001
1587500000 -1.147031e+001 2.046945e+001 -2.261391e+001 -8.092480e+001 1.228304e+001 7.770770e+001 -1.998217e+001 3.299317e+001
1588750000 -1.146271e+001 1.830034e+001 -2.258099e+001 -8.311243e+001 1.227514e+001 7.555198e+001 -1.993493e+001 3.118408e+001
1590000000 -1.140595e+001 1.595777e+001 -2.254857e+001 -8.568694e+001 1.227533e+001 7.307454e+001 -1.986330e+001 2.901859e+001
1591250000 -1.142446e+001 1.350208e+001 -2.262568e+001 -8.809607e+001 1.229072e+001 7.065427e+001 -1.976321e+001 2.691647e+001
1592500000 -1.138994e+001 1.115961e+001 -2.262336e+001 -9.050186e+001 1.227887e+001 6.837901e+001 -1.976765e+001 2.469556e+001
1593750000 -1.134536e+001 8.927334e+000 -2.262202e+001 -9.259559e+001 1.228599e+001 6.597176e+001 -1.973784e+001 2.262503e+001
1595000000 -1.135138e+001 6.525671e+000 -2.260596e+001 -9.516036e+001 1.228572e+001 6.367719e+001 -1.967391e+001 2.045897e+001
1596250000 -1.132025e+001 4.288667e+000 -2.262892e+001 -9.721250e+001 1.228516e+001 6.120968e+001 -1.963709e+001 1.793963e+001
1597500000 -1.132751e+001 1.892124e+000 -2.263891e+001 -9.976480e+001 1.227724e+001 5.875747e+001 -1.959284e+001 1.577412e+001
1598750000 -1.132733e+001 -5.518391e-001 -2.263856e+001 -1.022565e+002 1.229591e+001 5.644172e+001 -1.957227e+001 1.375527e+001
1600000000 -1.131581e+001 -2.698075e+000 -2.264602e+001 -1.044054e+002 1.229069e+001 5.397885e+001 -1.956252e+001 1.155075e+001
1601250000 -1.132306e+001 -5.059523e+000 -2.264728e+001 -1.067434e+002 1.229290e+001 5.162668e+001 -1.956138e+001 9.275639e+000
1602500000 -1.132345e+001 -7.432315e+000 -2.267638e+001 -1.089403e+002 1.229421e+001 4.931662e+001 -1.955568e+001 7.074533e+000
1603750000 -1.131840e+001 -9.812625e+000 -2.269296e+001 -1.113034e+002 1.228228e+001 4.704117e+001 -1.955803e+001 5.262957e+000
1605000000 -1.130491e+001 -1.206739e+001 -2.264672e+001 -1.135312e+002 1.227643e+001 4.446805e+001 -1.959814e+001 2.778785e+000
1606250000 -1.131450e+001 -1.457514e+001 -2.267135e+001 -1.162890e+002 1.228999e+001 4.210378e+001 -1.958811e+001 5.354125e-001
1607500000 -1.134066e+001 -1.694541e+001 -2.268586e+001 -1.184577e+002 1.228384e+001 3.974670e+001 -1.959243e+001 -1.834061e+000
1608750000 -1.133368e+001 -1.914375e+001 -2.268475e+001 -1.203993e+002 1.226460e+001 3.735814e+001 -1.963636e+001 -3.788839e+000
1610000000 -1.136205e+001 -2.142615e+001 -2.269325e+001 -1.232285e+002 1.226423e+001 3.502795e+001 -1.964858e+001 -6.049619e+000
1611250000 -1.135872e+001 -2.393393e+001 -2.272839e+001 -1.253340e+002 1.227873e+001 3.254128e+001 -1.961602e+001 -8.234788e+000
1612500000 -1.139390e+001 -2.615381e+001 -2.269038e+001 -1.278673e+002 1.227504e+001 3.019710e+001 -1.967289e+001 -1.037957e+001
1613750000 -1.139565e+001 -2.846396e+001 -2.268992e+001 -1.299474e+002 1.226690e+001 2.787359e+001 -1.969207e+001 -1.225053e+001
1615000000 -1.140632e+001 -3.058958e+001 -2.268958e+001 -1.323716e+002 1.226108e+001 2.528022e+001 -1.975071e+001 -1.490728e+001
1616250000 -1.145319e+001 -3.295470e+001 -2.273416e+001 -1.348064e+002 1.225010e+001 2.304936e+001 -1.978069e+001 -1.650776e+001
1617500000 -1.147390e+001 -3.527200e+001 -2.273568e+001 -1.369615e+002 1.228175e+001 2.063377e+001 -1.977909e+001 -1.879255e+001
1618750000 -1.147911e+001 -3.736807e+001 -2.272980e+001 -1.394661e+002 1.226766e+001 1.809747e+001 -1.981048e+001 -2.083316e+001
1620000000 -1.148481e+001 -3.965889e+001 -2.266580e+001 -1.417814e+002 1.226367e+001 1.585997e+001 -1.983231e+001 -2.269745e+001
1621250000 -1.152018e+001 -4.177456e+001 -2.273721e+001 -1.441799e+002 1.225172e+001 1.348635e+001 -1.987532e+001 -2.495456e+001
1622500000 -1.153524e+001 -4.404615e+001 -2.271756e+001 -1.460577e+002 1.223004e+001 1.105553e+001 -1.991716e+001 -2.702010e+001
1623750000 -1.155401e+001 -4.621418e+001 -2.272102e+001 -1.485011e+002 1.224902e+001 8.629699e+000 -1.994725e+001 -2.890103e+001
1625000000 -1.156694e+001 -4.860487e+001 -2.266777e+001 -1.510729e+002 1.222812e+001 6.286912e+000 -1.992208e+001 -3.106960e+001
1626250000 -1.160113e+001 -5.056519e+001 -2.272849e+001 -1.535368e+002 1.224013e+001 3.944020e+000 -1.999839e+001 -3.314442e+001
1627500000 -1.158852e+001 -5.281450e+001 -2.271020e+001 -1.556557e+002 1.222303e+001 1.517233e+000 -2.000084e+001 -3.521155e+001
1628750000 -1.161071e+001 -5.490443e+001 -2.269552e+001 -1.582503e+002 1.224275e+001 -8.841843e-001 -2.001600e+001 -3.693188e+001
1630000000 -1.162125e+001 -5.720506e+001 -2.273879e+001 -1.606602e+002 1.224031e+001 -3.104037e+000 -2.001143e+001 -3.905800e+001
1631250000 -1.164138e+001 -5.929429e+001 -2.269137e+001 -1.628304e+002 1.222554e+001 -5.590950e+000 -1.999465e+001 -4.115140e+001
1632500000 -1.163280e+001 -6.135979e+001 -2.270284e+001 -1.653022e+002 1.220767e+001 -7.851630e+000 -2.005497e+001 -4.312450e+001
1633750000 -1.164406e+001 -6.355846e+001 -2.272208e+001 -1.677833e+002 1.220729e+001 -1.029256e+001 -2.001007e+001 -4.511840e+001
1635000000 -1.165399e+001 -6.553859e+001 -2.269503e+001 -1.697339e+002 1.222165e+001 -1.269404e+001 -1.999980e+001 -4.727239e+001
1636250000 -1.164224e+001 -6.777391e+001 -2.268425e+001 -1.723594e+002 1.221440e+001 -1.493410e+001 -2.000546e+001 -4.937943e+001
1637500000 -1.166880e+001 -6.978341e+001 -2.269279e+001 -1.746694e+002 1.218872e+001 -1.726502e+001 -2.002847e+001 -5.143274e+001
1638750000 -1.163682e+001 -7.198154e+001 -2.273234e+001 -1.773548e+002 1.218755e+001 -1.960518e+001 -2.000069e+001 -5.353827e+001
1640000000 -1.164586e+001 -7.384910e+001 -2.270407e+001 -1.793920e+002 1.218016e+001 -2.213260e+001 -2.004011e+001 -5.565070e+001
1641250000 -1.164031e+001 -7.603156e+001 -2.271077e+001 1.780940e+002 1.220071e+001 -2.447536e+001 -1.996578e+001 -5.791458e+001
1642500000 -1.162593e+001 -7.822201e+001 -2.269569e+001 1.758027e+002 1.219298e+001 -2.675992e+001 -1.994608e+001 -5.998138e+001
1643750000 -1.158990e+001 -8.028116e+001 -2.270934e+001 1.736561e+002 1.219617e+001 -2.909480e+001 -1.993058e+001 -6.221141e+001
1645000000 -1.156609e+001 -8.256416e+001 -2.271522e+001 1.710946e+002 1.217817e+001 -3.156783e+001 -1.991695e+001 -6.441628e+001
1646250000 -1.158265e+001 -8.458199e+001 -2.272997e+001 1.686977e+002 1.217757e+001 -3.377625e+001 -1.985649e+001 -6.653777e+001
1647500000 -1.156874e+001 -8.655367e+001 -2.273376e+001 1.661461e+002 1.217478e+001 -3.633434e+001 -1.985655e+001 -6.903638e+001
1648750000 -1.151768e+001 -8.871629e+001 -2.272226e+001 1.642051e+002 1.219061e+001 -3.856048e+001 -1.981118e+001 -7.095133e+001
1650000000 -1.149335e+001 -9.087051e+001 -2.273523e+001 1.615565e+002 1.219352e+001 -4.087852e+001 -1.975504e+001 -7.367893e+001
1651250000 -1.146579e+001 -9.301009e+001 -2.269372e+001 1.592243e+002 1.217727e+001 -4.337099e+001 -1.971480e+001 -7.598327e+001
1652500000 -1.141516e+001 -9.533396e+001 -2.272755e+001 1.569081e+002 1.216170e+001 -4.563429e+001 -1.970019e+001 -7.832704e+001
1653750000 -1.140517e+001 -9.755128e+001 -2.273964e+001 1.546371e+002 1.217153e+001 -4.813210e+001 -1.968143e+001 -8.070843e+001
1655000000 -1.137097e+001 -9.957464e+001 -2.268964e+001 1.522581e+002 1.216538e+001 -5.033735e+001 -1.963251e+001 -8.313712e+001
1656250000 -1.133058e+001 -1.019843e+002 -2.270039e+001 1.495825e+002 1.217055e+001 -5.262320e+001 -1.960395e+001 -8.557859e+001
1657500000 -1.131127e+001 -1.040996e+002 -2.273244e+001 1.472547e+002 1.216746e+001 -5.519106e+001 -1.960292e+001 -8.790392e+001
1658750000 -1.127188e+001 -1.063515e+002 -2.273598e+001 1.449503e+002 1.215781e+001 -5.740569e+001 -1.954264e+001 -9.027355e+001
1660000000 -1.122369e+001 -1.086179e+002 -2.276338e+001 1.426503e+002 1.216144e+001 -5.986974e+001 -1.955597e+001 -9.281622e+001
1661250000 -1.118477e+001 -1.110481e+002 -2.274326e+001 1.399157e+002 1.215690e+001 -6.209906e+001 -1.949446e+001 -9.529118e+001
1662500000 -1.116520e+001 -1.131929e+002 -2.277532e+001 1.377514e+002 1.217506e+001 -6.453379e+001 -1.944872e+001 -9.776660e+001
1663750000 -1.111684e+001 -1.156273e+002 -2.280398e+001 1.352587e+002 1.215871e+001 -6.701231e+001 -1.946490e+001 -1.004347e+002
1665000000 -1.109614e+001 -1.179066e+002 -2.277761e+001 1.328419e+002 1.215335e+001 -6.931116e+001 -1.939150e+001 -1.027263e+002
1666250000 -1.104093e+001 -1.202127e+002 -2.277639e+001 1.304924e+002 1.216068e+001 -7.160225e+001 -1.935363e+001 -1.050262e+002
1667500000 -1.102172e+001 -1.224273e+002 -2.279666e+001 1.285129e+002 1.214561e+001 -7.397166e+001 -1.935191e+001 -1.076993e+002
1668750000 -1.098898e+001 -1.249498e+002 -2.276904e+001 1.257019e+002 1.214806e+001 -7.636993e+001 -1.928166e+001 -1.104155e+002
1670000000 -1.095238e+001 -1.272641e+002 -2.282743e+001 1.231750e+002 1.215589e+001 -7.883932e+001 -1.927201e+001 -1.128131e+002
1671250000 -1.092628e+001 -1.295843e+002 -2.282064e+001 1.212500e+002 1.213635e+001 -8.111414e+001 -1.926304e+001 -1.152290e+002
1672500000 -1.091408e+001 -1.318823e+002 -2.286368e+001 1.186458e+002 1.214494e+001 -8.353039e+001 -1.922142e+001 -1.178120e+002
1673750000 -1.087205e+001 -1.342521e+002 -2.290280e+001 1.161922e+002 1.211488e+001 -8.580366e+001 -1.923513e+001 -1.201103e+002
1675000000 -1.084027e+001 -1.368407e+002 -2.287696e+001 1.137737e+002 1.212100e+001 -8.825445e+001 -1.918660e+001 -1.227238e+002
1676250000 -1.082824e+001 -1.390005e+002 -2.284940e+001 1.117333e+002 1.211963e+001 -9.064727e+001 -1.919609e+001 -1.253658e+002
1677500000 -1.080984e+001 -1.415741e+002 -2.293583e+001 1.091920e+002 1.210208e+001 -9.312293e+001 -1.917632e+001 -1.276417e+002
1678750000 -1.078600e+001 -1.439196e+002 -2.291919e+001 1.066796e+002 1.212121e+001 -9.549070e+001 -1.911135e+001 -1.302093e+002
1680000000 -1.075641e+001 -1.462070e+002 -2.290858e+001 1.042674e+002 1.211492e+001 -9.786497e+001 -1.906363e+001 -1.324565e+002
1681250000 -1.075181e+001 -1.487100e+002 -2.290999e+001 1.020403e+002 1.211257e+001 -1.002340e+002 -1.907826e+001 -1.349334e+002
1682500000 -1.072950e+001 -1.510397e+002 -2.292990e+001 1.001165e+002 1.208339e+001 -1.024930e+002 -1.901241e+001 -1.370212e+002
1683750000 -1.072758e+001 -1.533732e+002 -2.294627e+001 9.751655e+001 1.210743e+001 -1.049245e+002 -1.900468e+001 -1.395923e+002
1685000000 -1.070558e+001 -1.556972e+002 -2.295716e+001 9.514001e+001 1.208532e+001 -1.073305e+002 -1.895227e+001 -1.418158e+002
1686250000 -1.068261e+001 -1.581819e+002 -2.295002e+001 9.281808e+001 1.207854e+001 -1.096373e+002 -1.893253e+001 -1.441441e+002
1687500000 -1.067457e+001 -1.603904e+002 -2.302207e+001 9.053041e+001 1.207430e+001 -1.120801e+002 -1.892309e+001 -1.465317e+002
1688750000 -1.068298e+001 -1.627283e+002 -2.298271e+001 8.803646e+001 1.207587e+001 -1.143146e+002 -1.888458e+001 -1.485810e+002
1690000000 -1.065950e+001 -1.649286e+002 -2.303388e+001 8.621698e+001 1.206439e+001 -1.167658e+002 -1.885030e+001 -1.507934e+002
