!Mini-Circuits Laboratory
!S-Parameters
!Model: TSS-53LNB+
!Run / Lot / Date Code: NA / NA / NA
!Fixture: NA; UNIT ON TB
!AUTO PORT EXTENSION DONE: PORT<1>=91.91ps; PORT<2>=84.91ps
!Network Analyzer: PNA-X N5242A - 423 4 ports;  Serial number: 71256
!Date: 4/4/2014 at 12:21:25 PM
!S/N: Unit# 1
!
# Hz  S  dB  R  50
!Frequency    S11 dB        S11 Deg       S21 dB        S21 Deg       S12 dB        S12 Deg       S22 dB        S22 Deg       
10000000      -0.3657450    172.0491028   -34.4828415   35.5606003    -47.6542015   154.0243988   -0.0969527    -13.7655497   
20000000      -0.4643718    165.3811951   -21.3321800   32.6672516    -59.7413788   -137.9833069  -0.1986841    -27.6892605   
30000000      -0.5516962    158.3439026   -12.0466099   26.7357292    -65.6631393   -167.1354980  -0.3308123    -41.0410118   
40000000      -0.6253405    151.2010040   -5.4493780    18.8808708    -55.0016594   -133.6053925  -0.5158073    -54.1949692   
50000000      -0.7303317    143.8464050   -0.4013000    9.7970324     -52.6081505   -169.9087067  -0.7631920    -66.9128265   
60000000      -0.8524787    136.6842957   3.5473809     1.0467250     -50.1156693   -132.2431030  -1.0241380    -78.8072815   
70000000      -1.0028549    128.8670959   6.8523512     -8.4163342    -44.0953598   -166.0608063  -1.3539550    -90.2610474   
80000000      -1.2074370    121.0535965   9.5465565     -17.8205109   -41.2929382   -179.3710022  -1.7449210    -101.0784988  
90000000      -1.4710870    113.1456985   11.7984104    -27.2275696   -39.0673485   169.1383972   -2.1769731    -111.4400024  
100000000     -1.8041790    105.0681000   13.6703196    -36.5167809   -37.0546494   158.6434021   -2.6865721    -121.0979996  
125000000     -2.9172759    85.0739822    17.0881691    -58.2677193   -33.4679909   136.6188965   -4.1597190    -141.7270966  
150000000     -4.3898129    66.3202362    19.2125301    -77.0700836   -31.1771393   116.8491974   -5.8568878    -156.9559021  
175000000     -6.0724978    49.1057701    20.4966297    -92.8281174   -29.8055992   101.3909988   -7.5607781    -167.1470947  
200000000     -7.8198800    33.2833595    21.2937202    -105.6865005  -28.9437504   88.8618393    -9.0875320    -173.0189056  
225000000     -9.4887075    18.7196293    21.7962208    -116.2834015  -28.4292507   78.0761032    -10.3150997   -175.6036987  
250000000     -11.0385799   5.0110312     22.1284904    -125.0632019  -27.9823303   69.5559387    -11.2274103   -176.4084930  
275000000     -12.4037304   -8.4787760    22.3455296    -132.4467010  -27.7585506   63.1853981    -11.8377399   -176.3889008  
300000000     -13.5374804   -21.0898209   22.5013905    -138.7492981  -27.6761093   56.8027382    -12.2103701   -176.0648956  
325000000     -14.4199495   -33.6323395   22.6022606    -144.2183075  -27.5013599   52.1982918    -12.4719200   -175.8504028  
350000000     -15.0797997   -44.9614983   22.6826706    -149.0252991  -27.3105106   47.6959305    -12.6510096   -175.9134979  
375000000     -15.5507803   -54.9746017   22.7327499    -153.3273010  -27.2975502   44.1791992    -12.6672897   -175.9069977  
400000000     -15.8756905   -64.5776596   22.7672997    -157.2113953  -27.2709694   40.9137306    -12.7324696   -176.2790070  
425000000     -16.0681400   -72.6880035   22.7992802    -160.7151031  -27.1398602   37.6561394    -12.6953201   -176.8453979  
450000000     -16.1615906   -80.2316971   22.8153992    -163.9282990  -27.1241093   35.0450706    -12.7114296   -177.3959961  
475000000     -16.1734409   -86.2986832   22.8295097    -166.9454956  -27.0308895   32.3441391    -12.7147999   -178.3435974  
500000000     -16.1606598   -92.2080765   22.8354893    -169.7330017  -27.0615807   30.3033695    -12.7451696   -179.1640015  
525000000     -16.1056709   -96.9572906   22.8452396    -172.3684998  -27.0137691   28.7786293    -12.7295504   179.9736023   
550000000     -16.1222000   -101.2422028  22.8533993    -174.8224945  -27.0590305   26.4330101    -12.7214098   179.2713928   
575000000     -16.0060692   -104.8738022  22.8510494    -177.1800995  -26.9444904   24.8132191    -12.7357397   178.2707062   
600000000     -15.9981699   -108.4272003  22.8478203    -179.4028931  -26.9758091   23.4716892    -12.7275696   177.6535034   
625000000     -15.9288197   -111.3542023  22.8454399    178.4750977   -26.9216194   22.2709293    -12.7459402   176.5256042   
650000000     -15.8906202   -113.8554001  22.8383102    176.4214935   -26.9364204   20.8728008    -12.7589598   175.7610016   
675000000     -15.8267698   -116.2556992  22.8290291    174.4638977   -26.8974304   19.3431492    -12.8038797   174.8786926   
700000000     -15.7833900   -118.6271973  22.8154507    172.5709076   -26.9183693   18.2377300    -12.8619003   174.0065002   
725000000     -15.7727404   -120.4916992  22.8098202    170.7429047   -26.9114304   17.1907501    -12.8594704   173.2489014   
750000000     -15.7179298   -122.0320969  22.8003807    168.9476929   -26.8256493   15.9768696    -12.9110098   172.2720032   
775000000     -15.7111597   -123.8625031  22.7885704    167.2608032   -26.8548908   15.0450096    -12.9487896   171.5885010   
800000000     -15.6704197   -125.0739975  22.7813797    165.5536957   -26.8542709   14.1067801    -12.9890804   170.8641052   
825000000     -15.6136303   -126.4945984  22.7580795    163.9216003   -26.8170700   13.2380896    -13.0487099   169.9990997   
850000000     -15.6092300   -127.5335999  22.7463703    162.3296051   -26.8677101   12.2482996    -13.0772600   169.3175964   
875000000     -15.6097403   -128.5601044  22.7356300    160.7805023   -26.8801994   11.5628004    -13.1452703   168.5765076   
900000000     -15.5981703   -129.4685974  22.7202702    159.1994019   -26.7897396   10.6671200    -13.1969404   167.9154968   
925000000     -15.5939302   -130.2321014  22.7003002    157.6990051   -26.8057194   9.9211845     -13.2671299   167.1887054   
950000000     -15.6076097   -131.0502930  22.6861801    156.2416992   -26.7997608   8.7198601     -13.3186798   166.5989990   
975000000     -15.5446501   -132.0818939  22.6679802    154.7630005   -26.7817097   8.6637001     -13.4137602   166.0090942   
1000000000    -15.5928698   -132.5126038  22.6529293    153.3500061   -26.8173199   7.8951359     -13.4703302   165.4062958   
1025000000    -15.5703497   -133.1560059  22.6345901    151.9555054   -26.8197594   6.8622551     -13.5859098   164.8309021   
1050000000    -15.5698605   -133.5242004  22.6188793    150.5697937   -26.7904797   6.3705640     -13.6217499   164.1800995   
1075000000    -15.5702200   -134.0888062  22.5968304    149.1808929   -26.7871704   5.7275591     -13.7251902   163.7117004   
1100000000    -15.5883598   -134.3755035  22.5796604    147.8824005   -26.7491703   5.1817870     -13.7996902   163.2444000   
1125000000    -15.5800896   -134.7749023  22.5572205    146.5305023   -26.7231693   4.4604659     -13.8883801   162.7474976   
1150000000    -15.5907602   -135.1443024  22.5436306    145.2028961   -26.7490005   3.5602560     -13.9667196   162.2254944   
1175000000    -15.5883904   -135.4822998  22.5163403    143.9163055   -26.7147408   2.8146031     -14.0716400   161.6708984   
1200000000    -15.6232700   -135.6690979  22.4995003    142.6403961   -26.7408791   2.4842949     -14.1758204   161.2904053   
1225000000    -15.6355305   -135.6838989  22.4769993    141.3527069   -26.7138004   2.3373029     -14.2673302   161.0572052   
1250000000    -15.6299295   -136.0341034  22.4523506    140.0986938   -26.7511692   1.5594720     -14.3791304   160.5464020   
1275000000    -15.6529398   -135.9127960  22.4332809    138.8623962   -26.6935596   1.3034739     -14.4912500   160.3159943   
1300000000    -15.6691103   -136.1199036  22.4108696    137.6277008   -26.7153091   0.5286860     -14.5990105   159.9436035   
1325000000    -15.6738997   -136.2360992  22.3891201    136.4113007   -26.7018509   -0.1290376    -14.7408705   159.7447968   
1350000000    -15.7043800   -136.2720032  22.3673992    135.2088928   -26.6989193   -0.7708640    -14.8530998   159.6197052   
1375000000    -15.7212095   -136.0769958  22.3457699    133.9754944   -26.6928902   -0.7622187    -14.9616404   159.3329010   
1400000000    -15.7423000   -136.1239014  22.3228703    132.7817993   -26.6819897   -1.6376400    -15.0433998   159.2481995   
1425000000    -15.7391300   -135.7144928  22.3001194    131.6188049   -26.7194309   -1.9544441    -15.1767397   159.0045929   
1450000000    -15.7578096   -135.6967926  22.2761593    130.4555054   -26.7012997   -2.5070751    -15.3115501   158.9472961   
1475000000    -15.7491102   -135.5623932  22.2528706    129.2812042   -26.6478806   -3.1365170    -15.4342098   158.8155060   
1500000000    -15.8018103   -135.3132935  22.2296391    128.1192932   -26.7547398   -3.5280859    -15.5605402   158.8804016   
1525000000    -15.7472000   -135.2536011  22.2033806    126.9313965   -26.6996994   -3.5776711    -15.7118998   158.8164978   
1550000000    -15.7548304   -135.2474060  22.1767998    125.7542038   -26.6677399   -4.2607908    -15.8302898   158.7819977   
1575000000    -15.8565598   -135.0335999  22.1450291    124.6576996   -26.6990108   -4.7712240    -15.9379501   158.7953033   
1600000000    -15.8311996   -134.7176971  22.1190796    123.5431976   -26.6756191   -5.3952079    -16.1441193   159.0626984   
1625000000    -15.8563900   -134.3641968  22.0917606    122.4179001   -26.6681309   -5.7825871    -16.2441006   159.3022003   
1650000000    -15.8280497   -134.3305054  22.0621395    121.3322983   -26.6572208   -5.7726598    -16.3956203   159.2657013   
1675000000    -15.9009104   -133.9609985  22.0439892    120.2413025   -26.6436806   -6.5633779    -16.5342503   159.5917969   
1700000000    -15.9259901   -133.5623016  22.0160198    119.1633987   -26.6693306   -7.4238138    -16.6856308   159.6336975   
1725000000    -15.9328203   -133.0419006  21.9919605    118.0835037   -26.6662502   -7.3172889    -16.8527203   159.9149017   
1750000000    -15.9739504   -132.2333984  21.9683495    116.9334030   -26.6437492   -7.9460359    -17.0514603   160.5592957   
1775000000    -15.9701405   -131.7642975  21.9471397    115.8460999   -26.6734505   -8.4794521    -17.1549492   161.2926025   
1800000000    -15.8908005   -130.9145966  21.9156609    114.7445984   -26.6733704   -8.6174812    -17.3290901   161.8670044   
1825000000    -15.7408895   -130.8802948  21.8850098    113.6741028   -26.6596298   -8.8447390    -17.4017391   162.1567993   
1850000000    -15.7849197   -131.0756989  21.8607693    112.6163025   -26.6335297   -9.1863375    -17.5785294   162.6452026   
1875000000    -15.8355503   -130.7460938  21.8321495    111.5710983   -26.6142807   -9.8181114    -17.7545891   163.5422974   
1900000000    -15.8097401   -130.4082947  21.8076401    110.5124969   -26.6209106   -10.5966797   -17.9215393   164.6311035   
1925000000    -15.8243999   -129.7561035  21.7781391    109.4738998   -26.6258907   -10.6395102   -18.0509701   165.5330048   
1950000000    -15.7773895   -129.3619995  21.7533207    108.3864975   -26.5915508   -11.4136696   -18.1542702   166.3332062   
1975000000    -15.7800703   -129.2243958  21.7231293    107.3291016   -26.6022091   -11.3295298   -18.2667294   167.4113007   
2000000000    -15.8172102   -128.8401031  21.6959000    106.3223038   -26.5650692   -12.0055904   -18.4070702   168.6148987   
2025000000    -15.8437204   -128.3724976  21.6693802    105.2857971   -26.5587406   -12.5100603   -18.4648991   169.9427948   
2050000000    -15.8747196   -128.0977936  21.6384106    104.2115021   -26.5803699   -13.0608902   -18.5422401   170.6029053   
2075000000    -15.8791599   -127.1179962  21.6086807    103.2055969   -26.6030006   -12.8909502   -18.7788296   171.9788971   
2100000000    -15.7980604   -126.2881012  21.5840492    102.2051010   -26.6365299   -13.6292000   -18.7713299   173.6609039   
2125000000    -15.7483196   -125.6417007  21.5566597    101.1884995   -26.5942402   -13.7968798   -18.9076500   175.2895050   
2150000000    -15.7175102   -125.2341003  21.5262299    100.1244965   -26.5623207   -14.3163204   -18.9205303   176.8952026   
2175000000    -15.7088900   -124.9235001  21.4992504    99.1078568    -26.6162109   -14.8706703   -18.9900894   177.7783051   
2200000000    -15.6886301   -124.2242966  21.4678192    98.1480789    -26.6097107   -15.0539598   -18.9868908   179.4272003   
2225000000    -15.6910696   -123.9166031  21.4400692    97.1473007    -26.5877399   -15.4481497   -19.0985699   -178.5935059  
2250000000    -15.6160803   -123.2843018  21.4140396    96.1589737    -26.6203098   -16.1322594   -19.0972004   -177.1515045  
2275000000    -15.5998602   -122.8755035  21.3863201    95.1629868    -26.5689697   -16.5574093   -19.0721607   -175.8173981  
2300000000    -15.5506802   -122.6122971  21.3587093    94.1117172    -26.5586109   -16.7344608   -19.0390091   -174.2817993  
2325000000    -15.5202599   -122.0214005  21.3226700    93.1101227    -26.5640392   -17.0034103   -19.0407391   -172.7518005  
2350000000    -15.5055103   -121.7898026  21.2950802    92.1240311    -26.5600300   -17.4700108   -18.9589596   -171.2118073  
2375000000    -15.4653502   -121.1844025  21.2626305    91.1675720    -26.5804195   -18.0733299   -18.9509792   -169.5711975  
2400000000    -15.4481001   -120.8772964  21.2394104    90.1308517    -26.5641594   -18.3881798   -18.8226891   -168.6123962  
2425000000    -15.3956099   -120.3216019  21.2031994    89.1362534    -26.6021194   -18.7753105   -18.7858696   -167.0260010  
2450000000    -15.4126396   -119.8283005  21.1661701    88.2029266    -26.5780792   -19.3487301   -18.7027397   -165.4880981  
2475000000    -15.3262501   -119.5342026  21.1442699    87.2034302    -26.6052895   -19.3835106   -18.5737591   -164.0885010  
2500000000    -15.3000498   -119.1606979  21.1064091    86.2501221    -26.5099201   -19.7374802   -18.4968300   -163.1847992  
2525000000    -15.2632504   -118.6579971  21.0866604    85.2797470    -26.5910702   -20.3545208   -18.3873100   -161.9017029  
2550000000    -15.2488298   -118.6048965  21.0546608    84.2592392    -26.5323505   -20.7665291   -18.2691898   -161.1304932  
2575000000    -15.2414303   -117.8845978  21.0179100    83.3943176    -26.5750999   -21.1989899   -18.1761494   -159.6510925  
2600000000    -15.2239799   -117.4273987  20.9879208    82.4203796    -26.5464592   -21.4396400   -18.0793991   -158.3650055  
2625000000    -15.1332798   -117.1598969  20.9639893    81.4862366    -26.4971294   -21.3905296   -17.9054909   -157.6235962  
2650000000    -15.0816002   -116.9517975  20.9391308    80.5116577    -26.5247192   -22.0582905   -17.7091198   -156.7295990  
2675000000    -15.0574598   -116.8744965  20.9101391    79.5643234    -26.5358906   -23.0050602   -17.5706596   -155.8760986  
2700000000    -15.0340796   -116.4713974  20.8795109    78.5926819    -26.5260601   -22.7028599   -17.4225502   -154.9118958  
2725000000    -15.0066099   -116.2675018  20.8465195    77.6457672    -26.5845795   -23.3709698   -17.2722797   -154.3271027  
2750000000    -14.9398098   -115.9362030  20.8220406    76.6509171    -26.5445099   -23.8320904   -17.1095791   -153.8011017  
2775000000    -14.9672604   -116.0968018  20.7828693    75.6965027    -26.5123806   -24.1573601   -16.9776592   -153.4151001  
2800000000    -14.9641800   -115.9366989  20.7540398    74.7761765    -26.5250206   -24.2350292   -16.8367500   -152.9479980  
2825000000    -14.8969603   -115.4910965  20.7320194    73.8936081    -26.5514793   -25.0422096   -16.6489105   -152.3919983  
2850000000    -14.8754101   -115.2680969  20.6979294    72.9097824    -26.5461807   -24.9773808   -16.5072708   -152.1421051  
2875000000    -14.8276901   -114.9937973  20.6672802    72.0077667    -26.5845108   -25.8248196   -16.3632603   -151.5682983  
2900000000    -14.7817497   -114.9750977  20.6398697    71.0890808    -26.5623703   -25.8691196   -16.2289906   -151.4284973  
2925000000    -14.7680902   -114.8917007  20.6121292    70.1166077    -26.4805908   -26.4797001   -16.1077003   -151.0209961  
2950000000    -14.7222605   -114.6869965  20.5892391    69.2072296    -26.5000706   -27.0691204   -15.8973103   -150.3347015  
2975000000    -14.7123003   -114.6906967  20.5578899    68.2626877    -26.5725803   -26.9741993   -15.7312498   -150.2167053  
3000000000    -14.6683798   -114.6772003  20.5267296    67.2687988    -26.5453491   -27.7416496   -15.6176901   -150.2751007  
3025000000    -14.6227198   -114.7421036  20.4971905    66.3815231    -26.5632706   -27.6835003   -15.4545803   -150.4432068  
3050000000    -14.6690702   -114.9590988  20.4650707    65.4783401    -26.5650806   -28.4584599   -15.3109903   -150.1430969  
3075000000    -14.6666698   -115.1146011  20.4397793    64.5199585    -26.5487595   -28.4504700   -15.1853104   -150.3361969  
3100000000    -14.6840096   -114.7998962  20.4096298    63.6299706    -26.5272598   -29.1053200   -15.0618401   -150.2176056  
3125000000    -14.7245798   -115.0194016  20.3803692    62.7023888    -26.5496101   -29.4229202   -14.9294205   -150.3945007  
3150000000    -14.6998796   -114.8274002  20.3488903    61.8045883    -26.5149593   -30.4313793   -14.8472004   -150.5682983  
3175000000    -14.6992302   -114.1552963  20.3120403    60.9984283    -26.5505505   -30.3975506   -14.8010798   -150.1607056  
3200000000    -14.6267500   -114.2670975  20.3049297    60.0197105    -26.5373993   -30.8373909   -14.5481300   -150.2035065  
3225000000    -14.5983105   -114.9955978  20.2745895    59.0791893    -26.5776691   -31.2552109   -14.4652500   -150.5469055  
3250000000    -14.6082697   -115.1119995  20.2477894    58.1474419    -26.5471001   -31.7450905   -14.3525000   -150.5142975  
3275000000    -14.6090899   -115.2425003  20.2194004    57.2481308    -26.5915909   -31.6471291   -14.1877499   -151.0216064  
3300000000    -14.6472998   -115.5667038  20.1938095    56.3598900    -26.4970093   -32.2932091   -14.0712099   -150.9761963  
3325000000    -14.7347002   -115.4996033  20.1645699    55.4758911    -26.5605202   -32.5748787   -13.9642696   -151.0334015  
3350000000    -14.6770096   -115.8023987  20.1469994    54.4826012    -26.4969406   -32.9558792   -13.8498201   -151.9053040  
3375000000    -14.7291098   -115.8217010  20.1113701    53.5820808    -26.5139198   -33.5376396   -13.7949896   -151.9606934  
3400000000    -14.7271500   -116.0787964  20.0810299    52.6756401    -26.4812603   -34.0080795   -13.6898203   -152.3260040  
3425000000    -14.7489901   -116.2453995  20.0534191    51.8201599    -26.5273495   -34.4849510   -13.6499395   -152.2070007  
3450000000    -14.7777700   -116.5748978  20.0403805    50.8663292    -26.5441494   -34.6087418   -13.4745197   -152.6652069  
3475000000    -14.8093204   -117.1511993  20.0160503    49.9438286    -26.5582409   -34.8915405   -13.3543301   -153.1226959  
3500000000    -14.8810196   -117.1738968  19.9757500    49.0413589    -26.4834805   -35.5067101   -13.2567101   -153.8520966  
3525000000    -14.9104996   -117.0634995  19.9551697    48.1658592    -26.4960804   -36.3703003   -13.2182703   -153.9884033  
3550000000    -14.9611197   -117.5654984  19.9398193    47.2509499    -26.5402794   -36.2404785   -13.1220303   -154.2129059  
3575000000    -14.9987803   -117.7296982  19.9175606    46.3266983    -26.4823399   -36.7071800   -13.0188398   -154.7785034  
3600000000    -15.0345097   -118.1177979  19.8875904    45.3782997    -26.4920902   -37.1481400   -12.9432602   -155.1242065  
3625000000    -15.0513601   -118.3828964  19.8712997    44.4393501    -26.4870491   -37.5985603   -12.8508101   -155.5809021  
3650000000    -15.1318302   -119.1117020  19.8403091    43.5189018    -26.4585304   -38.1810188   -12.7899704   -156.2451019  
