!Agilent Technologies,E8364A,US41440144,A.06.04.32
!Agilent E8364A: A.06.04.32
!Date: Friday, February 02, 2018 10:16:32
!Correction: S11(Full 2 Port(1,2)) 
!S1P File: Measurement: S11:
# Hz S  dB   R 50
2000000000  -5.294391e+000  1.477878e+002 
2005000000  -5.255551e+000  1.465540e+002 
2010000000  -5.251815e+000  1.455000e+002 
2015000000  -5.192548e+000  1.441317e+002 
2020000000  -5.235616e+000  1.427589e+002 
2025000000  -5.216268e+000  1.419204e+002 
2030000000  -5.171452e+000  1.407342e+002 
2035000000  -5.201722e+000  1.393982e+002 
2040000000  -5.179101e+000  1.384824e+002 
2045000000  -5.131444e+000  1.370946e+002 
2050000000  -5.136591e+000  1.357556e+002 
2055000000  -5.150086e+000  1.345185e+002 
2060000000  -5.110656e+000  1.331916e+002 
2065000000  -5.135228e+000  1.322078e+002 
2070000000  -5.106958e+000  1.308046e+002 
2075000000  -5.101922e+000  1.299476e+002 
2080000000  -5.050127e+000  1.284010e+002 
2085000000  -5.066297e+000  1.272097e+002 
2090000000  -5.053159e+000  1.260127e+002 
2095000000  -5.042918e+000  1.249434e+002 
2100000000  -5.003181e+000  1.236850e+002 
2105000000  -5.014360e+000  1.225647e+002 
2110000000  -5.036572e+000  1.212024e+002 
2115000000  -4.987074e+000  1.202270e+002 
2120000000  -4.985051e+000  1.189942e+002 
2125000000  -4.926638e+000  1.176470e+002 
2130000000  -4.966499e+000  1.166360e+002 
2135000000  -4.937063e+000  1.155798e+002 
2140000000  -4.974949e+000  1.143919e+002 
2145000000  -4.940499e+000  1.133272e+002 
2150000000  -4.924623e+000  1.118578e+002 
2155000000  -4.908405e+000  1.107839e+002 
2160000000  -4.876639e+000  1.095927e+002 
2165000000  -4.922368e+000  1.082241e+002 
2170000000  -4.868238e+000  1.069820e+002 
2175000000  -4.882078e+000  1.058021e+002 
2180000000  -4.861147e+000  1.047489e+002 
2185000000  -4.846668e+000  1.034130e+002 
2190000000  -4.849717e+000  1.023352e+002 
2195000000  -4.870846e+000  1.011490e+002 
2200000000  -4.819293e+000  1.001436e+002 
2205000000  -4.813895e+000  9.882648e+001 
2210000000  -4.822588e+000  9.749272e+001 
2215000000  -4.772883e+000  9.645460e+001 
2220000000  -4.780726e+000  9.514125e+001 
2225000000  -4.768653e+000  9.408031e+001 
2230000000  -4.799068e+000  9.267988e+001 
2235000000  -4.740810e+000  9.166393e+001 
2240000000  -4.769991e+000  9.054220e+001 
2245000000  -4.732853e+000  8.927017e+001 
2250000000  -4.715019e+000  8.815827e+001 
2255000000  -4.702252e+000  8.708804e+001 
2260000000  -4.737363e+000  8.581511e+001 
2265000000  -4.790521e+000  8.449627e+001 
2270000000  -4.720670e+000  8.329624e+001 
2275000000  -4.721478e+000  8.212783e+001 
2280000000  -4.684871e+000  8.099477e+001 
2285000000  -4.686447e+000  7.970094e+001 
2290000000  -4.713058e+000  7.852057e+001 
2295000000  -4.657648e+000  7.712953e+001 
2300000000  -4.664792e+000  7.603755e+001 
2305000000  -4.675372e+000  7.483109e+001 
2310000000  -4.686387e+000  7.414956e+001 
2315000000  -4.651431e+000  7.244350e+001 
2320000000  -4.661290e+000  7.141460e+001 
2325000000  -4.604732e+000  7.014459e+001 
2330000000  -4.607278e+000  6.900101e+001 
2335000000  -4.628095e+000  6.759441e+001 
2340000000  -4.567444e+000  6.613712e+001 
2345000000  -4.579765e+000  6.507294e+001 
2350000000  -4.571552e+000  6.380281e+001 
2355000000  -4.592371e+000  6.259174e+001 
2360000000  -4.622015e+000  6.176983e+001 
2365000000  -4.546895e+000  6.040190e+001 
2370000000  -4.566778e+000  5.921500e+001 
2375000000  -4.535659e+000  5.825609e+001 
2380000000  -4.562994e+000  5.669200e+001 
2385000000  -4.531536e+000  5.550632e+001 
2390000000  -4.550455e+000  5.445926e+001 
2395000000  -4.557574e+000  5.305384e+001 
2400000000  -4.551699e+000  5.211349e+001 
2405000000  -4.490175e+000  5.052396e+001 
2410000000  -4.554122e+000  4.917049e+001 
2415000000  -4.496034e+000  4.814653e+001 
2420000000  -4.501867e+000  4.697019e+001 
2425000000  -4.460452e+000  4.576746e+001 
2430000000  -4.470771e+000  4.401068e+001 
2435000000  -4.468347e+000  4.341065e+001 
2440000000  -4.488949e+000  4.189922e+001 
2445000000  -4.446242e+000  4.078168e+001 
2450000000  -4.449599e+000  3.965661e+001 
2455000000  -4.498901e+000  3.813763e+001 
2460000000  -4.432957e+000  3.708381e+001 
2465000000  -4.447017e+000  3.539833e+001 
2470000000  -4.431567e+000  3.464066e+001 
2475000000  -4.488375e+000  3.322451e+001 
2480000000  -4.456804e+000  3.229590e+001 
2485000000  -4.423975e+000  3.074037e+001 
2490000000  -4.451590e+000  2.964562e+001 
2495000000  -4.442932e+000  2.824085e+001 
2500000000  -4.429574e+000  2.686311e+001 
2505000000  -4.444570e+000  2.578210e+001 
2510000000  -4.446725e+000  2.455150e+001 
2515000000  -4.414700e+000  2.333893e+001 
2520000000  -4.399496e+000  2.189340e+001 
2525000000  -4.402273e+000  2.047522e+001 
2530000000  -4.385755e+000  1.913803e+001 
2535000000  -4.400515e+000  1.802831e+001 
2540000000  -4.353542e+000  1.702240e+001 
2545000000  -4.388312e+000  1.573185e+001 
2550000000  -4.354095e+000  1.437748e+001 
2555000000  -4.363410e+000  1.293016e+001 
2560000000  -4.379838e+000  1.191358e+001 
2565000000  -4.373027e+000  1.042848e+001 
2570000000  -4.346181e+000  9.122984e+000 
2575000000  -4.312270e+000  8.032170e+000 
2580000000  -4.353498e+000  6.390595e+000 
2585000000  -4.339216e+000  5.384706e+000 
2590000000  -4.330531e+000  4.145475e+000 
2595000000  -4.347943e+000  2.839195e+000 
2600000000  -4.335656e+000  1.404345e+000 
2605000000  -4.310657e+000  3.292774e-002 
2610000000  -4.320186e+000  -9.470714e-001 
2615000000  -4.340417e+000  -2.323446e+000 
2620000000  -4.328599e+000  -3.749053e+000 
2625000000  -4.298903e+000  -4.779053e+000 
2630000000  -4.282098e+000  -6.713712e+000 
2635000000  -4.326231e+000  -7.665627e+000 
2640000000  -4.300317e+000  -9.056655e+000 
2645000000  -4.308609e+000  -1.022381e+001 
2650000000  -4.280860e+000  -1.150293e+001 
2655000000  -4.257880e+000  -1.285565e+001 
2660000000  -4.270515e+000  -1.415556e+001 
2665000000  -4.245201e+000  -1.553501e+001 
2670000000  -4.251283e+000  -1.698507e+001 
2675000000  -4.287934e+000  -1.813672e+001 
2680000000  -4.240530e+000  -1.962401e+001 
2685000000  -4.210862e+000  -2.055447e+001 
2690000000  -4.185117e+000  -2.183183e+001 
2695000000  -4.244565e+000  -2.342192e+001 
2700000000  -4.194094e+000  -2.457378e+001 
2705000000  -4.178863e+000  -2.604665e+001 
2710000000  -4.227879e+000  -2.734903e+001 
2715000000  -4.209511e+000  -2.873036e+001 
2720000000  -4.198761e+000  -2.997108e+001 
2725000000  -4.221015e+000  -3.155804e+001 
2730000000  -4.221607e+000  -3.264236e+001 
2735000000  -4.177714e+000  -3.366875e+001 
2740000000  -4.131505e+000  -3.534354e+001 
2745000000  -4.194114e+000  -3.664777e+001 
2750000000  -4.145599e+000  -3.803137e+001 
2755000000  -4.124809e+000  -3.936499e+001 
2760000000  -4.152509e+000  -4.061917e+001 
2765000000  -4.118421e+000  -4.188426e+001 
2770000000  -4.143809e+000  -4.318586e+001 
2775000000  -4.145669e+000  -4.437600e+001 
2780000000  -4.106914e+000  -4.591314e+001 
2785000000  -4.092978e+000  -4.712998e+001 
2790000000  -4.059185e+000  -4.882553e+001 
2795000000  -4.112733e+000  -4.994887e+001 
2800000000  -4.071525e+000  -5.125980e+001 
2805000000  -4.089223e+000  -5.247368e+001 
2810000000  -4.089739e+000  -5.386287e+001 
2815000000  -4.087197e+000  -5.535559e+001 
2820000000  -4.033926e+000  -5.645634e+001 
2825000000  -4.027618e+000  -5.798283e+001 
2830000000  -4.009386e+000  -5.941313e+001 
2835000000  -4.028072e+000  -6.046706e+001 
2840000000  -4.025201e+000  -6.186533e+001 
2845000000  -3.983033e+000  -6.327338e+001 
2850000000  -4.015957e+000  -6.449251e+001 
2855000000  -4.050150e+000  -6.562051e+001 
2860000000  -3.982225e+000  -6.735445e+001 
2865000000  -3.983269e+000  -6.846751e+001 
2870000000  -3.966605e+000  -6.981205e+001 
2875000000  -3.964178e+000  -7.130525e+001 
2880000000  -3.963424e+000  -7.239887e+001 
2885000000  -3.846843e+000  -7.371204e+001 
2890000000  -3.930118e+000  -7.524334e+001 
2895000000  -3.952070e+000  -7.646099e+001 
2900000000  -3.913975e+000  -7.797260e+001 
2905000000  -3.902549e+000  -7.917097e+001 
2910000000  -3.901996e+000  -8.023190e+001 
2915000000  -3.892084e+000  -8.195045e+001 
2920000000  -3.902858e+000  -8.311262e+001 
2925000000  -3.859612e+000  -8.433329e+001 
2930000000  -3.901130e+000  -8.534730e+001 
2935000000  -3.831776e+000  -8.689816e+001 
2940000000  -3.799495e+000  -8.800787e+001 
2945000000  -3.815443e+000  -8.961249e+001 
2950000000  -3.776139e+000  -9.092561e+001 
2955000000  -3.806916e+000  -9.216785e+001 
2960000000  -3.794579e+000  -9.341180e+001 
2965000000  -3.796840e+000  -9.481943e+001 
2970000000  -3.814075e+000  -9.596564e+001 
2975000000  -3.721080e+000  -9.737983e+001 
2980000000  -3.774529e+000  -9.872292e+001 
2985000000  -3.756357e+000  -1.001654e+002 
2990000000  -3.702777e+000  -1.014158e+002 
2995000000  -3.731779e+000  -1.023601e+002 
3000000000  -3.686124e+000  -1.040036e+002 
