!Agilent Technologies,E8364A,US41440144,A.06.04.32
!Agilent E8364A: A.06.04.32
!Date: Friday, February 02, 2018 10:35:25
!Correction: S22(Full 2 Port(1,2)) 
!S1P File: Measurement: S22:
# Hz S  dB   R 50
2000000000  -5.863631e+000  -3.771474e+001 
2001250000  -5.874075e+000  -3.796869e+001 
2002500000  -5.875662e+000  -3.822702e+001 
2003750000  -5.875684e+000  -3.848257e+001 
2005000000  -5.886792e+000  -3.867959e+001 
2006250000  -5.905708e+000  -3.905315e+001 
2007500000  -5.913382e+000  -3.942715e+001 
2008750000  -5.923643e+000  -3.981832e+001 
2010000000  -5.944387e+000  -4.017400e+001 
2011250000  -6.001506e+000  -4.052277e+001 
2012500000  -6.049787e+000  -4.080676e+001 
2013750000  -6.078906e+000  -4.106503e+001 
2015000000  -6.089706e+000  -4.138651e+001 
2016250000  -6.044594e+000  -4.140239e+001 
2017500000  -6.032227e+000  -4.154374e+001 
2018750000  -6.028326e+000  -4.168464e+001 
2020000000  -6.031507e+000  -4.180142e+001 
2021250000  -6.081800e+000  -4.231097e+001 
2022500000  -6.139683e+000  -4.284048e+001 
2023750000  -6.165475e+000  -4.320279e+001 
2025000000  -6.203959e+000  -4.369473e+001 
2026250000  -6.229562e+000  -4.399361e+001 
2027500000  -6.258499e+000  -4.441466e+001 
2028750000  -6.268882e+000  -4.475111e+001 
2030000000  -6.265096e+000  -4.498913e+001 
2031250000  -6.220901e+000  -4.535099e+001 
2032500000  -6.186200e+000  -4.566367e+001 
2033750000  -6.164351e+000  -4.614747e+001 
2035000000  -6.164173e+000  -4.662959e+001 
2036250000  -6.253010e+000  -4.716867e+001 
2037500000  -6.315548e+000  -4.759018e+001 
2038750000  -6.373017e+000  -4.796574e+001 
2040000000  -6.406184e+000  -4.839874e+001 
2041250000  -6.398585e+000  -4.874707e+001 
2042500000  -6.412879e+000  -4.908696e+001 
2043750000  -6.422642e+000  -4.940687e+001 
2045000000  -6.432991e+000  -4.974250e+001 
2046250000  -6.459299e+000  -5.019967e+001 
2047500000  -6.474923e+000  -5.041641e+001 
2048750000  -6.493061e+000  -5.062372e+001 
2050000000  -6.513055e+000  -5.079975e+001 
2051250000  -6.485321e+000  -5.114076e+001 
2052500000  -6.440823e+000  -5.140842e+001 
2053750000  -6.425193e+000  -5.185588e+001 
2055000000  -6.437161e+000  -5.239011e+001 
2056250000  -6.493420e+000  -5.263800e+001 
2057500000  -6.543072e+000  -5.291490e+001 
2058750000  -6.591494e+000  -5.316258e+001 
2060000000  -6.617474e+000  -5.363154e+001 
2061250000  -6.631942e+000  -5.404512e+001 
2062500000  -6.649211e+000  -5.442453e+001 
2063750000  -6.674059e+000  -5.480000e+001 
2065000000  -6.674987e+000  -5.516423e+001 
2066250000  -6.726921e+000  -5.554112e+001 
2067500000  -6.757057e+000  -5.587149e+001 
2068750000  -6.804074e+000  -5.605058e+001 
2070000000  -6.855587e+000  -5.625705e+001 
2071250000  -6.858902e+000  -5.681770e+001 
2072500000  -6.850107e+000  -5.729423e+001 
2073750000  -6.868593e+000  -5.785608e+001 
2075000000  -6.896669e+000  -5.847897e+001 
2076250000  -6.899559e+000  -5.877181e+001 
2077500000  -6.909318e+000  -5.909616e+001 
2078750000  -6.903394e+000  -5.945131e+001 
2080000000  -6.919537e+000  -5.976631e+001 
2081250000  -6.972168e+000  -6.040997e+001 
2082500000  -7.028347e+000  -6.063194e+001 
2083750000  -7.064795e+000  -6.099357e+001 
2085000000  -7.095520e+000  -6.123873e+001 
2086250000  -7.064416e+000  -6.144388e+001 
2087500000  -7.014146e+000  -6.163676e+001 
2088750000  -7.011315e+000  -6.194157e+001 
2090000000  -7.013870e+000  -6.234045e+001 
2091250000  -7.076873e+000  -6.238870e+001 
2092500000  -7.132390e+000  -6.275773e+001 
2093750000  -7.190453e+000  -6.321311e+001 
2095000000  -7.248535e+000  -6.354922e+001 
2096250000  -7.231677e+000  -6.411445e+001 
2097500000  -7.207230e+000  -6.472046e+001 
2098750000  -7.183478e+000  -6.521676e+001 
2100000000  -7.119297e+000  -6.546319e+001 
2101250000  -7.137706e+000  -6.588018e+001 
2102500000  -7.183953e+000  -6.629664e+001 
2103750000  -7.212842e+000  -6.664419e+001 
2105000000  -7.214725e+000  -6.716650e+001 
2106250000  -7.215703e+000  -6.736700e+001 
2107500000  -7.236928e+000  -6.754209e+001 
2108750000  -7.252802e+000  -6.780397e+001 
2110000000  -7.261204e+000  -6.808773e+001 
2111250000  -7.280804e+000  -6.831213e+001 
2112500000  -7.296254e+000  -6.863528e+001 
2113750000  -7.312930e+000  -6.914181e+001 
2115000000  -7.349452e+000  -6.944370e+001 
2116250000  -7.384232e+000  -6.999738e+001 
2117500000  -7.406896e+000  -7.046429e+001 
2118750000  -7.440107e+000  -7.095625e+001 
2120000000  -7.471829e+000  -7.132285e+001 
2121250000  -7.520658e+000  -7.167725e+001 
2122500000  -7.537441e+000  -7.199842e+001 
2123750000  -7.571987e+000  -7.238020e+001 
2125000000  -7.606052e+000  -7.269932e+001 
2126250000  -7.593384e+000  -7.293961e+001 
2127500000  -7.589262e+000  -7.326373e+001 
2128750000  -7.583721e+000  -7.353554e+001 
2130000000  -7.608441e+000  -7.376157e+001 
2131250000  -7.613766e+000  -7.409676e+001 
2132500000  -7.624992e+000  -7.435661e+001 
2133750000  -7.616098e+000  -7.469051e+001 
2135000000  -7.601665e+000  -7.510972e+001 
2136250000  -7.644330e+000  -7.562997e+001 
2137500000  -7.677554e+000  -7.610130e+001 
2138750000  -7.714122e+000  -7.660925e+001 
2140000000  -7.744471e+000  -7.738554e+001 
2141250000  -7.737622e+000  -7.774527e+001 
2142500000  -7.733060e+000  -7.811732e+001 
2143750000  -7.729938e+000  -7.847269e+001 
2145000000  -7.746715e+000  -7.876498e+001 
2146250000  -7.754198e+000  -7.885760e+001 
2147500000  -7.770886e+000  -7.908355e+001 
2148750000  -7.791261e+000  -7.938094e+001 
2150000000  -7.834571e+000  -7.976210e+001 
2151250000  -7.881832e+000  -8.002036e+001 
2152500000  -7.931421e+000  -8.039423e+001 
2153750000  -7.966712e+000  -8.061316e+001 
2155000000  -8.004859e+000  -8.109930e+001 
2156250000  -7.996530e+000  -8.178168e+001 
2157500000  -7.978645e+000  -8.232304e+001 
2158750000  -7.965609e+000  -8.279753e+001 
2160000000  -7.950531e+000  -8.321796e+001 
2161250000  -7.959019e+000  -8.348418e+001 
2162500000  -7.982367e+000  -8.373475e+001 
2163750000  -8.010729e+000  -8.398301e+001 
2165000000  -8.040230e+000  -8.450093e+001 
2166250000  -8.046944e+000  -8.468347e+001 
2167500000  -8.074697e+000  -8.491127e+001 
2168750000  -8.072863e+000  -8.526570e+001 
2170000000  -8.086178e+000  -8.560677e+001 
2171250000  -8.064376e+000  -8.612338e+001 
2172500000  -8.054808e+000  -8.663797e+001 
2173750000  -8.049123e+000  -8.692810e+001 
2175000000  -8.039858e+000  -8.730701e+001 
2176250000  -8.097426e+000  -8.778553e+001 
2177500000  -8.144751e+000  -8.812199e+001 
2178750000  -8.195463e+000  -8.863362e+001 
2180000000  -8.238801e+000  -8.911657e+001 
2181250000  -8.240434e+000  -8.915074e+001 
2182500000  -8.238758e+000  -8.927198e+001 
2183750000  -8.240438e+000  -8.950891e+001 
2185000000  -8.259981e+000  -8.979977e+001 
2186250000  -8.246541e+000  -9.092616e+001 
2187500000  -8.233964e+000  -9.185981e+001 
2188750000  -8.244972e+000  -9.261839e+001 
2190000000  -8.219859e+000  -9.306447e+001 
2191250000  -8.204818e+000  -9.312477e+001 
2192500000  -8.207941e+000  -9.312477e+001 
2193750000  -8.224878e+000  -9.325628e+001 
2195000000  -8.254076e+000  -9.331909e+001 
2196250000  -8.334356e+000  -9.389172e+001 
2197500000  -8.407950e+000  -9.452392e+001 
2198750000  -8.487681e+000  -9.522723e+001 
2200000000  -8.553723e+000  -9.635303e+001 
2201250000  -8.493079e+000  -9.676015e+001 
2202500000  -8.464581e+000  -9.726037e+001 
2203750000  -8.427999e+000  -9.761324e+001 
2205000000  -8.388146e+000  -9.789569e+001 
2206250000  -8.400343e+000  -9.874676e+001 
2207500000  -8.437598e+000  -9.937394e+001 
2208750000  -8.489054e+000  -1.000016e+002 
2210000000  -8.494725e+000  -1.006207e+002 
2211250000  -8.572770e+000  -1.006984e+002 
2212500000  -8.656760e+000  -1.007738e+002 
2213750000  -8.706746e+000  -1.010371e+002 
2215000000  -8.814971e+000  -1.017406e+002 
2216250000  -8.767322e+000  -1.014604e+002 
2217500000  -8.728354e+000  -1.018498e+002 
2218750000  -8.707087e+000  -1.022102e+002 
2220000000  -8.694078e+000  -1.023065e+002 
2221250000  -8.679254e+000  -1.027323e+002 
2222500000  -8.678270e+000  -1.032685e+002 
2223750000  -8.685181e+000  -1.037343e+002 
2225000000  -8.688333e+000  -1.038468e+002 
2226250000  -8.741851e+000  -1.037390e+002 
2227500000  -8.772045e+000  -1.037575e+002 
2228750000  -8.825998e+000  -1.038332e+002 
2230000000  -8.875575e+000  -1.039339e+002 
2231250000  -6.910369e+000  -9.753451e+001 
2232500000  -8.090056e+000  -1.025018e+002 
2233750000  -8.946975e+000  -1.050429e+002 
2235000000  -9.062737e+000  -1.062387e+002 
2236250000  -9.048551e+000  -1.065460e+002 
2237500000  -8.878590e+000  -1.076054e+002 
2238750000  -9.002397e+000  -1.073183e+002 
2240000000  -8.959613e+000  -1.073465e+002 
2241250000  -9.041337e+000  -1.076118e+002 
2242500000  -9.036654e+000  -1.073285e+002 
2243750000  -9.229198e+000  -1.083162e+002 
2245000000  -9.298591e+000  -1.081592e+002 
2246250000  -9.352454e+000  -1.070532e+002 
2247500000  -1.001347e+001  -9.620650e+001 
2248750000  -6.667677e+000  -9.193698e+001 
2250000000  -8.164000e+000  -1.143510e+002 
2251250000  -8.368101e+000  -1.140461e+002 
2252500000  -8.537527e+000  -1.141237e+002 
2253750000  -8.642223e+000  -1.141850e+002 
2255000000  -8.761470e+000  -1.147399e+002 
2256250000  -8.692879e+000  -1.149843e+002 
2257500000  -8.735023e+000  -1.148227e+002 
2258750000  -8.746460e+000  -1.149969e+002 
2260000000  -8.738554e+000  -1.151263e+002 
2261250000  -8.795881e+000  -1.155282e+002 
2262500000  -8.840755e+000  -1.159622e+002 
2263750000  -8.856865e+000  -1.164545e+002 
2265000000  -8.892489e+000  -1.187439e+002 
2266250000  -8.779125e+000  -1.173649e+002 
2267500000  -8.698815e+000  -1.177478e+002 
2268750000  -8.659956e+000  -1.180969e+002 
2270000000  -8.637177e+000  -1.183344e+002 
2271250000  -8.700550e+000  -1.183019e+002 
2272500000  -8.787018e+000  -1.183006e+002 
2273750000  -8.815249e+000  -1.185756e+002 
2275000000  -8.845348e+000  -1.189691e+002 
2276250000  -8.791279e+000  -1.198903e+002 
2277500000  -8.780805e+000  -1.206206e+002 
2278750000  -8.767046e+000  -1.214742e+002 
2280000000  -8.768592e+000  -1.221534e+002 
2281250000  -8.784382e+000  -1.223067e+002 
2282500000  -8.778472e+000  -1.224617e+002 
2283750000  -8.770537e+000  -1.226866e+002 
2285000000  -8.757376e+000  -1.226825e+002 
2286250000  -8.740190e+000  -1.234372e+002 
2287500000  -8.724047e+000  -1.241196e+002 
2288750000  -8.711668e+000  -1.247192e+002 
2290000000  -8.730261e+000  -1.253730e+002 
2291250000  -8.758333e+000  -1.255822e+002 
2292500000  -8.773696e+000  -1.257693e+002 
2293750000  -8.796506e+000  -1.260824e+002 
2295000000  -8.804027e+000  -1.265466e+002 
2296250000  -8.822805e+000  -1.268030e+002 
2297500000  -8.850372e+000  -1.272391e+002 
2298750000  -8.850689e+000  -1.275608e+002 
2300000000  -8.864723e+000  -1.279867e+002 
2301250000  -8.847124e+000  -1.283534e+002 
2302500000  -8.808867e+000  -1.285972e+002 
2303750000  -8.776999e+000  -1.289934e+002 
2305000000  -8.769261e+000  -1.290841e+002 
2306250000  -8.769337e+000  -1.293322e+002 
2307500000  -8.787656e+000  -1.297426e+002 
2308750000  -8.762719e+000  -1.300954e+002 
2310000000  -8.747171e+000  -1.304015e+002 
2311250000  -8.693562e+000  -1.312023e+002 
2312500000  -8.656523e+000  -1.317001e+002 
2313750000  -8.629176e+000  -1.323217e+002 
2315000000  -8.597171e+000  -1.331063e+002 
2316250000  -8.644159e+000  -1.334632e+002 
2317500000  -8.662042e+000  -1.339542e+002 
2318750000  -8.699630e+000  -1.343039e+002 
2320000000  -8.700105e+000  -1.347342e+002 
2321250000  -8.673516e+000  -1.351297e+002 
2322500000  -8.670110e+000  -1.354711e+002 
2323750000  -8.653682e+000  -1.359471e+002 
2325000000  -8.632592e+000  -1.362808e+002 
2326250000  -8.669860e+000  -1.366928e+002 
2327500000  -8.674598e+000  -1.370563e+002 
2328750000  -8.693515e+000  -1.375469e+002 
2330000000  -8.702699e+000  -1.380850e+002 
2331250000  -8.685740e+000  -1.381641e+002 
2332500000  -8.656692e+000  -1.382669e+002 
2333750000  -8.646330e+000  -1.385242e+002 
2335000000  -8.631665e+000  -1.386128e+002 
2336250000  -8.625622e+000  -1.391173e+002 
2337500000  -8.637206e+000  -1.394044e+002 
2338750000  -8.606415e+000  -1.398883e+002 
2340000000  -8.604304e+000  -1.402452e+002 
2341250000  -8.570591e+000  -1.411062e+002 
2342500000  -8.564423e+000  -1.420147e+002 
2343750000  -8.561585e+000  -1.427083e+002 
2345000000  -8.595145e+000  -1.434915e+002 
2346250000  -8.660336e+000  -1.434643e+002 
2347500000  -8.727767e+000  -1.436437e+002 
2348750000  -8.754114e+000  -1.438057e+002 
2350000000  -8.775199e+000  -1.440710e+002 
2351250000  -8.676971e+000  -1.447831e+002 
2352500000  -8.594995e+000  -1.452567e+002 
2353750000  -8.557415e+000  -1.457646e+002 
2355000000  -8.507454e+000  -1.465124e+002 
2356250000  -8.539605e+000  -1.468531e+002 
2357500000  -8.578148e+000  -1.470668e+002 
2358750000  -8.592158e+000  -1.473546e+002 
2360000000  -8.584214e+000  -1.477213e+002 
2361250000  -8.531487e+000  -1.481513e+002 
2362500000  -8.500985e+000  -1.483790e+002 
2363750000  -8.456052e+000  -1.486442e+002 
2365000000  -8.423122e+000  -1.487842e+002 
2366250000  -8.487330e+000  -1.492932e+002 
2367500000  -8.538362e+000  -1.497464e+002 
2368750000  -8.573050e+000  -1.502420e+002 
2370000000  -8.585366e+000  -1.508347e+002 
2371250000  -8.535989e+000  -1.510538e+002 
2372500000  -8.498918e+000  -1.515208e+002 
2373750000  -8.472014e+000  -1.517480e+002 
2375000000  -8.447131e+000  -1.521717e+002 
2376250000  -8.442966e+000  -1.527759e+002 
2377500000  -8.469384e+000  -1.533027e+002 
2378750000  -8.475511e+000  -1.539357e+002 
2380000000  -8.480361e+000  -1.545108e+002 
2381250000  -8.508304e+000  -1.549415e+002 
2382500000  -8.531907e+000  -1.552791e+002 
2383750000  -8.554404e+000  -1.555641e+002 
2385000000  -8.555962e+000  -1.559850e+002 
2386250000  -8.561196e+000  -1.563047e+002 
2387500000  -8.551131e+000  -1.566385e+002 
2388750000  -8.544157e+000  -1.569815e+002 
2390000000  -8.526735e+000  -1.572702e+002 
2391250000  -8.466345e+000  -1.576225e+002 
2392500000  -8.415508e+000  -1.579862e+002 
2393750000  -8.387465e+000  -1.582327e+002 
2395000000  -8.359910e+000  -1.584048e+002 
2396250000  -8.446542e+000  -1.588789e+002 
2397500000  -8.502569e+000  -1.592897e+002 
2398750000  -8.555771e+000  -1.598129e+002 
2400000000  -8.565790e+000  -1.602688e+002 
2401250000  -8.493002e+000  -1.607247e+002 
2402500000  -8.439319e+000  -1.611619e+002 
2403750000  -8.404638e+000  -1.616682e+002 
2405000000  -8.426893e+000  -1.624075e+002 
2406250000  -8.495062e+000  -1.624231e+002 
2407500000  -8.555312e+000  -1.626199e+002 
2408750000  -8.589642e+000  -1.627450e+002 
2410000000  -8.603867e+000  -1.627811e+002 
2411250000  -8.541737e+000  -1.630597e+002 
2412500000  -8.478745e+000  -1.631841e+002 
2413750000  -8.441913e+000  -1.632615e+002 
2415000000  -8.412980e+000  -1.633548e+002 
2416250000  -8.355656e+000  -1.640616e+002 
2417500000  -8.341887e+000  -1.647621e+002 
2418750000  -8.321738e+000  -1.654186e+002 
2420000000  -8.315813e+000  -1.661234e+002 
2421250000  -8.393596e+000  -1.665157e+002 
2422500000  -8.431389e+000  -1.669339e+002 
2423750000  -8.463930e+000  -1.673596e+002 
2425000000  -8.455645e+000  -1.676787e+002 
2426250000  -8.379427e+000  -1.677202e+002 
2427500000  -8.291496e+000  -1.677686e+002 
2428750000  -8.244427e+000  -1.678425e+002 
2430000000  -8.217747e+000  -1.679319e+002 
2431250000  -8.250309e+000  -1.685561e+002 
2432500000  -8.271152e+000  -1.690996e+002 
2433750000  -8.269357e+000  -1.696587e+002 
2435000000  -8.271826e+000  -1.702786e+002 
2436250000  -8.224914e+000  -1.705119e+002 
2437500000  -8.178586e+000  -1.708300e+002 
2438750000  -8.124054e+000  -1.711513e+002 
2440000000  -8.065720e+000  -1.713773e+002 
2441250000  -8.029421e+000  -1.717316e+002 
2442500000  -8.006581e+000  -1.721328e+002 
2443750000  -7.982203e+000  -1.725923e+002 
2445000000  -8.001139e+000  -1.729581e+002 
2446250000  -8.100000e+000  -1.731929e+002 
2447500000  -8.183022e+000  -1.735493e+002 
2448750000  -8.213424e+000  -1.738142e+002 
2450000000  -8.263220e+000  -1.736846e+002 
2451250000  -8.172903e+000  -1.736130e+002 
2452500000  -8.066743e+000  -1.736138e+002 
2453750000  -8.009895e+000  -1.738547e+002 
2455000000  -7.966243e+000  -1.740520e+002 
2456250000  -7.994676e+000  -1.744620e+002 
2457500000  -8.009652e+000  -1.749912e+002 
2458750000  -8.032483e+000  -1.753547e+002 
2460000000  -8.050249e+000  -1.758376e+002 
2461250000  -8.049552e+000  -1.764507e+002 
2462500000  -8.023037e+000  -1.769891e+002 
2463750000  -8.005691e+000  -1.776048e+002 
2465000000  -7.955788e+000  -1.780623e+002 
2466250000  -7.863088e+000  -1.781894e+002 
2467500000  -7.790329e+000  -1.784629e+002 
2468750000  -7.733397e+000  -1.789408e+002 
2470000000  -7.709244e+000  -1.793959e+002 
2471250000  -7.764967e+000  -1.796950e+002 
2472500000  -7.807213e+000  -1.799693e+002 
2473750000  -7.826409e+000  1.796735e+002 
2475000000  -7.842892e+000  1.795390e+002 
2476250000  -7.856222e+000  1.792774e+002 
2477500000  -7.859211e+000  1.789335e+002 
2478750000  -7.858449e+000  1.786776e+002 
2480000000  -7.871891e+000  1.783840e+002 
2481250000  -7.910536e+000  1.777374e+002 
2482500000  -7.917562e+000  1.771923e+002 
2483750000  -7.904787e+000  1.766738e+002 
2485000000  -7.881925e+000  1.762134e+002 
2486250000  -7.807053e+000  1.762884e+002 
2487500000  -7.750150e+000  1.761963e+002 
2488750000  -7.729537e+000  1.759870e+002 
2490000000  -7.646936e+000  1.757562e+002 
2491250000  -7.700495e+000  1.751419e+002 
2492500000  -7.731050e+000  1.745203e+002 
2493750000  -7.726330e+000  1.740099e+002 
2495000000  -7.738082e+000  1.738142e+002 
2496250000  -7.703794e+000  1.740524e+002 
2497500000  -7.650259e+000  1.741218e+002 
2498750000  -7.624084e+000  1.740287e+002 
2500000000  -7.591395e+000  1.737165e+002 
2501250000  -7.616954e+000  1.734278e+002 
2502500000  -7.633820e+000  1.730822e+002 
2503750000  -7.635409e+000  1.727617e+002 
2505000000  -7.641439e+000  1.725956e+002 
2506250000  -7.608707e+000  1.723303e+002 
2507500000  -7.566706e+000  1.721061e+002 
2508750000  -7.533354e+000  1.717368e+002 
2510000000  -7.512192e+000  1.714170e+002 
2511250000  -7.507098e+000  1.707961e+002 
2512500000  -7.497355e+000  1.701975e+002 
2513750000  -7.471584e+000  1.696125e+002 
2515000000  -7.464673e+000  1.691447e+002 
2516250000  -7.458836e+000  1.691621e+002 
2517500000  -7.472034e+000  1.691573e+002 
2518750000  -7.481042e+000  1.690628e+002 
2520000000  -7.490567e+000  1.690766e+002 
2521250000  -7.477530e+000  1.685894e+002 
2522500000  -7.439054e+000  1.682493e+002 
2523750000  -7.433398e+000  1.677221e+002 
2525000000  -7.431756e+000  1.672808e+002 
2526250000  -7.462637e+000  1.670292e+002 
2527500000  -7.478815e+000  1.668224e+002 
2528750000  -7.489194e+000  1.666311e+002 
2530000000  -7.499471e+000  1.664680e+002 
2531250000  -7.483965e+000  1.660289e+002 
2532500000  -7.461677e+000  1.657221e+002 
2533750000  -7.465769e+000  1.653410e+002 
2535000000  -7.445625e+000  1.650635e+002 
2536250000  -7.416545e+000  1.648299e+002 
2537500000  -7.375583e+000  1.645225e+002 
2538750000  -7.348901e+000  1.643313e+002 
2540000000  -7.312881e+000  1.641000e+002 
2541250000  -7.328861e+000  1.638659e+002 
2542500000  -7.331041e+000  1.637380e+002 
2543750000  -7.385666e+000  1.636565e+002 
2545000000  -7.394207e+000  1.635830e+002 
2546250000  -7.452937e+000  1.631599e+002 
2547500000  -7.497941e+000  1.628529e+002 
2548750000  -7.534293e+000  1.627320e+002 
2550000000  -7.583752e+000  1.626843e+002 
