!Agilent Technologies,E8364A,US41440144,A.06.04.32
!Agilent E8364A: A.06.04.32
!Date: Friday, February 02, 2018 10:38:45
!Correction: S22(Full 2 Port(1,2)) 
!S1P File: Measurement: S22:
# Hz S  dB   R 50
2000000000  -5.622561e+000  -4.285054e+001 
2001250000  -5.624547e+000  -4.319410e+001 
2002500000  -5.645737e+000  -4.336213e+001 
2003750000  -5.646439e+000  -4.364943e+001 
2005000000  -5.657033e+000  -4.399792e+001 
2006250000  -5.671088e+000  -4.435601e+001 
2007500000  -5.675802e+000  -4.459750e+001 
2008750000  -5.702470e+000  -4.508580e+001 
2010000000  -5.725162e+000  -4.542259e+001 
2011250000  -5.790018e+000  -4.586773e+001 
2012500000  -5.832387e+000  -4.615923e+001 
2013750000  -5.885691e+000  -4.647887e+001 
2015000000  -5.897808e+000  -4.683301e+001 
2016250000  -5.872447e+000  -4.694297e+001 
2017500000  -5.848277e+000  -4.716771e+001 
2018750000  -5.853809e+000  -4.728279e+001 
2020000000  -5.862609e+000  -4.740473e+001 
2021250000  -5.914580e+000  -4.786858e+001 
2022500000  -5.961236e+000  -4.842193e+001 
2023750000  -6.009523e+000  -4.885914e+001 
2025000000  -6.061264e+000  -4.933057e+001 
2026250000  -6.095799e+000  -4.969286e+001 
2027500000  -6.111176e+000  -5.013277e+001 
2028750000  -6.142051e+000  -5.034811e+001 
2030000000  -6.144366e+000  -5.058178e+001 
2031250000  -6.094185e+000  -5.079689e+001 
2032500000  -6.095808e+000  -5.119278e+001 
2033750000  -6.089633e+000  -5.157354e+001 
2035000000  -6.087845e+000  -5.194513e+001 
2036250000  -6.181624e+000  -5.246450e+001 
2037500000  -6.251174e+000  -5.286826e+001 
2038750000  -6.304976e+000  -5.322676e+001 
2040000000  -6.335758e+000  -5.353482e+001 
2041250000  -6.358980e+000  -5.377934e+001 
2042500000  -6.394086e+000  -5.405655e+001 
2043750000  -6.391827e+000  -5.430730e+001 
2045000000  -6.413350e+000  -5.461469e+001 
2046250000  -6.448742e+000  -5.477201e+001 
2047500000  -6.434604e+000  -5.488976e+001 
2048750000  -6.458114e+000  -5.494555e+001 
2050000000  -6.459411e+000  -5.516436e+001 
2051250000  -6.435651e+000  -5.538237e+001 
2052500000  -6.374485e+000  -5.550219e+001 
2053750000  -6.340529e+000  -5.575907e+001 
2055000000  -6.354636e+000  -5.625121e+001 
2056250000  -6.404565e+000  -5.646427e+001 
2057500000  -6.442218e+000  -5.660505e+001 
2058750000  -6.458097e+000  -5.691628e+001 
2060000000  -6.471656e+000  -5.739269e+001 
2061250000  -6.478479e+000  -5.776577e+001 
2062500000  -6.483846e+000  -5.797430e+001 
2063750000  -6.465963e+000  -5.834971e+001 
2065000000  -6.488074e+000  -5.897450e+001 
2066250000  -6.509074e+000  -5.939244e+001 
2067500000  -6.528106e+000  -5.954369e+001 
2068750000  -6.565871e+000  -5.980776e+001 
2070000000  -6.612499e+000  -6.010251e+001 
2071250000  -6.596686e+000  -6.044427e+001 
2072500000  -6.563282e+000  -6.110423e+001 
2073750000  -6.575324e+000  -6.160002e+001 
2075000000  -6.594080e+000  -6.215047e+001 
2076250000  -6.591262e+000  -6.261094e+001 
2077500000  -6.578970e+000  -6.286476e+001 
2078750000  -6.594204e+000  -6.320013e+001 
2080000000  -6.594669e+000  -6.356951e+001 
2081250000  -6.618790e+000  -6.402950e+001 
2082500000  -6.649727e+000  -6.461075e+001 
2083750000  -6.709000e+000  -6.491157e+001 
2085000000  -6.711011e+000  -6.516870e+001 
2086250000  -6.687647e+000  -6.537723e+001 
2087500000  -6.647779e+000  -6.568954e+001 
2088750000  -6.605134e+000  -6.601411e+001 
2090000000  -6.613396e+000  -6.634895e+001 
2091250000  -6.660117e+000  -6.643927e+001 
2092500000  -6.726692e+000  -6.685307e+001 
2093750000  -6.786310e+000  -6.721195e+001 
2095000000  -6.822776e+000  -6.772729e+001 
2096250000  -6.822647e+000  -6.835841e+001 
2097500000  -6.787526e+000  -6.889713e+001 
2098750000  -6.754846e+000  -6.942908e+001 
2100000000  -6.689417e+000  -6.957124e+001 
2101250000  -6.674682e+000  -7.007899e+001 
2102500000  -6.715436e+000  -7.040417e+001 
2103750000  -6.720726e+000  -7.080627e+001 
2105000000  -6.741296e+000  -7.136768e+001 
2106250000  -6.750882e+000  -7.168825e+001 
2107500000  -6.756491e+000  -7.201386e+001 
2108750000  -6.749368e+000  -7.211491e+001 
2110000000  -6.756857e+000  -7.238884e+001 
2111250000  -6.761973e+000  -7.292283e+001 
2112500000  -6.802939e+000  -7.322519e+001 
2113750000  -6.809028e+000  -7.359534e+001 
2115000000  -6.846186e+000  -7.402911e+001 
2116250000  -6.849619e+000  -7.452449e+001 
2117500000  -6.895148e+000  -7.509306e+001 
2118750000  -6.895775e+000  -7.557495e+001 
2120000000  -6.923408e+000  -7.598566e+001 
2121250000  -6.951370e+000  -7.641611e+001 
2122500000  -7.004319e+000  -7.685953e+001 
2123750000  -7.018658e+000  -7.722782e+001 
2125000000  -7.036911e+000  -7.729546e+001 
2126250000  -7.025064e+000  -7.782013e+001 
2127500000  -7.021532e+000  -7.804949e+001 
2128750000  -7.039480e+000  -7.841476e+001 
2130000000  -7.048012e+000  -7.872501e+001 
2131250000  -7.040210e+000  -7.908957e+001 
2132500000  -7.027567e+000  -7.933289e+001 
2133750000  -7.037416e+000  -7.968328e+001 
2135000000  -7.005702e+000  -8.003883e+001 
2136250000  -7.019342e+000  -8.066053e+001 
2137500000  -7.077394e+000  -8.120903e+001 
2138750000  -7.121581e+000  -8.177374e+001 
2140000000  -7.116106e+000  -8.246068e+001 
2141250000  -7.111335e+000  -8.299334e+001 
2142500000  -7.102148e+000  -8.343054e+001 
2143750000  -7.107793e+000  -8.367472e+001 
2145000000  -7.105093e+000  -8.394767e+001 
2146250000  -7.102185e+000  -8.417319e+001 
2147500000  -7.142025e+000  -8.442789e+001 
2148750000  -7.169045e+000  -8.471130e+001 
2150000000  -7.202168e+000  -8.509702e+001 
2151250000  -7.258346e+000  -8.536458e+001 
2152500000  -7.277191e+000  -8.575028e+001 
2153750000  -7.317424e+000  -8.629181e+001 
2155000000  -7.347465e+000  -8.653620e+001 
2156250000  -7.326943e+000  -8.716769e+001 
2157500000  -7.321700e+000  -8.778899e+001 
2158750000  -7.314339e+000  -8.835229e+001 
2160000000  -7.279599e+000  -8.872369e+001 
2161250000  -7.310805e+000  -8.900906e+001 
2162500000  -7.321579e+000  -8.926230e+001 
2163750000  -7.326787e+000  -8.966660e+001 
2165000000  -7.371399e+000  -9.024227e+001 
2166250000  -7.392640e+000  -9.036979e+001 
2167500000  -7.408417e+000  -9.072231e+001 
2168750000  -7.417042e+000  -9.106142e+001 
2170000000  -7.428946e+000  -9.133076e+001 
2171250000  -7.404436e+000  -9.176059e+001 
2172500000  -7.387956e+000  -9.229276e+001 
2173750000  -7.371513e+000  -9.261063e+001 
2175000000  -7.361557e+000  -9.285533e+001 
2176250000  -7.431085e+000  -9.342548e+001 
2177500000  -7.475064e+000  -9.394816e+001 
2178750000  -7.525609e+000  -9.431083e+001 
2180000000  -7.549931e+000  -9.488456e+001 
2181250000  -7.532187e+000  -9.485070e+001 
2182500000  -7.550362e+000  -9.501301e+001 
2183750000  -7.548876e+000  -9.509410e+001 
2185000000  -7.559698e+000  -9.555443e+001 
2186250000  -7.550117e+000  -9.659811e+001 
2187500000  -7.517394e+000  -9.733009e+001 
2188750000  -7.500826e+000  -9.831227e+001 
2190000000  -7.478542e+000  -9.859320e+001 
2191250000  -7.485749e+000  -9.864209e+001 
2192500000  -7.475597e+000  -9.862689e+001 
2193750000  -7.486517e+000  -9.884753e+001 
2195000000  -7.511854e+000  -9.908567e+001 
2196250000  -7.574154e+000  -9.946889e+001 
2197500000  -7.637985e+000  -1.000908e+002 
2198750000  -7.690316e+000  -1.008915e+002 
2200000000  -7.738607e+000  -1.020263e+002 
2201250000  -7.694806e+000  -1.025639e+002 
2202500000  -7.664076e+000  -1.029775e+002 
2203750000  -7.601401e+000  -1.033538e+002 
2205000000  -7.549523e+000  -1.034639e+002 
2206250000  -7.553036e+000  -1.042788e+002 
2207500000  -7.582725e+000  -1.049229e+002 
2208750000  -7.606625e+000  -1.056000e+002 
2210000000  -7.610812e+000  -1.063445e+002 
2211250000  -7.661139e+000  -1.063957e+002 
2212500000  -7.737723e+000  -1.067562e+002 
2213750000  -7.810222e+000  -1.070646e+002 
2215000000  -7.859249e+000  -1.073195e+002 
2216250000  -7.837108e+000  -1.076758e+002 
2217500000  -7.800397e+000  -1.078721e+002 
2218750000  -7.785074e+000  -1.083286e+002 
2220000000  -7.756258e+000  -1.084859e+002 
2221250000  -7.740706e+000  -1.092058e+002 
2222500000  -7.722750e+000  -1.097132e+002 
2223750000  -7.723594e+000  -1.100470e+002 
2225000000  -7.745969e+000  -1.102389e+002 
2226250000  -7.793252e+000  -1.104189e+002 
2227500000  -7.817823e+000  -1.104310e+002 
2228750000  -7.872595e+000  -1.106709e+002 
2230000000  -7.923200e+000  -1.106817e+002 
2231250000  -7.937754e+000  -1.114999e+002 
2232500000  -7.965636e+000  -1.120280e+002 
2233750000  -8.020332e+000  -1.128508e+002 
2235000000  -8.048562e+000  -1.135627e+002 
2236250000  -8.024940e+000  -1.139758e+002 
2237500000  -8.009219e+000  -1.142133e+002 
2238750000  -7.977290e+000  -1.145988e+002 
2240000000  -7.958547e+000  -1.147946e+002 
2241250000  -8.003553e+000  -1.155520e+002 
2242500000  -8.022433e+000  -1.158995e+002 
2243750000  -8.029572e+000  -1.165061e+002 
2245000000  -8.033210e+000  -1.171295e+002 
2246250000  -7.960206e+000  -1.175261e+002 
2247500000  -7.854827e+000  -1.176692e+002 
2248750000  -7.791544e+000  -1.179225e+002 
2250000000  -7.771065e+000  -1.181286e+002 
2251250000  -7.853518e+000  -1.186119e+002 
2252500000  -7.913628e+000  -1.191916e+002 
2253750000  -7.979485e+000  -1.198032e+002 
2255000000  -8.052012e+000  -1.206071e+002 
2256250000  -8.062897e+000  -1.207839e+002 
2257500000  -8.018362e+000  -1.209533e+002 
2258750000  -8.041590e+000  -1.212839e+002 
2260000000  -8.021841e+000  -1.215143e+002 
2261250000  -8.077199e+000  -1.218683e+002 
2262500000  -8.098854e+000  -1.223011e+002 
2263750000  -8.110666e+000  -1.228399e+002 
2265000000  -8.152822e+000  -1.234896e+002 
2266250000  -8.066514e+000  -1.238661e+002 
2267500000  -8.029607e+000  -1.242290e+002 
2268750000  -8.015276e+000  -1.244741e+002 
2270000000  -8.022213e+000  -1.247157e+002 
2271250000  -8.140262e+000  -1.243523e+002 
2272500000  -8.257689e+000  -1.240756e+002 
2273750000  -8.297865e+000  -1.236445e+002 
2275000000  -8.270600e+000  -1.233038e+002 
2276250000  -8.103722e+000  -1.238169e+002 
2277500000  -7.988711e+000  -1.246284e+002 
2278750000  -7.919021e+000  -1.258569e+002 
2280000000  -7.889853e+000  -1.266496e+002 
2281250000  -7.874791e+000  -1.270773e+002 
2282500000  -7.879351e+000  -1.274870e+002 
2283750000  -7.870363e+000  -1.277264e+002 
2285000000  -7.843243e+000  -1.278089e+002 
2286250000  -7.840287e+000  -1.286223e+002 
2287500000  -7.808363e+000  -1.292091e+002 
2288750000  -7.815049e+000  -1.300182e+002 
2290000000  -7.804071e+000  -1.307652e+002 
2291250000  -7.828605e+000  -1.310846e+002 
2292500000  -7.853491e+000  -1.313854e+002 
2293750000  -7.879951e+000  -1.315219e+002 
2295000000  -7.903700e+000  -1.320511e+002 
2296250000  -7.936894e+000  -1.325084e+002 
2297500000  -7.942006e+000  -1.328668e+002 
2298750000  -7.934980e+000  -1.332453e+002 
2300000000  -7.947447e+000  -1.336838e+002 
2301250000  -7.932458e+000  -1.339976e+002 
2302500000  -7.918248e+000  -1.343401e+002 
2303750000  -7.897143e+000  -1.346211e+002 
2305000000  -7.876676e+000  -1.347998e+002 
2306250000  -7.885776e+000  -1.350928e+002 
2307500000  -7.900025e+000  -1.355137e+002 
2308750000  -7.889176e+000  -1.358034e+002 
2310000000  -7.853494e+000  -1.361649e+002 
2311250000  -7.817357e+000  -1.367943e+002 
2312500000  -7.773945e+000  -1.372908e+002 
2313750000  -7.744062e+000  -1.378381e+002 
2315000000  -7.728463e+000  -1.386733e+002 
2316250000  -7.764896e+000  -1.390296e+002 
2317500000  -7.803417e+000  -1.394665e+002 
2318750000  -7.798958e+000  -1.398499e+002 
2320000000  -7.827144e+000  -1.400823e+002 
2321250000  -7.815284e+000  -1.405239e+002 
2322500000  -7.789035e+000  -1.410677e+002 
2323750000  -7.779449e+000  -1.413430e+002 
2325000000  -7.752803e+000  -1.416151e+002 
2326250000  -7.791114e+000  -1.420514e+002 
2327500000  -7.789218e+000  -1.425267e+002 
2328750000  -7.829504e+000  -1.429240e+002 
2330000000  -7.812272e+000  -1.431784e+002 
2331250000  -7.797447e+000  -1.433710e+002 
2332500000  -7.786403e+000  -1.435795e+002 
2333750000  -7.789626e+000  -1.437969e+002 
2335000000  -7.765779e+000  -1.438258e+002 
2336250000  -7.763291e+000  -1.441678e+002 
2337500000  -7.763234e+000  -1.446177e+002 
2338750000  -7.756554e+000  -1.450493e+002 
2340000000  -7.759146e+000  -1.453678e+002 
2341250000  -7.709668e+000  -1.462185e+002 
2342500000  -7.710443e+000  -1.470355e+002 
2343750000  -7.698146e+000  -1.477813e+002 
2345000000  -7.721418e+000  -1.484419e+002 
2346250000  -7.795872e+000  -1.484481e+002 
2347500000  -7.841829e+000  -1.487948e+002 
2348750000  -7.895837e+000  -1.490674e+002 
2350000000  -7.907001e+000  -1.489949e+002 
2351250000  -7.820150e+000  -1.496129e+002 
2352500000  -7.732808e+000  -1.501634e+002 
2353750000  -7.693546e+000  -1.507166e+002 
2355000000  -7.639498e+000  -1.511583e+002 
2356250000  -7.690412e+000  -1.515827e+002 
2357500000  -7.704268e+000  -1.518339e+002 
2358750000  -7.733573e+000  -1.523047e+002 
2360000000  -7.729933e+000  -1.524830e+002 
2361250000  -7.664577e+000  -1.528067e+002 
2362500000  -7.653152e+000  -1.530950e+002 
2363750000  -7.612352e+000  -1.533975e+002 
2365000000  -7.593000e+000  -1.535477e+002 
2366250000  -7.664961e+000  -1.539445e+002 
2367500000  -7.687875e+000  -1.543328e+002 
2368750000  -7.720850e+000  -1.548869e+002 
2370000000  -7.735895e+000  -1.554287e+002 
2371250000  -7.704486e+000  -1.557423e+002 
2372500000  -7.652647e+000  -1.560822e+002 
2373750000  -7.634790e+000  -1.563169e+002 
2375000000  -7.606161e+000  -1.564335e+002 
2376250000  -7.621171e+000  -1.571035e+002 
2377500000  -7.614957e+000  -1.576830e+002 
2378750000  -7.642524e+000  -1.582971e+002 
2380000000  -7.661757e+000  -1.588370e+002 
2381250000  -7.663572e+000  -1.591083e+002 
2382500000  -7.705214e+000  -1.595363e+002 
2383750000  -7.719094e+000  -1.597790e+002 
2385000000  -7.741693e+000  -1.602640e+002 
2386250000  -7.737452e+000  -1.604193e+002 
2387500000  -7.729565e+000  -1.608136e+002 
2388750000  -7.710104e+000  -1.611182e+002 
2390000000  -7.677780e+000  -1.614263e+002 
2391250000  -7.640479e+000  -1.617506e+002 
2392500000  -7.580766e+000  -1.620265e+002 
2393750000  -7.574406e+000  -1.623491e+002 
2395000000  -7.555538e+000  -1.624359e+002 
2396250000  -7.616396e+000  -1.628824e+002 
2397500000  -7.677479e+000  -1.633374e+002 
2398750000  -7.736718e+000  -1.636971e+002 
2400000000  -7.734757e+000  -1.641598e+002 
2401250000  -7.683985e+000  -1.645005e+002 
2402500000  -7.621742e+000  -1.647882e+002 
2403750000  -7.601957e+000  -1.653918e+002 
2405000000  -7.616026e+000  -1.662488e+002 
2406250000  -7.517281e+000  -1.645270e+002 
2407500000  -7.739901e+000  -1.664840e+002 
2408750000  -7.757517e+000  -1.665349e+002 
2410000000  -7.776089e+000  -1.666495e+002 
2411250000  -7.734156e+000  -1.667868e+002 
2412500000  -7.676847e+000  -1.667913e+002 
2413750000  -7.648215e+000  -1.670430e+002 
2415000000  -7.613753e+000  -1.676999e+002 
2416250000  -7.585021e+000  -1.676409e+002 
2417500000  -7.540612e+000  -1.682721e+002 
2418750000  -7.518024e+000  -1.688875e+002 
2420000000  -7.517126e+000  -1.695229e+002 
2421250000  -7.614824e+000  -1.697759e+002 
2422500000  -5.248134e+000  -1.727118e+002 
2423750000  -8.505713e+000  -1.657007e+002 
2425000000  -7.567116e+000  -1.699113e+002 
2426250000  -7.649375e+000  -1.708103e+002 
2427500000  -7.541357e+000  -1.714266e+002 
2428750000  -7.746861e+000  -1.706455e+002 
2430000000  -7.435630e+000  -1.709520e+002 
2431250000  -7.482099e+000  -1.718533e+002 
2432500000  -7.460264e+000  -1.722892e+002 
2433750000  -7.592598e+000  -1.692974e+002 
2435000000  -7.420391e+000  -1.736379e+002 
2436250000  -7.399277e+000  -1.736936e+002 
2437500000  -7.320954e+000  -1.737497e+002 
2438750000  -7.669732e+000  -1.760420e+002 
2440000000  -1.491249e+001  1.523423e+002 
2441250000  -8.028026e+000  -1.755794e+002 
2442500000  -7.367195e+000  -1.763452e+002 
2443750000  -7.269997e+000  -1.754406e+002 
2445000000  -7.323442e+000  -1.758320e+002 
2446250000  -7.407809e+000  -1.760728e+002 
2447500000  -7.466948e+000  -1.756247e+002 
2448750000  -7.556897e+000  -1.768091e+002 
2450000000  -7.572112e+000  -1.765305e+002 
2451250000  -7.478494e+000  -1.763569e+002 
2452500000  -7.391951e+000  -1.764364e+002 
2453750000  -7.321638e+000  -1.764210e+002 
2455000000  -7.271058e+000  -1.766452e+002 
2456250000  -7.279495e+000  -1.764610e+002 
2457500000  -7.333796e+000  -1.774515e+002 
2458750000  -7.351671e+000  -1.778862e+002 
2460000000  -7.349895e+000  -1.783541e+002 
2461250000  -7.365294e+000  -1.788227e+002 
2462500000  -7.352453e+000  -1.793152e+002 
2463750000  -7.311146e+000  -1.798711e+002 
2465000000  -7.263622e+000  1.798585e+002 
2466250000  -7.177750e+000  1.796476e+002 
2467500000  -7.124058e+000  1.793564e+002 
2468750000  -7.078929e+000  1.789898e+002 
2470000000  -7.033467e+000  1.785696e+002 
2471250000  -7.080108e+000  1.782801e+002 
2472500000  -7.138912e+000  1.781317e+002 
2473750000  -7.145631e+000  1.778653e+002 
2475000000  -7.171541e+000  1.777208e+002 
2476250000  -7.161534e+000  1.775181e+002 
2477500000  -7.171794e+000  1.771170e+002 
2478750000  -7.167728e+000  1.769873e+002 
2480000000  -7.174603e+000  1.768272e+002 
2481250000  -7.209131e+000  1.761133e+002 
2482500000  -7.206470e+000  1.756474e+002 
2483750000  -7.220176e+000  1.752171e+002 
2485000000  -7.172799e+000  1.747976e+002 
2486250000  -7.107516e+000  1.747889e+002 
2487500000  -7.042654e+000  1.746684e+002 
2488750000  -7.006447e+000  1.745051e+002 
2490000000  -6.924098e+000  1.742652e+002 
2491250000  -6.944636e+000  1.737194e+002 
2492500000  -7.002993e+000  1.730756e+002 
2493750000  -7.010131e+000  1.727063e+002 
2495000000  -7.008670e+000  1.725218e+002 
2496250000  -6.963601e+000  1.727268e+002 
2497500000  -6.927242e+000  1.727599e+002 
2498750000  -6.900946e+000  1.727601e+002 
2500000000  -6.864820e+000  1.724197e+002 
2501250000  -6.856782e+000  1.720882e+002 
2502500000  -6.892699e+000  1.716528e+002 
2503750000  -6.889196e+000  1.715203e+002 
2505000000  -6.892292e+000  1.711197e+002 
2506250000  -6.855112e+000  1.709657e+002 
2507500000  -6.793212e+000  1.706767e+002 
2508750000  -6.782968e+000  1.704226e+002 
2510000000  -6.747405e+000  1.700514e+002 
2511250000  -6.752320e+000  1.694541e+002 
2512500000  -6.752027e+000  1.688326e+002 
2513750000  -6.725906e+000  1.682935e+002 
2515000000  -6.679751e+000  1.678902e+002 
2516250000  -6.701176e+000  1.678499e+002 
2517500000  -6.699176e+000  1.678654e+002 
2518750000  -6.707995e+000  1.677097e+002 
2520000000  -6.730941e+000  1.677059e+002 
2521250000  -6.710815e+000  1.672556e+002 
2522500000  -6.694085e+000  1.668534e+002 
2523750000  -6.682809e+000  1.663760e+002 
2525000000  -6.677801e+000  1.659467e+002 
2526250000  -6.698931e+000  1.656867e+002 
2527500000  -6.717123e+000  1.654731e+002 
2528750000  -6.740621e+000  1.652238e+002 
2530000000  -6.748363e+000  1.651667e+002 
2531250000  -6.710400e+000  1.647785e+002 
2532500000  -6.710358e+000  1.644429e+002 
2533750000  -6.687817e+000  1.639927e+002 
2535000000  -6.706820e+000  1.636773e+002 
2536250000  -6.663121e+000  1.633586e+002 
2537500000  -6.626578e+000  1.632892e+002 
2538750000  -6.601539e+000  1.629257e+002 
2540000000  -6.595389e+000  1.627464e+002 
2541250000  -6.601746e+000  1.626008e+002 
2542500000  -6.605923e+000  1.624473e+002 
2543750000  -6.626651e+000  1.622894e+002 
2545000000  -6.645149e+000  1.621804e+002 
2546250000  -6.712262e+000  1.619424e+002 
2547500000  -6.736905e+000  1.614805e+002 
2548750000  -6.762485e+000  1.613290e+002 
2550000000  -6.824120e+000  1.613903e+002 
