!Agilent Technologies,E8364A,US41440144,A.06.04.32
!Agilent E8364A: A.06.04.32
!Date: Friday, February 02, 2018 10:40:07
!Correction: S22(Full 2 Port(1,2)) 
!S1P File: Measurement: S22:
# Hz S  dB   R 50
2000000000  -4.342709e+000  -4.661148e+001 
2001250000  -4.353315e+000  -4.674000e+001 
2002500000  -4.355176e+000  -4.715697e+001 
2003750000  -4.350958e+000  -4.746241e+001 
2005000000  -4.375453e+000  -4.766365e+001 
2006250000  -4.373190e+000  -4.796880e+001 
2007500000  -4.373157e+000  -4.842180e+001 
2008750000  -4.388948e+000  -4.881207e+001 
2010000000  -4.393930e+000  -4.920369e+001 
2011250000  -4.449208e+000  -4.949789e+001 
2012500000  -4.502509e+000  -4.999800e+001 
2013750000  -4.531941e+000  -5.032115e+001 
2015000000  -4.550076e+000  -5.074717e+001 
2016250000  -4.526767e+000  -5.072733e+001 
2017500000  -4.481587e+000  -5.089042e+001 
2018750000  -4.484278e+000  -5.111025e+001 
2020000000  -4.479248e+000  -5.128695e+001 
2021250000  -4.541814e+000  -5.165698e+001 
2022500000  -4.571917e+000  -5.214044e+001 
2023750000  -4.597584e+000  -5.265590e+001 
2025000000  -4.626220e+000  -5.314373e+001 
2026250000  -4.651382e+000  -5.355810e+001 
2027500000  -4.672481e+000  -5.382979e+001 
2028750000  -4.671654e+000  -5.403126e+001 
2030000000  -4.669949e+000  -5.434264e+001 
2031250000  -4.640866e+000  -5.471069e+001 
2032500000  -4.611516e+000  -5.502559e+001 
2033750000  -4.523571e+000  -5.529998e+001 
2035000000  -4.587852e+000  -5.599993e+001 
2036250000  -4.656964e+000  -5.654792e+001 
2037500000  -4.710140e+000  -5.694096e+001 
2038750000  -4.733996e+000  -5.729117e+001 
2040000000  -4.762154e+000  -5.766162e+001 
2041250000  -4.769411e+000  -5.799327e+001 
2042500000  -4.763673e+000  -5.844072e+001 
2043750000  -4.786001e+000  -5.888715e+001 
2045000000  -4.796646e+000  -5.927608e+001 
2046250000  -4.807025e+000  -5.951107e+001 
2047500000  -4.801050e+000  -5.983301e+001 
2048750000  -4.810362e+000  -6.007326e+001 
2050000000  -4.824847e+000  -6.033754e+001 
2051250000  -4.808354e+000  -6.061712e+001 
2052500000  -4.784250e+000  -6.086338e+001 
2053750000  -4.735966e+000  -6.119504e+001 
2055000000  -4.776151e+000  -6.177914e+001 
2056250000  -4.840137e+000  -6.195189e+001 
2057500000  -4.863616e+000  -6.236431e+001 
2058750000  -4.895782e+000  -6.262643e+001 
2060000000  -4.903141e+000  -6.324139e+001 
2061250000  -4.910104e+000  -6.363095e+001 
2062500000  -4.908472e+000  -6.393764e+001 
2063750000  -4.936028e+000  -6.429531e+001 
2065000000  -4.922335e+000  -6.478168e+001 
2066250000  -4.971577e+000  -6.522167e+001 
2067500000  -4.990130e+000  -6.546105e+001 
2068750000  -5.011726e+000  -6.579673e+001 
2070000000  -5.030167e+000  -6.607675e+001 
2071250000  -5.045339e+000  -6.647427e+001 
2072500000  -5.063550e+000  -6.700154e+001 
2073750000  -5.039402e+000  -6.751536e+001 
2075000000  -5.099093e+000  -6.821285e+001 
2076250000  -5.070508e+000  -6.852630e+001 
2077500000  -5.077394e+000  -6.871018e+001 
2078750000  -5.056218e+000  -6.908710e+001 
2080000000  -5.062398e+000  -6.954701e+001 
2081250000  -5.097880e+000  -7.005238e+001 
2082500000  -5.143915e+000  -7.048869e+001 
2083750000  -5.155874e+000  -7.081936e+001 
2085000000  -5.196122e+000  -7.108276e+001 
2086250000  -5.146627e+000  -7.138390e+001 
2087500000  -5.119452e+000  -7.156293e+001 
2088750000  -5.104622e+000  -7.179237e+001 
2090000000  -5.127203e+000  -7.210811e+001 
2091250000  -5.179334e+000  -7.246195e+001 
2092500000  -5.235028e+000  -7.286436e+001 
2093750000  -5.293200e+000  -7.334016e+001 
2095000000  -5.348990e+000  -7.390556e+001 
2096250000  -5.334542e+000  -7.429708e+001 
2097500000  -5.309964e+000  -7.486546e+001 
2098750000  -5.282235e+000  -7.530992e+001 
2100000000  -5.209256e+000  -7.542561e+001 
2101250000  -5.219346e+000  -7.588326e+001 
2102500000  -5.218605e+000  -7.632819e+001 
2103750000  -5.231805e+000  -7.675034e+001 
2105000000  -5.228773e+000  -7.727972e+001 
2106250000  -5.237907e+000  -7.748148e+001 
2107500000  -5.268966e+000  -7.782365e+001 
2108750000  -5.280437e+000  -7.816137e+001 
2110000000  -5.270456e+000  -7.835159e+001 
2111250000  -5.296969e+000  -7.872237e+001 
2112500000  -5.331660e+000  -7.917332e+001 
2113750000  -5.324325e+000  -7.938067e+001 
2115000000  -5.353781e+000  -7.991043e+001 
2116250000  -5.367796e+000  -8.041817e+001 
2117500000  -5.377937e+000  -8.097752e+001 
2118750000  -5.414840e+000  -8.142535e+001 
2120000000  -5.426887e+000  -8.176643e+001 
2121250000  -5.462183e+000  -8.216514e+001 
2122500000  -5.481775e+000  -8.260239e+001 
2123750000  -5.511911e+000  -8.299419e+001 
2125000000  -5.541039e+000  -8.347630e+001 
2126250000  -5.537033e+000  -8.367436e+001 
2127500000  -5.533740e+000  -8.409394e+001 
2128750000  -5.532257e+000  -8.432640e+001 
2130000000  -5.543201e+000  -8.462074e+001 
2131250000  -5.544963e+000  -8.490210e+001 
2132500000  -5.547056e+000  -8.511370e+001 
2133750000  -5.545666e+000  -8.552821e+001 
2135000000  -5.530245e+000  -8.587848e+001 
2136250000  -5.563375e+000  -8.637873e+001 
2137500000  -5.595445e+000  -8.708865e+001 
2138750000  -5.621215e+000  -8.754854e+001 
2140000000  -5.636303e+000  -8.841105e+001 
2141250000  -5.602799e+000  -8.890053e+001 
2142500000  -5.612303e+000  -8.926440e+001 
2143750000  -5.608928e+000  -8.957982e+001 
2145000000  -5.603531e+000  -8.964542e+001 
2146250000  -5.629079e+000  -8.986403e+001 
2147500000  -5.655931e+000  -9.027844e+001 
2148750000  -5.693617e+000  -9.059907e+001 
2150000000  -5.724327e+000  -9.090202e+001 
2151250000  -5.782946e+000  -9.123053e+001 
2152500000  -5.824198e+000  -9.147291e+001 
2153750000  -5.877916e+000  -9.187025e+001 
2155000000  -5.887592e+000  -9.222945e+001 
2156250000  -5.866513e+000  -9.285057e+001 
2157500000  -5.865507e+000  -9.331891e+001 
2158750000  -5.849170e+000  -9.381959e+001 
2160000000  -5.816946e+000  -9.396854e+001 
2161250000  -5.842041e+000  -9.439764e+001 
2162500000  -5.833762e+000  -9.467150e+001 
2163750000  -5.861276e+000  -9.490562e+001 
2165000000  -5.904472e+000  -9.541905e+001 
2166250000  -5.928504e+000  -9.559953e+001 
2167500000  -5.922027e+000  -9.589503e+001 
2168750000  -5.931968e+000  -9.610251e+001 
2170000000  -5.933478e+000  -9.631829e+001 
2171250000  -5.918466e+000  -9.677251e+001 
2172500000  -5.888931e+000  -9.702357e+001 
2173750000  -5.877128e+000  -9.754681e+001 
2175000000  -5.873365e+000  -9.767942e+001 
2176250000  -5.906342e+000  -9.806709e+001 
2177500000  -5.942019e+000  -9.866568e+001 
2178750000  -5.961840e+000  -9.906057e+001 
2180000000  -6.020925e+000  -9.959757e+001 
2181250000  -5.997880e+000  -9.970625e+001 
2182500000  -5.995899e+000  -9.986206e+001 
2183750000  -5.988092e+000  -1.001878e+002 
2185000000  -5.997852e+000  -1.003861e+002 
2186250000  -5.976037e+000  -1.012768e+002 
2187500000  -5.971713e+000  -1.020646e+002 
2188750000  -5.932801e+000  -1.027916e+002 
2190000000  -5.918594e+000  -1.031352e+002 
2191250000  -5.910234e+000  -1.031939e+002 
2192500000  -5.898901e+000  -1.031687e+002 
2193750000  -5.912719e+000  -1.035206e+002 
2195000000  -5.927422e+000  -1.035076e+002 
2196250000  -5.976820e+000  -1.040883e+002 
2197500000  -6.037906e+000  -1.047932e+002 
2198750000  -6.099807e+000  -1.053256e+002 
2200000000  -6.104618e+000  -1.065446e+002 
2201250000  -6.065053e+000  -1.068783e+002 
2202500000  -6.025192e+000  -1.073619e+002 
2203750000  -6.007497e+000  -1.076173e+002 
2205000000  -5.942281e+000  -1.076984e+002 
2206250000  -5.965350e+000  -1.083472e+002 
2207500000  -5.975445e+000  -1.090701e+002 
2208750000  -5.974538e+000  -1.095674e+002 
2210000000  -5.942445e+000  -1.103734e+002 
2211250000  -6.000187e+000  -1.105546e+002 
2212500000  -6.062418e+000  -1.107996e+002 
2213750000  -6.127719e+000  -1.110465e+002 
2215000000  -6.179248e+000  -1.113357e+002 
2216250000  -6.153075e+000  -1.117071e+002 
2217500000  -6.132797e+000  -1.120357e+002 
2218750000  -6.112141e+000  -1.124784e+002 
2220000000  -6.088961e+000  -1.125656e+002 
2221250000  -6.057548e+000  -1.128952e+002 
2222500000  -6.050498e+000  -1.135676e+002 
2223750000  -6.035105e+000  -1.137662e+002 
2225000000  -6.038736e+000  -1.140009e+002 
2226250000  -6.077494e+000  -1.141726e+002 
2227500000  -6.103159e+000  -1.143037e+002 
2228750000  -6.146724e+000  -1.145388e+002 
2230000000  -6.159782e+000  -1.146993e+002 
2231250000  -6.190357e+000  -1.154333e+002 
2232500000  -6.221206e+000  -1.160608e+002 
2233750000  -6.243569e+000  -1.167351e+002 
2235000000  -6.261334e+000  -1.174170e+002 
2236250000  -6.244219e+000  -1.177382e+002 
2237500000  -6.224931e+000  -1.180319e+002 
2238750000  -6.194444e+000  -1.183483e+002 
2240000000  -6.169709e+000  -1.185549e+002 
2241250000  -6.199013e+000  -1.192244e+002 
2242500000  -6.238309e+000  -1.197965e+002 
2243750000  -6.228066e+000  -1.203481e+002 
2245000000  -6.199509e+000  -1.208522e+002 
2246250000  -6.125165e+000  -1.212168e+002 
2247500000  -6.074131e+000  -1.213671e+002 
2248750000  -5.999557e+000  -1.216093e+002 
2250000000  -5.983096e+000  -1.218021e+002 
2251250000  -6.026852e+000  -1.221287e+002 
2252500000  -6.100292e+000  -1.226813e+002 
2253750000  -6.121708e+000  -1.233722e+002 
2255000000  -6.197516e+000  -1.240798e+002 
2256250000  -6.167934e+000  -1.243624e+002 
2257500000  -6.156014e+000  -1.245434e+002 
2258750000  -6.150029e+000  -1.246613e+002 
2260000000  -6.134131e+000  -1.251405e+002 
2261250000  -6.166087e+000  -1.255258e+002 
2262500000  -6.189917e+000  -1.259419e+002 
2263750000  -6.199055e+000  -1.264751e+002 
2265000000  -6.181423e+000  -1.270235e+002 
2266250000  -6.122515e+000  -1.273444e+002 
2267500000  -6.036045e+000  -1.275871e+002 
2268750000  -6.013575e+000  -1.279301e+002 
2270000000  -5.981769e+000  -1.282733e+002 
2271250000  -6.053413e+000  -1.283910e+002 
2272500000  -6.093994e+000  -1.286182e+002 
2273750000  -6.141627e+000  -1.288800e+002 
2275000000  -6.155424e+000  -1.292368e+002 
2276250000  -6.115553e+000  -1.298723e+002 
2277500000  -6.088190e+000  -1.308137e+002 
2278750000  -6.067689e+000  -1.314741e+002 
2280000000  -6.079069e+000  -1.320986e+002 
2281250000  -6.084867e+000  -1.323036e+002 
2282500000  -6.098082e+000  -1.324318e+002 
2283750000  -6.084368e+000  -1.327407e+002 
2285000000  -6.067459e+000  -1.326139e+002 
2286250000  -6.027943e+000  -1.332285e+002 
2287500000  -6.032368e+000  -1.337873e+002 
2288750000  -6.022781e+000  -1.344404e+002 
2290000000  -6.011907e+000  -1.351357e+002 
2291250000  -6.039411e+000  -1.355491e+002 
2292500000  -6.045557e+000  -1.357190e+002 
2293750000  -6.076919e+000  -1.361124e+002 
2295000000  -6.089776e+000  -1.364036e+002 
2296250000  -6.091244e+000  -1.367823e+002 
2297500000  -6.114041e+000  -1.371982e+002 
2298750000  -6.128568e+000  -1.374402e+002 
2300000000  -6.115262e+000  -1.378756e+002 
2301250000  -6.112394e+000  -1.381889e+002 
2302500000  -6.091798e+000  -1.385319e+002 
2303750000  -6.070867e+000  -1.387434e+002 
2305000000  -6.059723e+000  -1.389916e+002 
2306250000  -6.069889e+000  -1.392405e+002 
2307500000  -6.066798e+000  -1.395878e+002 
2308750000  -6.049159e+000  -1.399374e+002 
2310000000  -6.024363e+000  -1.403438e+002 
2311250000  -5.983257e+000  -1.408065e+002 
2312500000  -5.948319e+000  -1.414000e+002 
2313750000  -5.925171e+000  -1.419653e+002 
2315000000  -5.901521e+000  -1.427278e+002 
2316250000  -5.914420e+000  -1.431084e+002 
2317500000  -5.957598e+000  -1.435248e+002 
2318750000  -5.977797e+000  -1.439296e+002 
2320000000  -5.980161e+000  -1.441377e+002 
2321250000  -5.954215e+000  -1.445328e+002 
2322500000  -5.930443e+000  -1.449111e+002 
2323750000  -5.943718e+000  -1.452952e+002 
2325000000  -5.925426e+000  -1.456492e+002 
2326250000  -5.947607e+000  -1.460564e+002 
2327500000  -5.955715e+000  -1.464640e+002 
2328750000  -5.968500e+000  -1.467411e+002 
2330000000  -5.967533e+000  -1.471014e+002 
2331250000  -5.958087e+000  -1.472993e+002 
2332500000  -5.940698e+000  -1.474671e+002 
2333750000  -5.922453e+000  -1.477178e+002 
2335000000  -5.923196e+000  -1.478099e+002 
2336250000  -5.925091e+000  -1.481579e+002 
2337500000  -5.930608e+000  -1.485701e+002 
2338750000  -5.940819e+000  -1.490211e+002 
2340000000  -5.945580e+000  -1.494355e+002 
2341250000  -5.901512e+000  -1.502028e+002 
2342500000  -5.861663e+000  -1.509557e+002 
2343750000  -5.887756e+000  -1.517167e+002 
2345000000  -5.890747e+000  -1.522879e+002 
2346250000  -5.942136e+000  -1.524912e+002 
2347500000  -5.977545e+000  -1.525585e+002 
2348750000  -6.010643e+000  -1.528001e+002 
2350000000  -6.029457e+000  -1.530543e+002 
2351250000  -5.967703e+000  -1.534737e+002 
2352500000  -5.901845e+000  -1.539222e+002 
2353750000  -5.848273e+000  -1.543791e+002 
2355000000  -5.795154e+000  -1.550074e+002 
2356250000  -5.836374e+000  -1.553032e+002 
2357500000  -5.876354e+000  -1.555270e+002 
2358750000  -5.862180e+000  -1.559330e+002 
2360000000  -5.881485e+000  -1.563769e+002 
2361250000  -5.831766e+000  -1.564279e+002 
2362500000  -5.793022e+000  -1.567677e+002 
2363750000  -5.766150e+000  -1.570868e+002 
2365000000  -5.738150e+000  -1.572839e+002 
2366250000  -5.805695e+000  -1.576154e+002 
2367500000  -5.832047e+000  -1.580993e+002 
2368750000  -5.850935e+000  -1.586706e+002 
2370000000  -5.874380e+000  -1.591434e+002 
2371250000  -5.835560e+000  -1.594513e+002 
2372500000  -5.811771e+000  -1.598049e+002 
2373750000  -5.788990e+000  -1.598930e+002 
2375000000  -5.766105e+000  -1.602585e+002 
2376250000  -5.776936e+000  -1.607482e+002 
2377500000  -5.755435e+000  -1.613567e+002 
2378750000  -5.767630e+000  -1.619481e+002 
2380000000  -5.764693e+000  -1.623954e+002 
2381250000  -5.801585e+000  -1.627230e+002 
2382500000  -5.822959e+000  -1.631463e+002 
2383750000  -5.834550e+000  -1.634750e+002 
2385000000  -5.842603e+000  -1.637755e+002 
2386250000  -5.843237e+000  -1.640698e+002 
2387500000  -5.839702e+000  -1.644395e+002 
2388750000  -5.827534e+000  -1.648013e+002 
2390000000  -5.797557e+000  -1.650598e+002 
2391250000  -5.770123e+000  -1.653470e+002 
2392500000  -5.714974e+000  -1.656428e+002 
2393750000  -5.695258e+000  -1.659271e+002 
2395000000  -5.665991e+000  -1.662223e+002 
2396250000  -5.742652e+000  -1.666817e+002 
2397500000  -5.797867e+000  -1.669816e+002 
2398750000  -5.823798e+000  -1.674615e+002 
2400000000  -5.843626e+000  -1.678674e+002 
2401250000  -5.787268e+000  -1.680979e+002 
2402500000  -5.748518e+000  -1.686012e+002 
2403750000  -5.719929e+000  -1.690698e+002 
2405000000  -5.731172e+000  -1.698417e+002 
2406250000  -5.778012e+000  -1.699124e+002 
2407500000  -5.855776e+000  -1.700923e+002 
2408750000  -5.869977e+000  -1.702865e+002 
2410000000  -5.868762e+000  -1.704578e+002 
2411250000  -5.851623e+000  -1.706150e+002 
2412500000  -5.803362e+000  -1.707240e+002 
2413750000  -5.757276e+000  -1.709117e+002 
2415000000  -5.735856e+000  -1.709644e+002 
2416250000  -5.679523e+000  -1.716764e+002 
2417500000  -5.691863e+000  -1.721833e+002 
2418750000  -5.665527e+000  -1.726724e+002 
2420000000  -5.655625e+000  -1.732920e+002 
2421250000  -5.735334e+000  -1.738025e+002 
2422500000  -5.760543e+000  -1.740461e+002 
2423750000  -5.782734e+000  -1.744808e+002 
2425000000  -5.777119e+000  -1.747996e+002 
2426250000  -5.713387e+000  -1.748879e+002 
2427500000  -5.660356e+000  -1.748662e+002 
2428750000  -5.609115e+000  -1.749603e+002 
2430000000  -5.587183e+000  -1.749923e+002 
2431250000  -5.608634e+000  -1.755535e+002 
2432500000  -5.627920e+000  -1.760277e+002 
2433750000  -5.646411e+000  -1.764276e+002 
2435000000  -5.643458e+000  -1.769368e+002 
2436250000  -5.610675e+000  -1.772858e+002 
2437500000  -5.573950e+000  -1.775085e+002 
2438750000  -5.551453e+000  -1.777113e+002 
2440000000  -5.486507e+000  -1.781218e+002 
2441250000  -5.441569e+000  -1.784301e+002 
2442500000  -5.429552e+000  -1.788369e+002 
2443750000  -5.431347e+000  -1.790958e+002 
2445000000  -5.436959e+000  -1.796200e+002 
2446250000  -5.522718e+000  -1.798710e+002 
2447500000  -5.580799e+000  1.797303e+002 
2448750000  -5.612256e+000  1.795285e+002 
2450000000  -5.663264e+000  1.798036e+002 
2451250000  -5.588905e+000  1.796891e+002 
2452500000  -5.500040e+000  1.797248e+002 
2453750000  -5.426736e+000  1.796749e+002 
2455000000  -5.395089e+000  1.794787e+002 
2456250000  -5.418770e+000  1.791118e+002 
2457500000  -5.422805e+000  1.786341e+002 
2458750000  -5.456271e+000  1.782593e+002 
2460000000  -5.455388e+000  1.778031e+002 
2461250000  -5.456683e+000  1.772634e+002 
2462500000  -5.442869e+000  1.767896e+002 
2463750000  -5.424700e+000  1.762429e+002 
2465000000  -5.372283e+000  1.758643e+002 
2466250000  -5.312704e+000  1.757704e+002 
2467500000  -5.260733e+000  1.754464e+002 
2468750000  -5.223664e+000  1.751240e+002 
2470000000  -5.166745e+000  1.746290e+002 
2471250000  -5.223866e+000  1.742729e+002 
2472500000  -5.271339e+000  1.740792e+002 
2473750000  -5.292098e+000  1.738099e+002 
2475000000  -5.297820e+000  1.736254e+002 
2476250000  -5.289315e+000  1.733679e+002 
2477500000  -5.293093e+000  1.731946e+002 
2478750000  -5.292561e+000  1.729146e+002 
2480000000  -5.290017e+000  1.727073e+002 
2481250000  -5.322826e+000  1.721009e+002 
2482500000  -5.336456e+000  1.716292e+002 
2483750000  -5.330328e+000  1.711404e+002 
2485000000  -5.289736e+000  1.706767e+002 
2486250000  -5.246231e+000  1.705270e+002 
2487500000  -5.212569e+000  1.705092e+002 
2488750000  -5.175925e+000  1.703620e+002 
2490000000  -5.097334e+000  1.700355e+002 
2491250000  -5.117212e+000  1.694869e+002 
2492500000  -5.128137e+000  1.688862e+002 
2493750000  -5.138773e+000  1.684527e+002 
2495000000  -5.156365e+000  1.683550e+002 
2496250000  -5.129407e+000  1.685711e+002 
2497500000  -5.100395e+000  1.684685e+002 
2498750000  -5.083686e+000  1.683519e+002 
2500000000  -5.055672e+000  1.679104e+002 
2501250000  -5.069633e+000  1.675840e+002 
2502500000  -5.061102e+000  1.673165e+002 
2503750000  -5.066524e+000  1.669655e+002 
2505000000  -5.062294e+000  1.667992e+002 
2506250000  -5.021223e+000  1.666123e+002 
2507500000  -4.994778e+000  1.662242e+002 
2508750000  -4.984061e+000  1.659606e+002 
2510000000  -4.950697e+000  1.657611e+002 
2511250000  -4.947092e+000  1.650810e+002 
2512500000  -4.930861e+000  1.645375e+002 
2513750000  -4.914757e+000  1.641553e+002 
2515000000  -4.899850e+000  1.637306e+002 
2516250000  -4.918260e+000  1.636216e+002 
2517500000  -4.913075e+000  1.634723e+002 
2518750000  -4.899113e+000  1.632930e+002 
2520000000  -4.931958e+000  1.633283e+002 
2521250000  -4.961145e+000  1.625179e+002 
2522500000  -4.879052e+000  1.625568e+002 
2523750000  -4.879807e+000  1.620261e+002 
2525000000  -4.904619e+000  1.616270e+002 
2526250000  -4.904757e+000  1.614560e+002 
2527500000  -4.920999e+000  1.612224e+002 
2528750000  -4.935253e+000  1.609554e+002 
2530000000  -4.937678e+000  1.607088e+002 
2531250000  -4.925402e+000  1.603789e+002 
2532500000  -4.912397e+000  1.599193e+002 
2533750000  -4.912109e+000  1.595384e+002 
2535000000  -4.883429e+000  1.593128e+002 
2536250000  -4.881559e+000  1.589709e+002 
2537500000  -3.780478e+000  1.794146e+002 
2538750000  -4.965424e+000  1.578010e+002 
2540000000  -4.882451e+000  1.580464e+002 
2541250000  -4.806100e+000  1.580096e+002 
2542500000  -4.824706e+000  1.577687e+002 
2543750000  -4.921962e+000  1.539625e+002 
2545000000  -4.874179e+000  1.575163e+002 
2546250000  -4.901407e+000  1.572244e+002 
2547500000  -4.921058e+000  1.568547e+002 
2548750000  -4.668818e+000  1.588161e+002 
2550000000  -5.001091e+000  1.567959e+002 
