!Agilent Technologies,E8364A,US41440144,A.06.04.32
!Agilent E8364A: A.06.04.32
!Date: Friday, February 02, 2018 10:44:31
!Correction: S22(Full 2 Port(1,2)) 
!S1P File: Measurement: S22:
# Hz S  dB   R 50
2000000000  -5.880109e+000  -3.990303e+001 
2001250000  -5.886091e+000  -4.015943e+001 
2002500000  -5.892225e+000  -4.038972e+001 
2003750000  -5.908646e+000  -4.064500e+001 
2005000000  -5.919600e+000  -4.092340e+001 
2006250000  -5.929228e+000  -4.129735e+001 
2007500000  -5.938028e+000  -4.164926e+001 
2008750000  -5.952137e+000  -4.204589e+001 
2010000000  -5.967729e+000  -4.241494e+001 
2011250000  -6.033492e+000  -4.273756e+001 
2012500000  -6.077816e+000  -4.310414e+001 
2013750000  -6.114264e+000  -4.341545e+001 
2015000000  -6.133255e+000  -4.368895e+001 
2016250000  -6.096681e+000  -4.381081e+001 
2017500000  -6.067005e+000  -4.390540e+001 
2018750000  -6.068002e+000  -4.403710e+001 
2020000000  -6.077109e+000  -4.419817e+001 
2021250000  -6.131847e+000  -4.468900e+001 
2022500000  -6.182951e+000  -4.516304e+001 
2023750000  -6.218948e+000  -4.564024e+001 
2025000000  -6.258360e+000  -4.610906e+001 
2026250000  -6.293509e+000  -4.651976e+001 
2027500000  -6.313252e+000  -4.685518e+001 
2028750000  -6.325320e+000  -4.717489e+001 
2030000000  -6.323566e+000  -4.743159e+001 
2031250000  -6.277324e+000  -4.773987e+001 
2032500000  -6.247479e+000  -4.811150e+001 
2033750000  -6.232189e+000  -4.855210e+001 
2035000000  -6.231137e+000  -4.905478e+001 
2036250000  -6.314251e+000  -4.959412e+001 
2037500000  -6.390416e+000  -5.003001e+001 
2038750000  -6.433691e+000  -5.044940e+001 
2040000000  -6.471691e+000  -5.077201e+001 
2041250000  -6.476924e+000  -5.113111e+001 
2042500000  -6.487485e+000  -5.149093e+001 
2043750000  -6.500632e+000  -5.189404e+001 
2045000000  -6.516113e+000  -5.224766e+001 
2046250000  -6.539610e+000  -5.252935e+001 
2047500000  -6.551013e+000  -5.278469e+001 
2048750000  -6.572280e+000  -5.300435e+001 
2050000000  -6.583624e+000  -5.315365e+001 
2051250000  -6.548985e+000  -5.351387e+001 
2052500000  -6.523701e+000  -5.381023e+001 
2053750000  -6.504576e+000  -5.415982e+001 
2055000000  -6.515632e+000  -5.467463e+001 
2056250000  -6.567459e+000  -5.489458e+001 
2057500000  -6.622809e+000  -5.516270e+001 
2058750000  -6.668702e+000  -5.541442e+001 
2060000000  -6.690444e+000  -5.589832e+001 
2061250000  -6.706893e+000  -5.629884e+001 
2062500000  -6.716829e+000  -5.671251e+001 
2063750000  -6.726900e+000  -5.704778e+001 
2065000000  -6.740905e+000  -5.744688e+001 
2066250000  -6.782792e+000  -5.776187e+001 
2067500000  -6.822567e+000  -5.804929e+001 
2068750000  -6.862712e+000  -5.833483e+001 
2070000000  -6.906916e+000  -5.860319e+001 
2071250000  -6.910930e+000  -5.908946e+001 
2072500000  -6.907339e+000  -5.958558e+001 
2073750000  -6.903721e+000  -6.012159e+001 
2075000000  -6.939997e+000  -6.068047e+001 
2076250000  -6.938064e+000  -6.104846e+001 
2077500000  -6.930408e+000  -6.136426e+001 
2078750000  -6.918848e+000  -6.187044e+001 
2080000000  -6.940465e+000  -6.205196e+001 
2081250000  -6.995569e+000  -6.259275e+001 
2082500000  -7.045706e+000  -6.315194e+001 
2083750000  -7.078862e+000  -6.334913e+001 
2085000000  -7.112864e+000  -6.358561e+001 
2086250000  -7.067521e+000  -6.380891e+001 
2087500000  -7.029576e+000  -6.403987e+001 
2088750000  -7.004570e+000  -6.429469e+001 
2090000000  -7.015554e+000  -6.463967e+001 
2091250000  -7.073511e+000  -6.484599e+001 
2092500000  -7.131751e+000  -6.514052e+001 
2093750000  -7.193477e+000  -6.551334e+001 
2095000000  -7.242120e+000  -6.598515e+001 
2096250000  -7.220858e+000  -6.657646e+001 
2097500000  -7.197439e+000  -6.715558e+001 
2098750000  -7.165985e+000  -6.771874e+001 
2100000000  -7.103849e+000  -6.795894e+001 
2101250000  -7.125071e+000  -6.843379e+001 
2102500000  -7.158842e+000  -6.886532e+001 
2103750000  -7.182650e+000  -6.921811e+001 
2105000000  -7.186866e+000  -6.967924e+001 
2106250000  -7.197013e+000  -6.991607e+001 
2107500000  -7.209465e+000  -7.017213e+001 
2108750000  -7.217603e+000  -7.045550e+001 
2110000000  -7.229635e+000  -7.073901e+001 
2111250000  -7.250994e+000  -7.105636e+001 
2112500000  -7.271811e+000  -7.142783e+001 
2113750000  -7.302151e+000  -7.181730e+001 
2115000000  -7.327221e+000  -7.222638e+001 
2116250000  -7.353320e+000  -7.276559e+001 
2117500000  -7.383343e+000  -7.327354e+001 
2118750000  -7.406160e+000  -7.372996e+001 
2120000000  -7.441591e+000  -7.414832e+001 
2121250000  -7.486578e+000  -7.453703e+001 
2122500000  -7.517950e+000  -7.486775e+001 
2123750000  -7.550435e+000  -7.524482e+001 
2125000000  -7.580121e+000  -7.564470e+001 
2126250000  -7.568504e+000  -7.589296e+001 
2127500000  -7.566988e+000  -7.615112e+001 
2128750000  -7.572378e+000  -7.646983e+001 
2130000000  -7.584679e+000  -7.671121e+001 
2131250000  -7.594716e+000  -7.703624e+001 
2132500000  -7.593251e+000  -7.735647e+001 
2133750000  -7.587563e+000  -7.769645e+001 
2135000000  -7.584897e+000  -7.806725e+001 
2136250000  -7.623075e+000  -7.858857e+001 
2137500000  -7.657304e+000  -7.909969e+001 
2138750000  -7.702621e+000  -7.963141e+001 
2140000000  -7.719142e+000  -8.037431e+001 
2141250000  -7.715255e+000  -8.084872e+001 
2142500000  -7.716894e+000  -8.126206e+001 
2143750000  -7.709994e+000  -8.153788e+001 
2145000000  -7.711554e+000  -8.179376e+001 
2146250000  -7.729204e+000  -8.202540e+001 
2147500000  -7.759271e+000  -8.221799e+001 
2148750000  -7.787385e+000  -8.252052e+001 
2150000000  -7.823086e+000  -8.283850e+001 
2151250000  -7.877111e+000  -8.313222e+001 
2152500000  -7.928597e+000  -8.348927e+001 
2153750000  -7.961609e+000  -8.385171e+001 
2155000000  -7.990980e+000  -8.428371e+001 
2156250000  -7.982233e+000  -8.490438e+001 
2157500000  -7.971748e+000  -8.547209e+001 
2158750000  -7.955292e+000  -8.596677e+001 
2160000000  -7.945104e+000  -8.642389e+001 
2161250000  -7.958418e+000  -8.666362e+001 
2162500000  -7.980622e+000  -8.692963e+001 
2163750000  -8.011058e+000  -8.721361e+001 
2165000000  -8.047562e+000  -8.771098e+001 
2166250000  -8.068036e+000  -8.788648e+001 
2167500000  -8.091822e+000  -8.809129e+001 
2168750000  -8.105911e+000  -8.844068e+001 
2170000000  -8.114650e+000  -8.878477e+001 
2171250000  -8.099156e+000  -8.928851e+001 
2172500000  -8.086155e+000  -8.975055e+001 
2173750000  -8.080315e+000  -9.011292e+001 
2175000000  -8.082589e+000  -9.041915e+001 
2176250000  -8.138425e+000  -9.082359e+001 
2177500000  -8.190505e+000  -9.126871e+001 
2178750000  -8.246168e+000  -9.173893e+001 
2180000000  -8.295139e+000  -9.222754e+001 
2181250000  -8.295581e+000  -9.215302e+001 
2182500000  -8.297643e+000  -9.227644e+001 
2183750000  -8.304529e+000  -9.251897e+001 
2185000000  -8.322092e+000  -9.280237e+001 
2186250000  -8.305858e+000  -9.389885e+001 
2187500000  -8.287747e+000  -9.477133e+001 
2188750000  -8.287799e+000  -9.551405e+001 
2190000000  -8.278195e+000  -9.599757e+001 
2191250000  -8.270528e+000  -9.583885e+001 
2192500000  -8.279408e+000  -9.584552e+001 
2193750000  -8.293953e+000  -9.588680e+001 
2195000000  -8.312348e+000  -9.599830e+001 
2196250000  -8.406722e+000  -9.649005e+001 
2197500000  -8.488708e+000  -9.711515e+001 
2198750000  -8.557559e+000  -9.781395e+001 
2200000000  -8.615602e+000  -9.888633e+001 
2201250000  -8.577734e+000  -9.932269e+001 
2202500000  -8.535172e+000  -9.969979e+001 
2203750000  -8.501354e+000  -1.000270e+002 
2205000000  -8.447150e+000  -1.001848e+002 
2206250000  -8.475524e+000  -1.009362e+002 
2207500000  -8.506864e+000  -1.015630e+002 
2208750000  -8.544912e+000  -1.020691e+002 
2210000000  -8.551635e+000  -1.026537e+002 
2211250000  -8.627809e+000  -1.026316e+002 
2212500000  -8.697311e+000  -1.026326e+002 
2213750000  -8.775746e+000  -1.027137e+002 
2215000000  -8.837316e+000  -1.029174e+002 
2216250000  -8.805313e+000  -1.030660e+002 
2217500000  -8.768460e+000  -1.032539e+002 
2218750000  -8.726512e+000  -1.034204e+002 
2220000000  -8.693438e+000  -1.034572e+002 
2221250000  -8.653343e+000  -1.038826e+002 
2222500000  -8.622787e+000  -1.042669e+002 
2223750000  -8.605873e+000  -1.045558e+002 
2225000000  -8.590771e+000  -1.047962e+002 
2226250000  -8.613297e+000  -1.046561e+002 
2227500000  -8.625206e+000  -1.046215e+002 
2228750000  -8.651987e+000  -1.047075e+002 
2230000000  -8.655965e+000  -1.049107e+002 
2231250000  -8.675904e+000  -1.055825e+002 
2232500000  -8.695145e+000  -1.062327e+002 
2233750000  -8.714057e+000  -1.068844e+002 
2235000000  -8.732478e+000  -1.076526e+002 
2236250000  -8.686201e+000  -1.080633e+002 
2237500000  -8.647221e+000  -1.084105e+002 
2238750000  -8.609718e+000  -1.088226e+002 
2240000000  -8.576667e+000  -1.091584e+002 
2241250000  -8.607701e+000  -1.098128e+002 
2242500000  -8.627157e+000  -1.104556e+002 
2243750000  -8.629991e+000  -1.111424e+002 
2245000000  -8.616457e+000  -1.117627e+002 
2246250000  -8.510417e+000  -1.121518e+002 
2247500000  -8.424796e+000  -1.124332e+002 
2248750000  -8.350830e+000  -1.126891e+002 
2250000000  -8.306869e+000  -1.129247e+002 
2251250000  -8.379402e+000  -1.133886e+002 
2252500000  -8.443907e+000  -1.138762e+002 
2253750000  -8.502782e+000  -1.144839e+002 
2255000000  -8.573586e+000  -1.153261e+002 
2256250000  -8.541002e+000  -1.156377e+002 
2257500000  -8.520951e+000  -1.159100e+002 
2258750000  -8.500306e+000  -1.161381e+002 
2260000000  -8.479788e+000  -1.164411e+002 
2261250000  -8.520582e+000  -1.169193e+002 
2262500000  -8.547829e+000  -1.174687e+002 
2263750000  -8.557166e+000  -1.179969e+002 
2265000000  -8.561038e+000  -1.185637e+002 
2266250000  -8.459870e+000  -1.191056e+002 
2267500000  -8.389039e+000  -1.195552e+002 
2268750000  -8.356450e+000  -1.198714e+002 
2270000000  -8.329155e+000  -1.201548e+002 
2271250000  -8.401749e+000  -1.201601e+002 
2272500000  -8.463478e+000  -1.203436e+002 
2273750000  -8.504444e+000  -1.206046e+002 
2275000000  -8.528653e+000  -1.209483e+002 
2276250000  -8.487017e+000  -1.218684e+002 
2277500000  -8.458257e+000  -1.227502e+002 
2278750000  -8.444020e+000  -1.235504e+002 
2280000000  -8.454428e+000  -1.243039e+002 
2281250000  -8.455861e+000  -1.244326e+002 
2282500000  -8.462818e+000  -1.245969e+002 
2283750000  -8.462840e+000  -1.248086e+002 
2285000000  -8.445307e+000  -1.248784e+002 
2286250000  -8.421488e+000  -1.255890e+002 
2287500000  -8.413287e+000  -1.262523e+002 
2288750000  -8.408257e+000  -1.269391e+002 
2290000000  -8.417753e+000  -1.276038e+002 
2291250000  -8.439406e+000  -1.278371e+002 
2292500000  -8.463319e+000  -1.281199e+002 
2293750000  -8.484803e+000  -1.284245e+002 
2295000000  -8.506151e+000  -1.288251e+002 
2296250000  -8.516360e+000  -1.291333e+002 
2297500000  -8.536194e+000  -1.295567e+002 
2298750000  -8.548132e+000  -1.299625e+002 
2300000000  -8.565013e+000  -1.304109e+002 
2301250000  -8.535288e+000  -1.306815e+002 
2302500000  -8.513072e+000  -1.309794e+002 
2303750000  -8.485678e+000  -1.312304e+002 
2305000000  -8.464960e+000  -1.314163e+002 
2306250000  -8.471148e+000  -1.317211e+002 
2307500000  -8.472864e+000  -1.320375e+002 
2308750000  -8.466099e+000  -1.323860e+002 
2310000000  -8.449514e+000  -1.327603e+002 
2311250000  -8.394872e+000  -1.333678e+002 
2312500000  -8.352924e+000  -1.340100e+002 
2313750000  -8.330929e+000  -1.345658e+002 
2315000000  -8.302082e+000  -1.353273e+002 
2316250000  -8.337470e+000  -1.357418e+002 
2317500000  -8.368333e+000  -1.361298e+002 
2318750000  -8.388883e+000  -1.365911e+002 
2320000000  -8.404160e+000  -1.369025e+002 
2321250000  -8.379681e+000  -1.373028e+002 
2322500000  -8.359754e+000  -1.376477e+002 
2323750000  -8.339639e+000  -1.380483e+002 
2325000000  -8.337721e+000  -1.384449e+002 
2326250000  -8.356521e+000  -1.388779e+002 
2327500000  -8.364129e+000  -1.392668e+002 
2328750000  -8.382721e+000  -1.396812e+002 
2330000000  -8.389294e+000  -1.400849e+002 
2331250000  -8.370923e+000  -1.402138e+002 
2332500000  -8.356607e+000  -1.403944e+002 
2333750000  -8.346925e+000  -1.405249e+002 
2335000000  -8.325713e+000  -1.406510e+002 
2336250000  -8.329950e+000  -1.410561e+002 
2337500000  -8.327158e+000  -1.414908e+002 
2338750000  -8.320212e+000  -1.419020e+002 
2340000000  -8.314239e+000  -1.423280e+002 
2341250000  -8.273048e+000  -1.431621e+002 
2342500000  -8.265099e+000  -1.439426e+002 
2343750000  -8.266436e+000  -1.447165e+002 
2345000000  -8.288031e+000  -1.454854e+002 
2346250000  -8.360401e+000  -1.455105e+002 
2347500000  -8.422482e+000  -1.456242e+002 
2348750000  -8.453967e+000  -1.458630e+002 
2350000000  -8.483573e+000  -1.460407e+002 
2351250000  -8.390109e+000  -1.466094e+002 
2352500000  -8.315181e+000  -1.471542e+002 
2353750000  -8.262869e+000  -1.477041e+002 
2355000000  -8.209571e+000  -1.483164e+002 
2356250000  -8.251949e+000  -1.486186e+002 
2357500000  -8.282153e+000  -1.489007e+002 
2358750000  -8.301909e+000  -1.492254e+002 
2360000000  -8.305833e+000  -1.495093e+002 
2361250000  -8.248373e+000  -1.498126e+002 
2362500000  -8.207626e+000  -1.500892e+002 
2363750000  -8.181755e+000  -1.503032e+002 
2365000000  -8.159720e+000  -1.504515e+002 
2366250000  -8.225273e+000  -1.508722e+002 
2367500000  -8.270206e+000  -1.513248e+002 
2368750000  -8.294762e+000  -1.518677e+002 
2370000000  -8.312661e+000  -1.524053e+002 
2371250000  -8.264396e+000  -1.527265e+002 
2372500000  -8.227824e+000  -1.529836e+002 
2373750000  -8.195748e+000  -1.532791e+002 
2375000000  -8.172178e+000  -1.535786e+002 
2376250000  -8.180292e+000  -1.541335e+002 
2377500000  -8.188045e+000  -1.546922e+002 
2378750000  -8.199275e+000  -1.552948e+002 
2380000000  -8.213972e+000  -1.558489e+002 
2381250000  -8.236431e+000  -1.562093e+002 
2382500000  -8.252535e+000  -1.565332e+002 
2383750000  -8.269774e+000  -1.568485e+002 
2385000000  -8.285656e+000  -1.571939e+002 
2386250000  -8.288806e+000  -1.574765e+002 
2387500000  -8.283580e+000  -1.577957e+002 
2388750000  -8.264843e+000  -1.581105e+002 
2390000000  -8.243888e+000  -1.583916e+002 
2391250000  -8.178442e+000  -1.586993e+002 
2392500000  -8.130332e+000  -1.589485e+002 
2393750000  -8.105142e+000  -1.592740e+002 
2395000000  -8.072917e+000  -1.594714e+002 
2396250000  -8.156464e+000  -1.598285e+002 
2397500000  -8.218527e+000  -1.602521e+002 
2398750000  -8.260084e+000  -1.606988e+002 
2400000000  -8.281584e+000  -1.611445e+002 
2401250000  -8.204641e+000  -1.615780e+002 
2402500000  -8.155608e+000  -1.620008e+002 
2403750000  -8.121490e+000  -1.624408e+002 
2405000000  -8.118418e+000  -1.632339e+002 
2406250000  -8.193695e+000  -1.633278e+002 
2407500000  -8.250607e+000  -1.634599e+002 
2408750000  -8.282136e+000  -1.635572e+002 
2410000000  -8.286994e+000  -1.636609e+002 
2411250000  -8.231811e+000  -1.638147e+002 
2412500000  -8.179839e+000  -1.639828e+002 
2413750000  -8.131759e+000  -1.640326e+002 
2415000000  -8.093658e+000  -1.641488e+002 
2416250000  -8.047340e+000  -1.648026e+002 
2417500000  -8.021411e+000  -1.654787e+002 
2418750000  -8.008769e+000  -1.661195e+002 
2420000000  -8.007607e+000  -1.668069e+002 
2421250000  -8.072644e+000  -1.672358e+002 
2422500000  -8.120848e+000  -1.676320e+002 
2423750000  -8.144517e+000  -1.680635e+002 
2425000000  -8.139812e+000  -1.684012e+002 
2426250000  -8.056136e+000  -1.684390e+002 
2427500000  -7.990174e+000  -1.685015e+002 
2428750000  -7.940018e+000  -1.685294e+002 
2430000000  -7.903679e+000  -1.686401e+002 
2431250000  -7.942130e+000  -1.692131e+002 
2432500000  -7.961713e+000  -1.697532e+002 
2433750000  -7.967282e+000  -1.702769e+002 
2435000000  -7.965647e+000  -1.708301e+002 
2436250000  -7.919360e+000  -1.710800e+002 
2437500000  -7.876751e+000  -1.713490e+002 
2438750000  -7.833398e+000  -1.716397e+002 
2440000000  -7.771842e+000  -1.719914e+002 
2441250000  -7.734493e+000  -1.722997e+002 
2442500000  -7.710736e+000  -1.726811e+002 
2443750000  -7.708000e+000  -1.730350e+002 
2445000000  -7.718167e+000  -1.734910e+002 
2446250000  -7.816679e+000  -1.737324e+002 
2447500000  -7.890279e+000  -1.739964e+002 
2448750000  -7.934391e+000  -1.742382e+002 
2450000000  -7.982090e+000  -1.740466e+002 
2451250000  -7.881158e+000  -1.740410e+002 
2452500000  -7.799282e+000  -1.740473e+002 
2453750000  -7.735272e+000  -1.742061e+002 
2455000000  -7.687929e+000  -1.743564e+002 
2456250000  -7.707656e+000  -1.747581e+002 
2457500000  -7.727858e+000  -1.751745e+002 
2458750000  -7.761272e+000  -1.755964e+002 
2460000000  -7.772746e+000  -1.760169e+002 
2461250000  -7.769715e+000  -1.766191e+002 
2462500000  -7.756248e+000  -1.771472e+002 
2463750000  -7.719768e+000  -1.775949e+002 
2465000000  -7.673824e+000  -1.780258e+002 
2466250000  -7.584450e+000  -1.782336e+002 
2467500000  -7.511630e+000  -1.785095e+002 
2468750000  -7.461568e+000  -1.788697e+002 
2470000000  -7.428076e+000  -1.792791e+002 
2471250000  -7.481486e+000  -1.795776e+002 
2472500000  -7.518541e+000  -1.798153e+002 
2473750000  -7.547480e+000  1.799322e+002 
2475000000  -7.562037e+000  1.797463e+002 
2476250000  -7.558607e+000  1.794982e+002 
2477500000  -7.562243e+000  1.792203e+002 
2478750000  -7.559648e+000  1.789930e+002 
2480000000  -7.567323e+000  1.787250e+002 
2481250000  -7.596245e+000  1.781466e+002 
2482500000  -7.606126e+000  1.775531e+002 
2483750000  -7.593306e+000  1.770584e+002 
2485000000  -7.560013e+000  1.766118e+002 
2486250000  -7.481223e+000  1.766518e+002 
2487500000  -7.426252e+000  1.766029e+002 
2488750000  -7.383543e+000  1.764574e+002 
2490000000  -7.302307e+000  1.761921e+002 
2491250000  -7.353542e+000  1.755448e+002 
2492500000  -7.382034e+000  1.749521e+002 
2493750000  -7.383963e+000  1.744423e+002 
2495000000  -7.390469e+000  1.743079e+002 
2496250000  -7.336451e+000  1.744377e+002 
2497500000  -7.296747e+000  1.745041e+002 
2498750000  -7.267245e+000  1.744522e+002 
2500000000  -7.234805e+000  1.740965e+002 
2501250000  -7.252795e+000  1.737504e+002 
2502500000  -7.260991e+000  1.734322e+002 
2503750000  -7.262879e+000  1.731379e+002 
2505000000  -7.264118e+000  1.728795e+002 
2506250000  -7.218405e+000  1.726688e+002 
2507500000  -7.179513e+000  1.723582e+002 
2508750000  -7.149486e+000  1.720844e+002 
2510000000  -7.129621e+000  1.717435e+002 
2511250000  -7.129263e+000  1.710994e+002 
2512500000  -7.120879e+000  1.704899e+002 
2513750000  -7.099073e+000  1.699377e+002 
2515000000  -7.073876e+000  1.694702e+002 
2516250000  -7.072870e+000  1.694337e+002 
2517500000  -7.078897e+000  1.693704e+002 
2518750000  -7.086970e+000  1.693246e+002 
2520000000  -7.102520e+000  1.692495e+002 
2521250000  -7.082425e+000  1.688441e+002 
2522500000  -7.066624e+000  1.684014e+002 
2523750000  -7.049160e+000  1.679362e+002 
2525000000  -7.054201e+000  1.674377e+002 
2526250000  -7.083497e+000  1.672060e+002 
2527500000  -7.102501e+000  1.670001e+002 
2528750000  -7.119337e+000  1.667646e+002 
2530000000  -7.124077e+000  1.666076e+002 
2531250000  -7.100100e+000  1.662318e+002 
2532500000  -7.092525e+000  1.658607e+002 
2533750000  -7.079262e+000  1.655047e+002 
2535000000  -7.075208e+000  1.651517e+002 
2536250000  -7.037709e+000  1.649344e+002 
2537500000  -7.007994e+000  1.646883e+002 
2538750000  -6.983167e+000  1.644140e+002 
2540000000  -6.959395e+000  1.641315e+002 
2541250000  -6.968624e+000  1.640100e+002 
2542500000  -6.982812e+000  1.638765e+002 
2543750000  -7.007215e+000  1.637591e+002 
2545000000  -7.037320e+000  1.636268e+002 
2546250000  -7.086607e+000  1.632685e+002 
2547500000  -7.124125e+000  1.629978e+002 
2548750000  -7.163928e+000  1.627605e+002 
2550000000  -7.208604e+000  1.628211e+002 
