!Agilent Technologies,E8364A,US41440144,A.06.04.32
!Agilent E8364A: A.06.04.32
!Date: Friday, February 02, 2018 10:14:27
!Correction: S11(Full 2 Port(1,2)) 
!S1P File: Measurement: S11:
# Hz S  dB   R 50
2000000000  -5.434540e+000  1.626143e+002 
2005000000  -5.330145e+000  1.614216e+002 
2010000000  -5.290607e+000  1.599465e+002 
2015000000  -5.207889e+000  1.589044e+002 
2020000000  -5.218378e+000  1.572352e+002 
2025000000  -5.170310e+000  1.561464e+002 
2030000000  -5.116122e+000  1.548236e+002 
2035000000  -5.077261e+000  1.537685e+002 
2040000000  -5.044628e+000  1.524979e+002 
2045000000  -5.031831e+000  1.511653e+002 
2050000000  -4.936962e+000  1.496588e+002 
2055000000  -4.927011e+000  1.486032e+002 
2060000000  -4.909769e+000  1.472715e+002 
2065000000  -4.840824e+000  1.459740e+002 
2070000000  -4.837908e+000  1.446546e+002 
2075000000  -4.782245e+000  1.437213e+002 
2080000000  -4.755207e+000  1.421595e+002 
2085000000  -4.747257e+000  1.407013e+002 
2090000000  -4.719407e+000  1.396345e+002 
2095000000  -4.685938e+000  1.383836e+002 
2100000000  -4.653066e+000  1.370729e+002 
2105000000  -4.641312e+000  1.356319e+002 
2110000000  -4.613770e+000  1.345992e+002 
2115000000  -4.577853e+000  1.334938e+002 
2120000000  -4.530874e+000  1.321610e+002 
2125000000  -4.485175e+000  1.309947e+002 
2130000000  -4.499297e+000  1.298960e+002 
2135000000  -4.439403e+000  1.286225e+002 
2140000000  -4.431365e+000  1.272519e+002 
2145000000  -4.443348e+000  1.260045e+002 
2150000000  -4.411585e+000  1.250706e+002 
2155000000  -4.381880e+000  1.234902e+002 
2160000000  -4.337471e+000  1.223248e+002 
2165000000  -4.352408e+000  1.208839e+002 
2170000000  -4.338849e+000  1.197704e+002 
2175000000  -4.348673e+000  1.187158e+002 
2180000000  -4.241373e+000  1.175522e+002 
2185000000  -4.223647e+000  1.162693e+002 
2190000000  -4.236887e+000  1.150741e+002 
2195000000  -4.248511e+000  1.141241e+002 
2200000000  -4.203608e+000  1.126536e+002 
2205000000  -4.228060e+000  1.115487e+002 
2210000000  -4.185456e+000  1.104281e+002 
2215000000  -4.177587e+000  1.093591e+002 
2220000000  -4.134476e+000  1.080173e+002 
2225000000  -4.133776e+000  1.066807e+002 
2230000000  -4.128385e+000  1.056766e+002 
2235000000  -4.110376e+000  1.045756e+002 
2240000000  -4.115296e+000  1.035055e+002 
2245000000  -4.096606e+000  1.020869e+002 
2250000000  -4.088681e+000  1.008126e+002 
2255000000  -4.046697e+000  1.000041e+002 
2260000000  -4.063149e+000  9.860664e+001 
2265000000  -4.067689e+000  9.727712e+001 
2270000000  -4.017389e+000  9.625459e+001 
2275000000  -4.048362e+000  9.510381e+001 
2280000000  -3.981896e+000  9.387447e+001 
2285000000  -3.989311e+000  9.280552e+001 
2290000000  -3.980091e+000  9.165022e+001 
2295000000  -3.972923e+000  9.029244e+001 
2300000000  -3.989179e+000  8.911304e+001 
2305000000  -3.975676e+000  8.783436e+001 
2310000000  -3.992556e+000  8.706340e+001 
2315000000  -3.973898e+000  8.572516e+001 
2320000000  -3.977022e+000  8.467592e+001 
2325000000  -3.931939e+000  8.326187e+001 
2330000000  -3.943389e+000  8.216134e+001 
2335000000  -3.932906e+000  8.114367e+001 
2340000000  -3.916579e+000  7.962517e+001 
2345000000  -3.915103e+000  7.876175e+001 
2350000000  -3.912853e+000  7.710038e+001 
2355000000  -3.891526e+000  7.630805e+001 
2360000000  -3.894090e+000  7.497748e+001 
2365000000  -3.871203e+000  7.413805e+001 
2370000000  -3.872247e+000  7.281071e+001 
2375000000  -3.850088e+000  7.182110e+001 
2380000000  -3.873909e+000  7.053545e+001 
2385000000  -3.889708e+000  6.952263e+001 
2390000000  -3.864428e+000  6.833776e+001 
2395000000  -3.821887e+000  6.687990e+001 
2400000000  -3.871512e+000  6.605642e+001 
2405000000  -3.854906e+000  6.450074e+001 
2410000000  -3.875775e+000  6.330827e+001 
2415000000  -3.867865e+000  6.199853e+001 
2420000000  -3.876313e+000  6.128606e+001 
2425000000  -3.848622e+000  6.002553e+001 
2430000000  -3.833051e+000  5.838110e+001 
2435000000  -3.791944e+000  5.741715e+001 
2440000000  -3.860003e+000  5.616327e+001 
2445000000  -3.799331e+000  5.519347e+001 
2450000000  -3.841627e+000  5.421004e+001 
2455000000  -3.838755e+000  5.283339e+001 
2460000000  -3.798835e+000  5.159178e+001 
2465000000  -3.822527e+000  5.034511e+001 
2470000000  -3.794523e+000  4.914665e+001 
2475000000  -3.878997e+000  4.812791e+001 
2480000000  -3.855465e+000  4.698911e+001 
2485000000  -3.810728e+000  4.554793e+001 
2490000000  -3.826569e+000  4.450805e+001 
2495000000  -3.884218e+000  4.416599e+001 
2500000000  -3.868798e+000  4.192749e+001 
2505000000  -3.868681e+000  4.057682e+001 
2510000000  -3.845926e+000  3.972871e+001 
2515000000  -3.570345e+000  3.759207e+001 
2520000000  -3.823304e+000  3.709040e+001 
2525000000  -3.816840e+000  3.565900e+001 
2530000000  -3.792177e+000  3.440678e+001 
2535000000  -3.805372e+000  3.338528e+001 
2540000000  -3.780231e+000  3.220697e+001 
2545000000  -3.842428e+000  3.094999e+001 
2550000000  -3.804702e+000  2.965999e+001 
2555000000  -3.837087e+000  2.837454e+001 
2560000000  -3.833841e+000  2.720529e+001 
2565000000  -3.847991e+000  2.587303e+001 
2570000000  -3.815081e+000  2.465618e+001 
2575000000  -3.803623e+000  2.329246e+001 
2580000000  -3.851339e+000  2.229233e+001 
2585000000  -3.832784e+000  2.104287e+001 
2590000000  -3.837506e+000  1.981535e+001 
2595000000  -3.830841e+000  1.846299e+001 
2600000000  -3.822504e+000  1.721350e+001 
2605000000  -3.792458e+000  1.589733e+001 
2610000000  -3.835618e+000  1.485437e+001 
2615000000  -3.807330e+000  1.370274e+001 
2620000000  -3.869603e+000  1.228359e+001 
2625000000  -3.847363e+000  1.100737e+001 
2630000000  -3.869602e+000  9.282369e+000 
2635000000  -3.841757e+000  8.402025e+000 
2640000000  -3.876677e+000  6.875587e+000 
2645000000  -3.885796e+000  5.759213e+000 
2650000000  -3.849400e+000  4.391623e+000 
2655000000  -3.865321e+000  3.318325e+000 
2660000000  -3.897512e+000  1.876730e+000 
2665000000  -3.860229e+000  4.334727e-001 
2670000000  -3.838225e+000  -7.869022e-001 
2675000000  -3.874932e+000  -2.120613e+000 
2680000000  -3.878571e+000  -3.387659e+000 
2685000000  -3.891662e+000  -4.681429e+000 
2690000000  -3.846668e+000  -6.050524e+000 
2695000000  -3.897681e+000  -7.289486e+000 
2700000000  -3.850088e+000  -8.497006e+000 
2705000000  -3.851081e+000  -1.002734e+001 
2710000000  -3.866695e+000  -1.144735e+001 
2715000000  -3.860042e+000  -1.285967e+001 
2720000000  -3.851897e+000  -1.427622e+001 
2725000000  -3.871852e+000  -1.556765e+001 
2730000000  -3.897792e+000  -1.668866e+001 
2735000000  -3.874407e+000  -1.809055e+001 
2740000000  -3.853540e+000  -1.950601e+001 
2745000000  -3.879226e+000  -2.093207e+001 
2750000000  -3.868466e+000  -2.230061e+001 
2755000000  -3.889020e+000  -2.368647e+001 
2760000000  -3.871827e+000  -2.482286e+001 
2765000000  -3.872241e+000  -2.655833e+001 
2770000000  -3.895343e+000  -2.760474e+001 
2775000000  -3.876847e+000  -2.908757e+001 
2780000000  -3.908114e+000  -3.042237e+001 
2785000000  -3.895216e+000  -3.205941e+001 
2790000000  -3.874098e+000  -3.337815e+001 
2795000000  -3.885126e+000  -3.444632e+001 
2800000000  -3.869142e+000  -3.588830e+001 
2805000000  -3.903775e+000  -3.743226e+001 
2810000000  -3.917181e+000  -3.865178e+001 
2815000000  -3.898109e+000  -4.013090e+001 
2820000000  -3.898359e+000  -4.164066e+001 
2825000000  -3.908776e+000  -4.322398e+001 
2830000000  -3.865762e+000  -4.424844e+001 
2835000000  -3.873334e+000  -4.572620e+001 
2840000000  -3.856557e+000  -4.725956e+001 
2845000000  -3.864151e+000  -4.873551e+001 
2850000000  -3.894265e+000  -4.980197e+001 
2855000000  -3.871587e+000  -5.146859e+001 
2860000000  -3.878307e+000  -5.289588e+001 
2865000000  -3.858546e+000  -5.430014e+001 
2870000000  -3.875245e+000  -5.568106e+001 
2875000000  -3.859924e+000  -5.727293e+001 
2880000000  -3.857987e+000  -5.879008e+001 
2885000000  -3.836262e+000  -5.986999e+001 
2890000000  -3.848477e+000  -6.142618e+001 
2895000000  -3.841635e+000  -6.278985e+001 
2900000000  -3.828196e+000  -6.445599e+001 
2905000000  -3.811034e+000  -6.556190e+001 
2910000000  -3.825653e+000  -6.718301e+001 
2915000000  -3.812681e+000  -6.872630e+001 
2920000000  -3.772953e+000  -7.010756e+001 
2925000000  -3.788426e+000  -7.144342e+001 
2930000000  -3.808849e+000  -7.287939e+001 
2935000000  -3.802777e+000  -7.429388e+001 
2940000000  -3.753318e+000  -7.542697e+001 
2945000000  -3.791813e+000  -7.701466e+001 
2950000000  -3.753259e+000  -7.846097e+001 
2955000000  -3.757321e+000  -7.983571e+001 
2960000000  -3.733377e+000  -8.143582e+001 
2965000000  -3.721412e+000  -8.286125e+001 
2970000000  -3.774717e+000  -8.407965e+001 
2975000000  -3.715431e+000  -8.557590e+001 
2980000000  -3.701663e+000  -8.692280e+001 
2985000000  -3.710729e+000  -8.869008e+001 
2990000000  -3.700790e+000  -9.002256e+001 
2995000000  -3.705701e+000  -9.100675e+001 
3000000000  -3.711208e+000  -9.257928e+001 
