!Agilent Technologies,E8364A,US41440144,A.06.04.32
!Agilent E8364A: A.06.04.32
!Date: Friday, February 02, 2018 10:54:38
!Correction: S22(Full 2 Port(1,2)) 
!S1P File: Measurement: S22:
# Hz S  dB   R 50
2000000000  -5.820971e+000  -3.975282e+001 
2001250000  -5.818928e+000  -4.008691e+001 
2002500000  -5.816774e+000  -4.024619e+001 
2003750000  -5.814737e+000  -4.055990e+001 
2005000000  -5.819507e+000  -4.090725e+001 
2006250000  -5.809240e+000  -4.132531e+001 
2007500000  -5.823651e+000  -4.165707e+001 
2008750000  -5.818099e+000  -4.201949e+001 
2010000000  -5.822721e+000  -4.245524e+001 
2011250000  -5.878827e+000  -4.284866e+001 
2012500000  -5.924505e+000  -4.320490e+001 
2013750000  -5.946122e+000  -4.343290e+001 
2015000000  -5.955209e+000  -4.380672e+001 
2016250000  -5.911059e+000  -4.391601e+001 
2017500000  -5.869670e+000  -4.411812e+001 
2018750000  -5.867399e+000  -4.424656e+001 
2020000000  -5.871968e+000  -4.439894e+001 
2021250000  -5.899167e+000  -4.498046e+001 
2022500000  -5.950145e+000  -4.553698e+001 
2023750000  -5.982444e+000  -4.598857e+001 
2025000000  -5.991035e+000  -4.644514e+001 
2026250000  -6.017862e+000  -4.685762e+001 
2027500000  -6.019720e+000  -4.731261e+001 
2028750000  -6.022741e+000  -4.764896e+001 
2030000000  -6.022036e+000  -4.785522e+001 
2031250000  -5.972364e+000  -4.824435e+001 
2032500000  -5.938250e+000  -4.856987e+001 
2033750000  -5.904324e+000  -4.904046e+001 
2035000000  -5.893144e+000  -4.963786e+001 
2036250000  -5.969392e+000  -5.020751e+001 
2037500000  -6.030152e+000  -5.065307e+001 
2038750000  -6.060350e+000  -5.101723e+001 
2040000000  -6.089676e+000  -5.131516e+001 
2041250000  -6.080414e+000  -5.176704e+001 
2042500000  -6.085522e+000  -5.224803e+001 
2043750000  -6.095686e+000  -5.261320e+001 
2045000000  -6.101887e+000  -5.300578e+001 
2046250000  -6.105894e+000  -5.331730e+001 
2047500000  -6.118968e+000  -5.358957e+001 
2048750000  -6.119870e+000  -5.382452e+001 
2050000000  -6.128221e+000  -5.417818e+001 
2051250000  -6.087013e+000  -5.435561e+001 
2052500000  -6.041155e+000  -5.481129e+001 
2053750000  -6.021111e+000  -5.522760e+001 
2055000000  -6.028375e+000  -5.573271e+001 
2056250000  -6.071236e+000  -5.599458e+001 
2057500000  -6.130473e+000  -5.629997e+001 
2058750000  -6.158324e+000  -5.654769e+001 
2060000000  -6.158250e+000  -5.707956e+001 
2061250000  -6.163401e+000  -5.753237e+001 
2062500000  -6.182796e+000  -5.789764e+001 
2063750000  -6.182095e+000  -5.832320e+001 
2065000000  -6.190095e+000  -5.868340e+001 
2066250000  -6.211658e+000  -5.904385e+001 
2067500000  -6.242188e+000  -5.937596e+001 
2068750000  -6.287052e+000  -5.972210e+001 
2070000000  -6.307268e+000  -6.004082e+001 
2071250000  -6.304914e+000  -6.053551e+001 
2072500000  -6.289901e+000  -6.107698e+001 
2073750000  -6.289943e+000  -6.159892e+001 
2075000000  -6.324409e+000  -6.224638e+001 
2076250000  -6.312241e+000  -6.252865e+001 
2077500000  -6.304432e+000  -6.285840e+001 
2078750000  -6.281733e+000  -6.321488e+001 
2080000000  -6.294165e+000  -6.371487e+001 
2081250000  -6.330412e+000  -6.415310e+001 
2082500000  -6.372580e+000  -6.460782e+001 
2083750000  -6.411197e+000  -6.500285e+001 
2085000000  -6.406591e+000  -6.539427e+001 
2086250000  -6.367045e+000  -6.546095e+001 
2087500000  -6.329966e+000  -6.582414e+001 
2088750000  -6.307645e+000  -6.615329e+001 
2090000000  -6.324892e+000  -6.638221e+001 
2091250000  -6.371368e+000  -6.663977e+001 
2092500000  -6.419925e+000  -6.703542e+001 
2093750000  -6.486539e+000  -6.747258e+001 
2095000000  -6.511019e+000  -6.812572e+001 
2096250000  -6.498190e+000  -6.864472e+001 
2097500000  -6.461661e+000  -6.910529e+001 
2098750000  -6.439597e+000  -6.970010e+001 
2100000000  -6.375407e+000  -6.990723e+001 
2101250000  -6.397743e+000  -7.052628e+001 
2102500000  -6.408811e+000  -7.087643e+001 
2103750000  -6.415586e+000  -7.119981e+001 
2105000000  -6.400775e+000  -7.181634e+001 
2106250000  -6.431614e+000  -7.211726e+001 
2107500000  -6.444051e+000  -7.229444e+001 
2108750000  -6.441364e+000  -7.258823e+001 
2110000000  -6.458990e+000  -7.299362e+001 
2111250000  -6.472775e+000  -7.334441e+001 
2112500000  -6.502678e+000  -7.371620e+001 
2113750000  -6.506229e+000  -7.402562e+001 
2115000000  -6.536714e+000  -7.462192e+001 
2116250000  -6.560637e+000  -7.508260e+001 
2117500000  -6.577423e+000  -7.555946e+001 
2118750000  -6.606128e+000  -7.605737e+001 
2120000000  -6.650094e+000  -7.650227e+001 
2121250000  -6.698266e+000  -7.695679e+001 
2122500000  -6.710241e+000  -7.734432e+001 
2123750000  -6.742943e+000  -7.772820e+001 
2125000000  -6.781665e+000  -7.815289e+001 
2126250000  -6.776419e+000  -7.847628e+001 
2127500000  -6.785124e+000  -7.867783e+001 
2128750000  -6.795409e+000  -7.904868e+001 
2130000000  -6.802758e+000  -7.936623e+001 
2131250000  -6.810520e+000  -7.960169e+001 
2132500000  -6.829777e+000  -7.976329e+001 
2133750000  -6.834750e+000  -8.030704e+001 
2135000000  -6.834366e+000  -8.071246e+001 
2136250000  -6.873959e+000  -8.116840e+001 
2137500000  -6.928958e+000  -8.169031e+001 
2138750000  -6.977611e+000  -8.225188e+001 
2140000000  -7.004484e+000  -8.293446e+001 
2141250000  -7.024553e+000  -8.342279e+001 
2142500000  -7.039295e+000  -8.367377e+001 
2143750000  -7.046746e+000  -8.396838e+001 
2145000000  -7.075338e+000  -8.409099e+001 
2146250000  -7.109185e+000  -8.414962e+001 
2147500000  -7.150516e+000  -8.439610e+001 
2148750000  -7.193284e+000  -8.450030e+001 
2150000000  -7.255312e+000  -8.469889e+001 
2151250000  -7.336927e+000  -8.487911e+001 
2152500000  -7.399982e+000  -8.502759e+001 
2153750000  -7.455624e+000  -8.525487e+001 
2155000000  -7.493124e+000  -8.540187e+001 
2156250000  -7.509276e+000  -8.573428e+001 
2157500000  -7.506348e+000  -8.609317e+001 
2158750000  -7.475601e+000  -8.623912e+001 
2160000000  -7.487988e+000  -8.638031e+001 
2161250000  -7.501961e+000  -8.643512e+001 
2162500000  -7.514558e+000  -8.633029e+001 
2163750000  -7.518651e+000  -8.636729e+001 
2165000000  -7.543206e+000  -8.661519e+001 
2166250000  -7.552708e+000  -8.643327e+001 
2167500000  -7.537587e+000  -8.640470e+001 
2168750000  -7.528950e+000  -8.631689e+001 
2170000000  -7.488616e+000  -8.649307e+001 
2171250000  -7.450031e+000  -8.678191e+001 
2172500000  -7.404747e+000  -8.711278e+001 
2173750000  -7.381571e+000  -8.733806e+001 
2175000000  -7.330482e+000  -8.721442e+001 
2176250000  -7.334401e+000  -8.766692e+001 
2177500000  -7.345141e+000  -8.803820e+001 
2178750000  -7.358461e+000  -8.835629e+001 
2180000000  -7.360008e+000  -8.871089e+001 
2181250000  -7.308990e+000  -8.888393e+001 
2182500000  -7.278471e+000  -8.875586e+001 
2183750000  -7.257631e+000  -8.914157e+001 
2185000000  -7.230957e+000  -8.945644e+001 
2186250000  -7.190013e+000  -9.050478e+001 
2187500000  -7.181811e+000  -9.145040e+001 
2188750000  -7.131196e+000  -9.227417e+001 
2190000000  -7.116730e+000  -9.274655e+001 
2191250000  -7.091638e+000  -9.262877e+001 
2192500000  -7.073293e+000  -9.279621e+001 
2193750000  -7.060412e+000  -9.292622e+001 
2195000000  -7.047157e+000  -9.325450e+001 
2196250000  -7.136334e+000  -9.379459e+001 
2197500000  -7.201494e+000  -9.439241e+001 
2198750000  -7.254890e+000  -9.509832e+001 
2200000000  -7.294555e+000  -9.629968e+001 
2201250000  -7.240545e+000  -9.666945e+001 
2202500000  -7.223363e+000  -9.711405e+001 
2203750000  -7.193870e+000  -9.747360e+001 
2205000000  -7.125005e+000  -9.767513e+001 
2206250000  -7.150423e+000  -9.847382e+001 
2207500000  -7.184891e+000  -9.899905e+001 
2208750000  -7.212117e+000  -9.971818e+001 
2210000000  -7.228145e+000  -1.002752e+002 
2211250000  -7.276824e+000  -1.004662e+002 
2212500000  -7.333697e+000  -1.004192e+002 
2213750000  -7.400592e+000  -1.007009e+002 
2215000000  -7.472785e+000  -1.008790e+002 
2216250000  -7.442080e+000  -1.012952e+002 
2217500000  -7.432006e+000  -1.004952e+002 
2218750000  -7.386657e+000  -1.019742e+002 
2220000000  -7.385426e+000  -1.019812e+002 
2221250000  -7.387657e+000  -1.024141e+002 
2222500000  -7.361544e+000  -1.027476e+002 
2223750000  -7.365800e+000  -1.030589e+002 
2225000000  -7.344840e+000  -1.031109e+002 
2226250000  -7.378404e+000  -1.027930e+002 
2227500000  -7.428348e+000  -1.033125e+002 
2228750000  -7.486244e+000  -1.033050e+002 
2230000000  -7.507807e+000  -1.033627e+002 
2231250000  -7.554566e+000  -1.039330e+002 
2232500000  -7.609708e+000  -1.046789e+002 
2233750000  -1.218158e+001  -4.476244e+001 
2235000000  -6.992846e+000  -1.087450e+002 
2236250000  -7.620875e+000  -1.065790e+002 
2237500000  -7.549792e+000  -1.059691e+002 
2238750000  -7.655782e+000  -1.061558e+002 
2240000000  -7.485336e+000  -1.067953e+002 
2241250000  -7.644915e+000  -1.062905e+002 
2242500000  -7.666190e+000  -1.068566e+002 
2243750000  -7.702141e+000  -1.070929e+002 
2245000000  -7.641541e+000  -1.084326e+002 
2246250000  -7.655643e+000  -1.069767e+002 
2247500000  -7.628838e+000  -1.066964e+002 
2248750000  -7.643323e+000  -1.043647e+002 
2250000000  -8.074224e+000  -9.539370e+001 
2251250000  -3.689085e+000  -1.270075e+002 
2252500000  -6.779726e+000  -1.162948e+002 
2253750000  -7.067166e+000  -1.134451e+002 
2255000000  -7.318759e+000  -1.133402e+002 
2256250000  -7.325930e+000  -1.133319e+002 
2257500000  -7.339368e+000  -1.132171e+002 
2258750000  -7.292382e+000  -1.128264e+002 
2260000000  -7.320956e+000  -1.134256e+002 
2261250000  -7.375329e+000  -1.136353e+002 
2262500000  -7.397351e+000  -1.139158e+002 
2263750000  -7.400445e+000  -1.144124e+002 
2265000000  -7.431760e+000  -1.147166e+002 
2266250000  -7.304831e+000  -1.151793e+002 
2267500000  -7.199609e+000  -1.153364e+002 
2268750000  -7.229375e+000  -1.156850e+002 
2270000000  -7.191049e+000  -1.158991e+002 
2271250000  -7.246157e+000  -1.158169e+002 
2272500000  -7.300474e+000  -1.159109e+002 
2273750000  -7.346719e+000  -1.161207e+002 
2275000000  -7.362282e+000  -1.164235e+002 
2276250000  -7.331209e+000  -1.173514e+002 
2277500000  -7.292717e+000  -1.179428e+002 
2278750000  -7.283587e+000  -1.187131e+002 
2280000000  -7.310474e+000  -1.192748e+002 
2281250000  -7.306111e+000  -1.193990e+002 
2282500000  -7.300950e+000  -1.195702e+002 
2283750000  -7.300189e+000  -1.198079e+002 
2285000000  -7.264161e+000  -1.196873e+002 
2286250000  -7.247149e+000  -1.203984e+002 
2287500000  -7.247718e+000  -1.209012e+002 
2288750000  -7.254646e+000  -1.215522e+002 
2290000000  -7.252154e+000  -1.221341e+002 
2291250000  -7.260790e+000  -1.223954e+002 
2292500000  -7.266002e+000  -1.226280e+002 
2293750000  -7.292227e+000  -1.230229e+002 
2295000000  -7.316723e+000  -1.232498e+002 
2296250000  -7.317995e+000  -1.236988e+002 
2297500000  -7.336546e+000  -1.239628e+002 
2298750000  -7.344724e+000  -1.242452e+002 
2300000000  -7.346026e+000  -1.246649e+002 
2301250000  -7.323792e+000  -1.249656e+002 
2302500000  -7.300305e+000  -1.252467e+002 
2303750000  -7.273517e+000  -1.255870e+002 
2305000000  -7.253221e+000  -1.257563e+002 
2306250000  -7.257117e+000  -1.259952e+002 
2307500000  -7.257661e+000  -1.263868e+002 
2308750000  -7.245122e+000  -1.267962e+002 
2310000000  -7.216146e+000  -1.271934e+002 
2311250000  -7.160317e+000  -1.277886e+002 
2312500000  -7.137570e+000  -1.283215e+002 
2313750000  -7.115369e+000  -1.288469e+002 
2315000000  -7.088693e+000  -1.296810e+002 
2316250000  -7.133550e+000  -1.299952e+002 
2317500000  -7.162585e+000  -1.304149e+002 
2318750000  -7.179013e+000  -1.308704e+002 
2320000000  -7.194592e+000  -1.310860e+002 
2321250000  -7.178901e+000  -1.315798e+002 
2322500000  -7.163637e+000  -1.318854e+002 
2323750000  -7.154761e+000  -1.322924e+002 
2325000000  -7.158046e+000  -1.326758e+002 
2326250000  -7.182409e+000  -1.331205e+002 
2327500000  -7.205142e+000  -1.336264e+002 
2328750000  -7.225344e+000  -1.339459e+002 
2330000000  -7.230721e+000  -1.344225e+002 
2331250000  -7.225655e+000  -1.345465e+002 
2332500000  -7.216223e+000  -1.347663e+002 
2333750000  -7.213186e+000  -1.349499e+002 
2335000000  -7.197533e+000  -1.351023e+002 
2336250000  -7.206394e+000  -1.355854e+002 
2337500000  -7.213178e+000  -1.359504e+002 
2338750000  -7.224599e+000  -1.363359e+002 
2340000000  -7.218316e+000  -1.368432e+002 
2341250000  -7.214848e+000  -1.376048e+002 
2342500000  -7.204834e+000  -1.385431e+002 
2343750000  -7.228627e+000  -1.390930e+002 
2345000000  -7.259920e+000  -1.399083e+002 
2346250000  -7.324864e+000  -1.398361e+002 
2347500000  -7.398649e+000  -1.400982e+002 
2348750000  -7.440013e+000  -1.403209e+002 
2350000000  -7.470972e+000  -1.404805e+002 
2351250000  -7.395860e+000  -1.411157e+002 
2352500000  -7.352930e+000  -1.417017e+002 
2353750000  -7.329257e+000  -1.423001e+002 
2355000000  -7.292295e+000  -1.429120e+002 
2356250000  -7.345186e+000  -1.431863e+002 
2357500000  -7.404928e+000  -1.435631e+002 
2358750000  -7.406172e+000  -1.438250e+002 
2360000000  -7.430697e+000  -1.441147e+002 
2361250000  -7.413965e+000  -1.446432e+002 
2362500000  -7.408556e+000  -1.448491e+002 
2363750000  -7.389396e+000  -1.451149e+002 
2365000000  -7.382670e+000  -1.452950e+002 
2366250000  -7.475524e+000  -1.457092e+002 
2367500000  -7.548098e+000  -1.461180e+002 
2368750000  -7.610509e+000  -1.467442e+002 
2370000000  -7.628614e+000  -1.471703e+002 
2371250000  -7.610153e+000  -1.474242e+002 
2372500000  -7.634859e+000  -1.478247e+002 
2373750000  -7.622330e+000  -1.480862e+002 
2375000000  -7.647861e+000  -1.482854e+002 
2376250000  -7.686784e+000  -1.486375e+002 
2377500000  -7.711621e+000  -1.491349e+002 
2378750000  -7.774761e+000  -1.496138e+002 
2380000000  -7.807426e+000  -1.499212e+002 
2381250000  -7.867432e+000  -1.503298e+002 
2382500000  -7.922882e+000  -1.503112e+002 
2383750000  -7.954257e+000  -1.505636e+002 
2385000000  -7.998515e+000  -1.507400e+002 
2386250000  -8.015535e+000  -1.507500e+002 
2387500000  -8.044214e+000  -1.509012e+002 
2388750000  -8.046821e+000  -1.509051e+002 
2390000000  -8.033148e+000  -1.509243e+002 
2391250000  -7.981664e+000  -1.511154e+002 
2392500000  -7.932019e+000  -1.512563e+002 
2393750000  -7.912955e+000  -1.514160e+002 
2395000000  -7.891218e+000  -1.512132e+002 
2396250000  -7.998781e+000  -1.514395e+002 
2397500000  -8.046872e+000  -1.516012e+002 
2398750000  -8.077114e+000  -1.518714e+002 
2400000000  -8.100542e+000  -1.521030e+002 
2401250000  -8.015976e+000  -1.524379e+002 
2402500000  -7.959187e+000  -1.527380e+002 
2403750000  -7.945687e+000  -1.530154e+002 
2405000000  -7.936734e+000  -1.536754e+002 
2406250000  -7.976978e+000  -1.537628e+002 
2407500000  -8.028655e+000  -1.536416e+002 
2408750000  -8.041242e+000  -1.535619e+002 
2410000000  -8.046623e+000  -1.536004e+002 
2411250000  -7.961529e+000  -1.536292e+002 
2412500000  -7.903235e+000  -1.536822e+002 
2413750000  -7.849750e+000  -1.539317e+002 
2415000000  -7.785010e+000  -1.538931e+002 
2416250000  -7.724110e+000  -1.544766e+002 
2417500000  -7.708622e+000  -1.552567e+002 
2418750000  -7.690341e+000  -1.557813e+002 
2420000000  -7.693266e+000  -1.564160e+002 
2421250000  -7.749284e+000  -1.567396e+002 
2422500000  -7.803401e+000  -1.571785e+002 
2423750000  -7.813435e+000  -1.574891e+002 
2425000000  -7.797011e+000  -1.578503e+002 
2426250000  -7.700899e+000  -1.579414e+002 
2427500000  -7.620486e+000  -1.580419e+002 
2428750000  -7.566142e+000  -1.581175e+002 
2430000000  -7.516238e+000  -1.582778e+002 
2431250000  -7.546544e+000  -1.588394e+002 
2432500000  -7.562578e+000  -1.592766e+002 
2433750000  -7.585235e+000  -1.598191e+002 
2435000000  -7.565781e+000  -1.604934e+002 
2436250000  -7.517881e+000  -1.608066e+002 
2437500000  -7.465294e+000  -1.611174e+002 
2438750000  -7.430005e+000  -1.615095e+002 
2440000000  -7.356940e+000  -1.619628e+002 
2441250000  -7.315788e+000  -1.622103e+002 
2442500000  -7.280448e+000  -1.626764e+002 
2443750000  -7.264184e+000  -1.631407e+002 
2445000000  -7.282252e+000  -1.636171e+002 
2446250000  -7.367992e+000  -1.636932e+002 
2447500000  -7.439287e+000  -1.641112e+002 
2448750000  -7.495205e+000  -1.643117e+002 
2450000000  -7.532981e+000  -1.642276e+002 
2451250000  -7.454173e+000  -1.642926e+002 
2452500000  -7.352873e+000  -1.644712e+002 
2453750000  -7.289722e+000  -1.646875e+002 
2455000000  -7.252563e+000  -1.649899e+002 
2456250000  -7.276632e+000  -1.653414e+002 
2457500000  -7.305294e+000  -1.658446e+002 
2458750000  -7.316666e+000  -1.662154e+002 
2460000000  -7.339050e+000  -1.668021e+002 
2461250000  -7.354712e+000  -1.673926e+002 
2462500000  -7.335822e+000  -1.678571e+002 
2463750000  -7.321333e+000  -1.684849e+002 
2465000000  -7.291947e+000  -1.689928e+002 
2466250000  -7.197085e+000  -1.693291e+002 
2467500000  -7.121457e+000  -1.696583e+002 
2468750000  -7.075270e+000  -1.701423e+002 
2470000000  -7.029266e+000  -1.706176e+002 
2471250000  -7.084559e+000  -1.710028e+002 
2472500000  -7.146727e+000  -1.713320e+002 
2473750000  -7.184701e+000  -1.715608e+002 
2475000000  -7.213377e+000  -1.718086e+002 
2476250000  -7.216899e+000  -1.721119e+002 
2477500000  -7.192233e+000  -1.723274e+002 
2478750000  -7.226858e+000  -1.726872e+002 
2480000000  -7.227596e+000  -1.729555e+002 
2481250000  -7.270139e+000  -1.736182e+002 
2482500000  -7.293310e+000  -1.742099e+002 
2483750000  -7.300420e+000  -1.747491e+002 
2485000000  -7.290920e+000  -1.753289e+002 
2486250000  -7.193180e+000  -1.753826e+002 
2487500000  -7.141538e+000  -1.755530e+002 
2488750000  -7.119913e+000  -1.756624e+002 
2490000000  -7.045986e+000  -1.760678e+002 
2491250000  -7.102986e+000  -1.765656e+002 
2492500000  -7.159941e+000  -1.771994e+002 
2493750000  -7.161149e+000  -1.776761e+002 
2495000000  -7.179603e+000  -1.779864e+002 
2496250000  -7.137273e+000  -1.779782e+002 
2497500000  -7.088619e+000  -1.779624e+002 
2498750000  -7.075286e+000  -1.780081e+002 
2500000000  -7.034096e+000  -1.785332e+002 
2501250000  -7.051517e+000  -1.788035e+002 
2502500000  -7.072932e+000  -1.791211e+002 
2503750000  -7.081517e+000  -1.793606e+002 
2505000000  -7.103876e+000  -1.797293e+002 
2506250000  -7.056118e+000  -1.798645e+002 
2507500000  -7.029130e+000  1.797250e+002 
2508750000  -7.009647e+000  1.794096e+002 
2510000000  -6.991307e+000  1.789746e+002 
2511250000  -7.007361e+000  1.783380e+002 
2512500000  -6.987708e+000  1.776901e+002 
2513750000  -7.001923e+000  1.770076e+002 
2515000000  -6.973066e+000  1.766386e+002 
2516250000  -6.967536e+000  1.765983e+002 
2517500000  -6.985196e+000  1.766006e+002 
2518750000  -6.992164e+000  1.765262e+002 
2520000000  -7.011683e+000  1.763502e+002 
2521250000  -6.997075e+000  1.758555e+002 
2522500000  -6.994924e+000  1.754608e+002 
2523750000  -6.984799e+000  1.750265e+002 
2525000000  -7.002500e+000  1.744096e+002 
2526250000  -7.036535e+000  1.740647e+002 
2527500000  -7.049828e+000  1.739085e+002 
2528750000  -7.058167e+000  1.736286e+002 
2530000000  -7.065764e+000  1.735609e+002 
2531250000  -7.068222e+000  1.732136e+002 
2532500000  -7.046703e+000  1.727142e+002 
2533750000  -7.045909e+000  1.723500e+002 
2535000000  -7.044118e+000  1.719543e+002 
2536250000  -7.011684e+000  1.716627e+002 
2537500000  -6.981627e+000  1.713489e+002 
2538750000  -6.953506e+000  1.708746e+002 
2540000000  -6.951937e+000  1.706702e+002 
2541250000  -6.942289e+000  1.704260e+002 
2542500000  -6.971025e+000  1.703315e+002 
2543750000  -6.996930e+000  1.701400e+002 
2545000000  -7.033377e+000  1.699660e+002 
2546250000  -7.087956e+000  1.697674e+002 
2547500000  -7.141751e+000  1.692949e+002 
2548750000  -7.169113e+000  1.691638e+002 
