!Agilent Technologies,E8364A,US41440144,A.06.04.32
!Agilent E8364A: A.06.04.32
!Date: Friday, February 02, 2018 10:55:31
!Correction: S22(Full 2 Port(1,2)) 
!S1P File: Measurement: S22:
# Hz S  dB   R 50
2000000000  -4.389209e+000  -4.967913e+001 
2001250000  -4.382312e+000  -4.988316e+001 
2002500000  -4.371527e+000  -5.018761e+001 
2003750000  -4.368349e+000  -5.047348e+001 
2005000000  -4.368394e+000  -5.082888e+001 
2006250000  -4.356004e+000  -5.115113e+001 
2007500000  -4.353096e+000  -5.162017e+001 
2008750000  -4.361738e+000  -5.198808e+001 
2010000000  -4.360374e+000  -5.230894e+001 
2011250000  -4.417342e+000  -5.280637e+001 
2012500000  -4.443626e+000  -5.322137e+001 
2013750000  -4.474085e+000  -5.348876e+001 
2015000000  -4.463115e+000  -5.395783e+001 
2016250000  -4.435204e+000  -5.415470e+001 
2017500000  -4.407435e+000  -5.418496e+001 
2018750000  -4.381436e+000  -5.449781e+001 
2020000000  -4.383039e+000  -5.459307e+001 
2021250000  -4.410858e+000  -5.508780e+001 
2022500000  -4.449996e+000  -5.558151e+001 
2023750000  -4.468093e+000  -5.601422e+001 
2025000000  -4.483930e+000  -5.654867e+001 
2026250000  -4.487610e+000  -5.688694e+001 
2027500000  -4.499209e+000  -5.724121e+001 
2028750000  -4.490324e+000  -5.761147e+001 
2030000000  -4.479229e+000  -5.777423e+001 
2031250000  -4.436346e+000  -5.825341e+001 
2032500000  -4.422585e+000  -5.854254e+001 
2033750000  -4.406281e+000  -5.902518e+001 
2035000000  -4.392946e+000  -5.955517e+001 
2036250000  -4.439044e+000  -5.999479e+001 
2037500000  -4.485013e+000  -6.045930e+001 
2038750000  -4.501022e+000  -6.087988e+001 
2040000000  -4.509476e+000  -6.122969e+001 
2041250000  -4.504574e+000  -6.166802e+001 
2042500000  -4.485236e+000  -6.202034e+001 
2043750000  -4.502730e+000  -6.244015e+001 
2045000000  -4.503571e+000  -6.294201e+001 
2046250000  -4.510142e+000  -6.323363e+001 
2047500000  -4.513017e+000  -6.350721e+001 
2048750000  -4.497870e+000  -6.363951e+001 
2050000000  -4.507226e+000  -6.390228e+001 
2051250000  -4.479265e+000  -6.433412e+001 
2052500000  -4.436049e+000  -6.462191e+001 
2053750000  -4.414918e+000  -6.493322e+001 
2055000000  -4.428079e+000  -6.538088e+001 
2056250000  -4.462779e+000  -6.566283e+001 
2057500000  -4.475976e+000  -6.608150e+001 
2058750000  -4.501195e+000  -6.645750e+001 
2060000000  -4.511194e+000  -6.702843e+001 
2061250000  -4.507626e+000  -6.747223e+001 
2062500000  -4.501684e+000  -6.789015e+001 
2063750000  -4.494135e+000  -6.820683e+001 
2065000000  -4.492112e+000  -6.862125e+001 
2066250000  -4.504439e+000  -6.905187e+001 
2067500000  -4.542194e+000  -6.944965e+001 
2068750000  -4.542624e+000  -6.970213e+001 
2070000000  -4.567918e+000  -7.003740e+001 
2071250000  -4.554351e+000  -7.057322e+001 
2072500000  -4.561932e+000  -7.104779e+001 
2073750000  -4.546922e+000  -7.159229e+001 
2075000000  -4.584474e+000  -7.216673e+001 
2076250000  -4.585553e+000  -7.241006e+001 
2077500000  -4.541817e+000  -7.269286e+001 
2078750000  -4.529407e+000  -7.310915e+001 
2080000000  -4.501203e+000  -7.347801e+001 
2081250000  -4.541195e+000  -7.409362e+001 
2082500000  -4.576194e+000  -7.453208e+001 
2083750000  -4.582869e+000  -7.503654e+001 
2085000000  -4.585288e+000  -7.534191e+001 
2086250000  -4.564023e+000  -7.561004e+001 
2087500000  -4.529194e+000  -7.586195e+001 
2088750000  -4.512638e+000  -7.608829e+001 
2090000000  -4.547779e+000  -7.633451e+001 
2091250000  -4.581542e+000  -7.671236e+001 
2092500000  -4.645588e+000  -7.717780e+001 
2093750000  -4.687938e+000  -7.765427e+001 
2095000000  -4.719092e+000  -7.825656e+001 
2096250000  -4.694692e+000  -7.885956e+001 
2097500000  -4.671686e+000  -7.923434e+001 
2098750000  -4.643697e+000  -7.972083e+001 
2100000000  -4.539387e+000  -7.980305e+001 
2101250000  -4.545725e+000  -8.031573e+001 
2102500000  -4.565927e+000  -8.076929e+001 
2103750000  -4.561481e+000  -8.120691e+001 
2105000000  -4.558207e+000  -8.171107e+001 
2106250000  -4.563669e+000  -8.206190e+001 
2107500000  -4.558439e+000  -8.236485e+001 
2108750000  -4.573784e+000  -8.272448e+001 
2110000000  -4.576270e+000  -8.302032e+001 
2111250000  -4.599041e+000  -8.328499e+001 
2112500000  -4.603332e+000  -8.372596e+001 
2113750000  -4.609781e+000  -8.420245e+001 
2115000000  -4.633158e+000  -8.466332e+001 
2116250000  -4.655798e+000  -8.518758e+001 
2117500000  -4.650815e+000  -8.574532e+001 
2118750000  -4.657400e+000  -8.623283e+001 
2120000000  -4.676007e+000  -8.680241e+001 
2121250000  -4.691198e+000  -8.717160e+001 
2122500000  -4.733910e+000  -8.764849e+001 
2123750000  -4.756238e+000  -8.802818e+001 
2125000000  -4.792535e+000  -8.854151e+001 
2126250000  -4.760120e+000  -8.888798e+001 
2127500000  -4.798344e+000  -8.926026e+001 
2128750000  -4.790795e+000  -8.951132e+001 
2130000000  -4.798686e+000  -8.973966e+001 
2131250000  -4.800609e+000  -9.009836e+001 
2132500000  -4.808105e+000  -9.051021e+001 
2133750000  -4.801686e+000  -9.083701e+001 
2135000000  -4.778412e+000  -9.133582e+001 
2136250000  -4.823304e+000  -9.187157e+001 
2137500000  -4.860880e+000  -9.243556e+001 
2138750000  -4.913295e+000  -9.301360e+001 
2140000000  -4.914637e+000  -9.392696e+001 
2141250000  -4.912973e+000  -9.437135e+001 
2142500000  -4.907176e+000  -9.476826e+001 
2143750000  -4.923233e+000  -9.510029e+001 
2145000000  -4.942715e+000  -9.529600e+001 
2146250000  -4.972518e+000  -9.555690e+001 
2147500000  -5.033306e+000  -9.578783e+001 
2148750000  -5.100046e+000  -9.607892e+001 
2150000000  -5.145479e+000  -9.639610e+001 
2151250000  -5.206029e+000  -9.664917e+001 
2152500000  -5.267615e+000  -9.701654e+001 
2153750000  -5.323787e+000  -9.731204e+001 
2155000000  -5.374372e+000  -9.767197e+001 
2156250000  -5.359334e+000  -9.801052e+001 
2157500000  -5.367546e+000  -9.823326e+001 
2158750000  -5.391685e+000  -9.862245e+001 
2160000000  -5.373356e+000  -9.885052e+001 
2161250000  -5.411692e+000  -9.896833e+001 
2162500000  -5.428158e+000  -9.923287e+001 
2163750000  -5.467120e+000  -9.931574e+001 
2165000000  -5.514982e+000  -9.966186e+001 
2166250000  -5.553935e+000  -9.957969e+001 
2167500000  -5.577188e+000  -9.967847e+001 
2168750000  -5.569265e+000  -9.979251e+001 
2170000000  -5.602085e+000  -9.989555e+001 
2171250000  -5.574374e+000  -1.000298e+002 
2172500000  -5.549269e+000  -1.001165e+002 
2173750000  -5.528118e+000  -1.002581e+002 
2175000000  -5.530551e+000  -1.002640e+002 
2176250000  -5.556883e+000  -1.004776e+002 
2177500000  -5.595843e+000  -1.008118e+002 
2178750000  -5.617308e+000  -1.010959e+002 
2180000000  -5.650114e+000  -1.014860e+002 
2181250000  -5.628300e+000  -1.013181e+002 
2182500000  -5.625354e+000  -1.014172e+002 
2183750000  -5.594518e+000  -1.014137e+002 
2185000000  -5.598075e+000  -1.015212e+002 
2186250000  -5.535847e+000  -1.022058e+002 
2187500000  -5.520517e+000  -1.029727e+002 
2188750000  -5.493037e+000  -1.034263e+002 
2190000000  -5.402970e+000  -1.035383e+002 
2191250000  -5.423838e+000  -1.036026e+002 
2192500000  -5.418335e+000  -1.035012e+002 
2193750000  -5.416286e+000  -1.035009e+002 
2195000000  -5.408323e+000  -1.036033e+002 
2196250000  -5.456971e+000  -1.040501e+002 
2197500000  -5.486194e+000  -1.045948e+002 
2198750000  -5.501429e+000  -1.051800e+002 
2200000000  -5.523360e+000  -1.062712e+002 
2201250000  -5.450391e+000  -1.064396e+002 
2202500000  -5.420574e+000  -1.067768e+002 
2203750000  -5.386783e+000  -1.069709e+002 
2205000000  -5.303951e+000  -1.070771e+002 
2206250000  -5.280790e+000  -1.076863e+002 
2207500000  -5.297813e+000  -1.081821e+002 
2208750000  -5.291545e+000  -1.085855e+002 
2210000000  -5.262856e+000  -1.093723e+002 
2211250000  -5.289314e+000  -1.095022e+002 
2212500000  -5.321883e+000  -1.096704e+002 
2213750000  -5.366007e+000  -1.100056e+002 
2215000000  -5.407475e+000  -1.101500e+002 
2216250000  -5.370514e+000  -1.104057e+002 
2217500000  -5.337826e+000  -1.108619e+002 
2218750000  -5.329041e+000  -1.110207e+002 
2220000000  -5.288777e+000  -1.113005e+002 
2221250000  -5.253462e+000  -1.115620e+002 
2222500000  -5.241271e+000  -1.119409e+002 
2223750000  -5.205540e+000  -1.125229e+002 
2225000000  -5.198096e+000  -1.127794e+002 
2226250000  -5.216503e+000  -1.128663e+002 
2227500000  -5.247711e+000  -1.128157e+002 
2228750000  -5.266433e+000  -1.129587e+002 
2230000000  -5.273466e+000  -1.130975e+002 
2231250000  -5.301513e+000  -1.140251e+002 
2232500000  -5.342420e+000  -1.144811e+002 
2233750000  -5.352083e+000  -1.151969e+002 
2235000000  -5.344117e+000  -1.157700e+002 
2236250000  -5.329726e+000  -1.160877e+002 
2237500000  -5.301394e+000  -1.164641e+002 
2238750000  -5.254833e+000  -1.166680e+002 
2240000000  -5.258959e+000  -1.168130e+002 
2241250000  -5.272572e+000  -1.174619e+002 
2242500000  -5.297330e+000  -1.180001e+002 
2243750000  -5.292233e+000  -1.185390e+002 
2245000000  -5.262680e+000  -1.189620e+002 
2246250000  -5.192289e+000  -1.191785e+002 
2247500000  -5.100822e+000  -1.194660e+002 
2248750000  -5.056190e+000  -1.197252e+002 
2250000000  -5.029540e+000  -1.198837e+002 
2251250000  -5.082825e+000  -1.202724e+002 
2252500000  -5.102417e+000  -1.208351e+002 
2253750000  -5.161206e+000  -1.212287e+002 
2255000000  -5.242427e+000  -1.220544e+002 
2256250000  -5.191042e+000  -1.222158e+002 
2257500000  -5.165780e+000  -1.225117e+002 
2258750000  -5.165975e+000  -1.226661e+002 
2260000000  -5.143154e+000  -1.230000e+002 
2261250000  -5.173563e+000  -1.233367e+002 
2262500000  -5.186968e+000  -1.238318e+002 
2263750000  -5.202589e+000  -1.242173e+002 
2265000000  -5.191738e+000  -1.246129e+002 
2266250000  -5.099954e+000  -1.249901e+002 
2267500000  -5.051308e+000  -1.253851e+002 
2268750000  -4.997977e+000  -1.255696e+002 
2270000000  -4.965688e+000  -1.257706e+002 
2271250000  -5.036003e+000  -1.258809e+002 
2272500000  -5.068813e+000  -1.262175e+002 
2273750000  -5.095189e+000  -1.263913e+002 
2275000000  -5.102847e+000  -1.267291e+002 
2276250000  -5.077616e+000  -1.275700e+002 
2277500000  -5.060559e+000  -1.281873e+002 
2278750000  -5.037008e+000  -1.288137e+002 
2280000000  -5.032055e+000  -1.295510e+002 
2281250000  -5.024635e+000  -1.297405e+002 
2282500000  -5.034857e+000  -1.299679e+002 
2283750000  -5.042629e+000  -1.301030e+002 
2285000000  -5.001677e+000  -1.300659e+002 
2286250000  -4.990600e+000  -1.307035e+002 
2287500000  -4.973113e+000  -1.311683e+002 
2288750000  -4.955543e+000  -1.317289e+002 
2290000000  -4.931615e+000  -1.324276e+002 
2291250000  -4.951602e+000  -1.328039e+002 
2292500000  -4.969550e+000  -1.332216e+002 
2293750000  -5.014393e+000  -1.335517e+002 
2295000000  -5.013211e+000  -1.339334e+002 
2296250000  -5.034214e+000  -1.343034e+002 
2297500000  -5.042078e+000  -1.345601e+002 
2298750000  -5.056682e+000  -1.349775e+002 
2300000000  -5.065963e+000  -1.353454e+002 
2301250000  -5.055770e+000  -1.356236e+002 
2302500000  -5.037041e+000  -1.360471e+002 
2303750000  -5.020627e+000  -1.363545e+002 
2305000000  -5.005997e+000  -1.365863e+002 
2306250000  -5.002002e+000  -1.368027e+002 
2307500000  -5.013263e+000  -1.370660e+002 
2308750000  -4.998010e+000  -1.374918e+002 
2310000000  -4.980124e+000  -1.378188e+002 
2311250000  -4.950140e+000  -1.383288e+002 
2312500000  -4.916402e+000  -1.388219e+002 
2313750000  -4.901430e+000  -1.394656e+002 
2315000000  -4.878976e+000  -1.402211e+002 
2316250000  -4.904838e+000  -1.405915e+002 
2317500000  -4.914262e+000  -1.409444e+002 
2318750000  -4.955841e+000  -1.413318e+002 
2320000000  -4.975281e+000  -1.416486e+002 
2321250000  -4.957459e+000  -1.420332e+002 
2322500000  -4.947331e+000  -1.423789e+002 
2323750000  -4.934593e+000  -1.428095e+002 
2325000000  -4.929551e+000  -1.431442e+002 
2326250000  -4.965852e+000  -1.435389e+002 
2327500000  -4.976906e+000  -1.438815e+002 
2328750000  -4.977170e+000  -1.442833e+002 
2330000000  -5.001206e+000  -1.446801e+002 
2331250000  -4.990943e+000  -1.449623e+002 
2332500000  -5.002824e+000  -1.450963e+002 
2333750000  -4.980721e+000  -1.452557e+002 
2335000000  -4.973099e+000  -1.454996e+002 
2336250000  -4.976717e+000  -1.458890e+002 
2337500000  -4.995931e+000  -1.462474e+002 
2338750000  -5.028320e+000  -1.467713e+002 
2340000000  -5.032198e+000  -1.471526e+002 
2341250000  -4.995296e+000  -1.479001e+002 
2342500000  -5.038484e+000  -1.485669e+002 
2343750000  -4.999377e+000  -1.494364e+002 
2345000000  -5.027353e+000  -1.501911e+002 
2346250000  -5.073674e+000  -1.502713e+002 
2347500000  -5.121604e+000  -1.504691e+002 
2348750000  -5.168355e+000  -1.507491e+002 
2350000000  -5.203303e+000  -1.508826e+002 
2351250000  -5.149015e+000  -1.514070e+002 
2352500000  -5.077227e+000  -1.519280e+002 
2353750000  -5.082490e+000  -1.523131e+002 
2355000000  -5.057785e+000  -1.531409e+002 
2356250000  -5.105333e+000  -1.535749e+002 
2357500000  -5.142700e+000  -1.538247e+002 
2358750000  -5.170039e+000  -1.540759e+002 
2360000000  -5.198642e+000  -1.544499e+002 
2361250000  -5.170967e+000  -1.549392e+002 
2362500000  -5.178021e+000  -1.551307e+002 
2363750000  -5.170950e+000  -1.554968e+002 
2365000000  -5.170574e+000  -1.556333e+002 
2366250000  -5.241605e+000  -1.561619e+002 
2367500000  -5.319251e+000  -1.565611e+002 
2368750000  -5.372512e+000  -1.570197e+002 
2370000000  -5.408914e+000  -1.575260e+002 
2371250000  -5.407755e+000  -1.576292e+002 
2372500000  -5.396071e+000  -1.579899e+002 
2373750000  -5.422108e+000  -1.582677e+002 
2375000000  -5.438799e+000  -1.582999e+002 
2376250000  -5.470405e+000  -1.588068e+002 
2377500000  -5.499254e+000  -1.593595e+002 
2378750000  -5.526310e+000  -1.597165e+002 
2380000000  -5.584941e+000  -1.601371e+002 
2381250000  -5.619911e+000  -1.603651e+002 
2382500000  -5.679605e+000  -1.605701e+002 
2383750000  -5.740154e+000  -1.606034e+002 
2385000000  -5.796667e+000  -1.608063e+002 
2386250000  -5.814806e+000  -1.610108e+002 
2387500000  -5.847875e+000  -1.611145e+002 
2388750000  -5.853505e+000  -1.612547e+002 
2390000000  -5.853028e+000  -1.612946e+002 
2391250000  -5.823883e+000  -1.613064e+002 
2392500000  -5.792713e+000  -1.614073e+002 
2393750000  -5.780311e+000  -1.615361e+002 
2395000000  -5.773659e+000  -1.614273e+002 
2396250000  -5.839251e+000  -1.616479e+002 
2397500000  -5.892945e+000  -1.617472e+002 
2398750000  -5.941854e+000  -1.618793e+002 
2400000000  -5.955416e+000  -1.619276e+002 
2401250000  -5.905718e+000  -1.622581e+002 
2402500000  -5.848453e+000  -1.623702e+002 
2403750000  -5.823961e+000  -1.626195e+002 
2405000000  -5.835825e+000  -1.631901e+002 
2406250000  -5.879174e+000  -1.632105e+002 
2407500000  -5.892196e+000  -1.631926e+002 
2408750000  -5.911584e+000  -1.630724e+002 
2410000000  -5.918858e+000  -1.630411e+002 
2411250000  -5.849582e+000  -1.631818e+002 
2412500000  -5.794167e+000  -1.632707e+002 
2413750000  -5.728816e+000  -1.633262e+002 
2415000000  -5.678445e+000  -1.633752e+002 
2416250000  -5.633807e+000  -1.638973e+002 
2417500000  -5.599598e+000  -1.643488e+002 
2418750000  -5.579580e+000  -1.649128e+002 
2420000000  -5.580590e+000  -1.654737e+002 
2421250000  -5.612758e+000  -1.656621e+002 
2422500000  -5.643352e+000  -1.660706e+002 
2423750000  -5.650817e+000  -1.664129e+002 
2425000000  -5.648849e+000  -1.667195e+002 
2426250000  -5.555762e+000  -1.668307e+002 
2427500000  -5.489998e+000  -1.668857e+002 
2428750000  -5.442486e+000  -1.668922e+002 
2430000000  -5.390113e+000  -1.669937e+002 
2431250000  -5.421516e+000  -1.674325e+002 
2432500000  -5.420272e+000  -1.679958e+002 
2433750000  -5.424560e+000  -1.684396e+002 
2435000000  -5.425398e+000  -1.690011e+002 
2436250000  -5.361033e+000  -1.693010e+002 
2437500000  -5.338040e+000  -1.695915e+002 
2438750000  -5.305016e+000  -1.698981e+002 
2440000000  -5.245517e+000  -1.702324e+002 
2441250000  -5.171834e+000  -1.706227e+002 
2442500000  -5.165559e+000  -1.710113e+002 
2443750000  -5.148775e+000  -1.716088e+002 
2445000000  -5.160652e+000  -1.718763e+002 
2446250000  -5.318294e+000  -1.721584e+002 
2447500000  -5.279042e+000  -1.724901e+002 
2448750000  -5.336630e+000  -1.727219e+002 
2450000000  -5.398046e+000  -1.725372e+002 
2451250000  -5.294444e+000  -1.724954e+002 
2452500000  -5.227559e+000  -1.726009e+002 
2453750000  -5.150789e+000  -1.727911e+002 
2455000000  -5.133305e+000  -1.730683e+002 
2456250000  -5.127118e+000  -1.735090e+002 
2457500000  -5.137745e+000  -1.739496e+002 
2458750000  -5.161308e+000  -1.744053e+002 
2460000000  -5.190094e+000  -1.748422e+002 
2461250000  -5.139462e+000  -1.755061e+002 
2462500000  -3.566978e+000  1.606482e+002 
2463750000  -4.519612e+000  -1.712358e+002 
2465000000  -5.066668e+000  -1.768203e+002 
2466250000  -4.992094e+000  -1.768001e+002 
2467500000  -4.941442e+000  -1.774373e+002 
2468750000  -4.699464e+000  -1.770694e+002 
2470000000  -4.887943e+000  -1.784332e+002 
2471250000  -4.897662e+000  -1.785998e+002 
2472500000  -4.982126e+000  -1.789628e+002 
2473750000  -5.242527e+000  -1.777277e+002 
2475000000  -4.991807e+000  -1.795518e+002 
2476250000  -5.020193e+000  -1.797126e+002 
2477500000  -5.012955e+000  -1.798492e+002 
2478750000  -5.483562e+000  -1.777626e+002 
2480000000  -6.587291e+000  -1.765256e+002 
2481250000  -5.224281e+000  1.792206e+002 
2482500000  -5.056048e+000  1.779117e+002 
2483750000  -5.043160e+000  1.777706e+002 
2485000000  -5.022602e+000  1.773215e+002 
2486250000  -4.966393e+000  1.771603e+002 
2487500000  -4.972457e+000  1.771814e+002 
2488750000  -4.887662e+000  1.768013e+002 
2490000000  -4.801500e+000  1.763908e+002 
2491250000  -4.850931e+000  1.757954e+002 
2492500000  -4.874937e+000  1.753013e+002 
2493750000  -4.883673e+000  1.748580e+002 
2495000000  -4.890997e+000  1.747808e+002 
2496250000  -4.782826e+000  1.749657e+002 
2497500000  -4.836408e+000  1.746416e+002 
2498750000  -4.852034e+000  1.746205e+002 
2500000000  -4.792996e+000  1.740830e+002 
2501250000  -4.810643e+000  1.737408e+002 
2502500000  -4.832352e+000  1.733392e+002 
2503750000  -4.808704e+000  1.730462e+002 
2505000000  -4.820463e+000  1.727294e+002 
2506250000  -4.788847e+000  1.725314e+002 
2507500000  -4.762494e+000  1.721777e+002 
2508750000  -4.737898e+000  1.718705e+002 
2510000000  -4.723341e+000  1.714936e+002 
2511250000  -4.731493e+000  1.709210e+002 
2512500000  -4.734267e+000  1.703923e+002 
2513750000  -4.716243e+000  1.698940e+002 
2515000000  -4.691788e+000  1.694466e+002 
2516250000  -4.698430e+000  1.693529e+002 
2517500000  -4.710682e+000  1.690943e+002 
2518750000  -4.696951e+000  1.690323e+002 
2520000000  -4.726851e+000  1.688946e+002 
2521250000  -4.725575e+000  1.684369e+002 
2522500000  -4.704604e+000  1.680037e+002 
2523750000  -4.692646e+000  1.675497e+002 
2525000000  -4.697571e+000  1.670727e+002 
2526250000  -4.731777e+000  1.667945e+002 
2527500000  -4.758892e+000  1.664437e+002 
2528750000  -4.770465e+000  1.662026e+002 
2530000000  -4.771366e+000  1.660915e+002 
2531250000  -4.756835e+000  1.656107e+002 
2532500000  -4.754511e+000  1.650487e+002 
2533750000  -4.746201e+000  1.648180e+002 
2535000000  -4.743548e+000  1.643313e+002 
2536250000  -4.715063e+000  1.640125e+002 
2537500000  -4.719755e+000  1.637171e+002 
2538750000  -4.705621e+000  1.635413e+002 
2540000000  -4.683763e+000  1.632400e+002 
2541250000  -4.691626e+000  1.629426e+002 
2542500000  -4.697055e+000  1.627592e+002 
2543750000  -4.707312e+000  1.625228e+002 
2545000000  -4.725525e+000  1.623929e+002 
2546250000  -4.764857e+000  1.619758e+002 
2547500000  -4.808903e+000  1.615333e+002 
2548750000  -4.818207e+000  1.613459e+002 
2550000000  -4.858414e+000  1.614119e+002 
