!Agilent Technologies,E8364A,US41440144,A.06.04.32
!Agilent E8364A: A.06.04.32
!Date: Friday, February 02, 2018 10:57:04
!Correction: S22(Full 2 Port(1,2)) 
!S1P File: Measurement: S22:
# Hz S  dB   R 50
2000000000  -5.479005e+000  -4.503053e+001 
2001250000  -5.444976e+000  -4.531478e+001 
2002500000  -5.456994e+000  -4.544828e+001 
2003750000  -5.444369e+000  -4.576664e+001 
2005000000  -5.434935e+000  -4.594707e+001 
2006250000  -5.415744e+000  -4.656793e+001 
2007500000  -5.406628e+000  -4.702299e+001 
2008750000  -5.439585e+000  -4.722613e+001 
2010000000  -5.413152e+000  -4.772794e+001 
2011250000  -5.474732e+000  -4.804739e+001 
2012500000  -5.523439e+000  -4.852738e+001 
2013750000  -5.536247e+000  -4.895436e+001 
2015000000  -5.535090e+000  -4.928754e+001 
2016250000  -5.470025e+000  -4.941615e+001 
2017500000  -5.448699e+000  -4.955433e+001 
2018750000  -5.464631e+000  -4.977871e+001 
2020000000  -5.443995e+000  -4.981945e+001 
2021250000  -5.481953e+000  -5.053137e+001 
2022500000  -5.512601e+000  -5.098245e+001 
2023750000  -5.540668e+000  -5.143529e+001 
2025000000  -5.565036e+000  -5.156530e+001 
2026250000  -5.565525e+000  -5.232452e+001 
2027500000  -5.541408e+000  -5.258825e+001 
2028750000  -5.559633e+000  -5.320463e+001 
2030000000  -5.659811e+000  -5.211996e+001 
2031250000  -5.489653e+000  -5.338156e+001 
2032500000  -5.466940e+000  -5.393710e+001 
2033750000  -5.418074e+000  -5.434514e+001 
2035000000  -5.446488e+000  -5.486348e+001 
2036250000  -5.521694e+000  -5.535133e+001 
2037500000  -5.546038e+000  -5.581621e+001 
2038750000  -5.585372e+000  -5.609173e+001 
2040000000  -5.659754e+000  -5.615237e+001 
2041250000  -5.743537e+000  -5.688088e+001 
2042500000  -5.591713e+000  -5.763202e+001 
2043750000  -5.627129e+000  -5.817023e+001 
2045000000  -5.638634e+000  -5.839293e+001 
2046250000  -5.612032e+000  -5.876566e+001 
2047500000  -5.618595e+000  -5.904443e+001 
2048750000  -5.674133e+000  -6.042861e+001 
2050000000  -5.638177e+000  -5.953449e+001 
2051250000  -5.599585e+000  -5.966566e+001 
2052500000  -5.523398e+000  -6.014161e+001 
2053750000  -5.527558e+000  -6.071447e+001 
2055000000  -5.519309e+000  -6.117617e+001 
2056250000  -5.587512e+000  -6.123505e+001 
2057500000  -5.591869e+000  -6.167309e+001 
2058750000  -5.622122e+000  -6.202138e+001 
2060000000  -5.650724e+000  -6.262679e+001 
2061250000  -5.626928e+000  -6.302481e+001 
2062500000  -5.648314e+000  -6.342561e+001 
2063750000  -5.666651e+000  -6.371090e+001 
2065000000  -5.651370e+000  -6.420667e+001 
2066250000  -5.657584e+000  -6.469447e+001 
2067500000  -5.688992e+000  -6.496478e+001 
2068750000  -5.732544e+000  -6.530463e+001 
2070000000  -5.742078e+000  -6.549067e+001 
2071250000  -5.725757e+000  -6.597169e+001 
2072500000  -5.690147e+000  -6.667182e+001 
2073750000  -5.690422e+000  -6.719316e+001 
2075000000  -5.726653e+000  -6.773763e+001 
2076250000  -5.696978e+000  -6.800504e+001 
2077500000  -5.655502e+000  -6.847201e+001 
2078750000  -5.667591e+000  -6.889630e+001 
2080000000  -5.676527e+000  -6.930257e+001 
2081250000  -5.703016e+000  -7.003720e+001 
2082500000  -5.730325e+000  -7.014864e+001 
2083750000  -5.746347e+000  -7.085061e+001 
2085000000  -5.778817e+000  -7.087201e+001 
2086250000  -5.759341e+000  -7.127744e+001 
2087500000  -5.701333e+000  -7.145064e+001 
2088750000  -5.684679e+000  -7.179697e+001 
2090000000  -5.679236e+000  -7.222417e+001 
2091250000  -5.733491e+000  -7.223122e+001 
2092500000  -5.793869e+000  -7.266218e+001 
2093750000  -5.849180e+000  -7.311500e+001 
2095000000  -5.868535e+000  -7.409932e+001 
2096250000  -5.890579e+000  -7.456944e+001 
2097500000  -5.814013e+000  -7.504193e+001 
2098750000  -5.770439e+000  -7.555505e+001 
2100000000  -5.718911e+000  -7.586924e+001 
2101250000  -5.713488e+000  -7.613226e+001 
2102500000  -5.724193e+000  -7.664787e+001 
2103750000  -5.734995e+000  -7.707664e+001 
2105000000  -5.707932e+000  -7.760542e+001 
2106250000  -5.735772e+000  -7.802520e+001 
2107500000  -5.768191e+000  -7.824007e+001 
2108750000  -5.718594e+000  -7.871320e+001 
2110000000  -5.768673e+000  -7.883009e+001 
2111250000  -5.793841e+000  -7.920164e+001 
2112500000  -5.801130e+000  -7.931332e+001 
2113750000  -5.798570e+000  -8.020302e+001 
2115000000  -5.818886e+000  -8.045409e+001 
2116250000  -5.856647e+000  -8.096059e+001 
2117500000  -5.820481e+000  -8.157380e+001 
2118750000  -5.841476e+000  -8.200638e+001 
2120000000  -5.865979e+000  -8.275838e+001 
2121250000  -5.901444e+000  -8.301573e+001 
2122500000  -5.908676e+000  -8.335464e+001 
2123750000  -5.951156e+000  -8.412871e+001 
2125000000  -5.938555e+000  -8.460666e+001 
2126250000  -5.950320e+000  -8.484686e+001 
2127500000  -5.991423e+000  -8.527476e+001 
2128750000  -5.999763e+000  -8.575514e+001 
2130000000  -5.973657e+000  -8.600161e+001 
2131250000  -6.024457e+000  -8.664406e+001 
2132500000  -6.049634e+000  -8.679163e+001 
2133750000  -6.011294e+000  -8.741428e+001 
2135000000  -6.039414e+000  -8.770050e+001 
2136250000  -6.081919e+000  -8.820202e+001 
2137500000  -6.134228e+000  -8.892162e+001 
2138750000  -6.176077e+000  -8.942245e+001 
2140000000  -6.203756e+000  -9.044453e+001 
2141250000  -6.221050e+000  -9.093716e+001 
2142500000  -6.276046e+000  -9.114761e+001 
2143750000  -6.204751e+000  -9.141308e+001 
2145000000  -6.278795e+000  -9.160497e+001 
2146250000  -6.356415e+000  -9.208739e+001 
2147500000  -6.421454e+000  -9.200059e+001 
2148750000  -6.458323e+000  -9.243176e+001 
2150000000  -6.529295e+000  -9.279278e+001 
2151250000  -6.613649e+000  -9.298680e+001 
2152500000  -6.665510e+000  -9.302554e+001 
2153750000  -6.706069e+000  -9.327231e+001 
2155000000  -6.752740e+000  -9.366101e+001 
2156250000  -6.790049e+000  -9.416367e+001 
2157500000  -6.809924e+000  -9.431367e+001 
2158750000  -6.813150e+000  -9.472941e+001 
2160000000  -6.841626e+000  -9.477481e+001 
2161250000  -6.859330e+000  -9.473851e+001 
2162500000  -6.872237e+000  -9.493680e+001 
2163750000  -6.939726e+000  -9.490223e+001 
2165000000  -6.977540e+000  -9.537080e+001 
2166250000  -6.983984e+000  -9.511990e+001 
2167500000  -7.032543e+000  -9.511485e+001 
2168750000  -7.064616e+000  -9.505300e+001 
2170000000  -7.050486e+000  -9.492008e+001 
2171250000  -7.007235e+000  -9.542279e+001 
2172500000  -6.972597e+000  -9.542795e+001 
2173750000  -6.953028e+000  -9.546472e+001 
2175000000  -6.966357e+000  -9.542353e+001 
2176250000  -6.965527e+000  -9.571621e+001 
2177500000  -7.010641e+000  -9.587629e+001 
2178750000  -7.030731e+000  -9.626697e+001 
2180000000  -7.039894e+000  -9.629172e+001 
2181250000  -6.991441e+000  -9.611154e+001 
2182500000  -7.009762e+000  -9.625444e+001 
2183750000  -7.013888e+000  -9.629752e+001 
2185000000  -7.044239e+000  -9.621853e+001 
2186250000  -6.925350e+000  -9.739172e+001 
2187500000  -6.899010e+000  -9.799724e+001 
2188750000  -6.872534e+000  -9.840797e+001 
2190000000  -6.791003e+000  -9.879408e+001 
2191250000  -6.797080e+000  -9.858449e+001 
2192500000  -6.786695e+000  -9.858052e+001 
2193750000  -6.775723e+000  -9.865195e+001 
2195000000  -6.729984e+000  -9.854837e+001 
2196250000  -6.815051e+000  -9.917706e+001 
2197500000  -6.828446e+000  -9.970040e+001 
2198750000  -6.869211e+000  -1.000774e+002 
2200000000  -6.911374e+000  -1.010008e+002 
2201250000  -6.822318e+000  -1.015738e+002 
2202500000  -6.768039e+000  -1.020854e+002 
2203750000  -6.728199e+000  -1.021164e+002 
2205000000  -6.670138e+000  -1.022243e+002 
2206250000  -6.614684e+000  -1.029514e+002 
2207500000  -6.628013e+000  -1.036601e+002 
2208750000  -6.663844e+000  -1.042424e+002 
2210000000  -6.652860e+000  -1.046785e+002 
2211250000  -6.675941e+000  -1.056729e+002 
2212500000  -6.685542e+000  -1.051017e+002 
2213750000  -6.728371e+000  -1.051599e+002 
2215000000  -6.813083e+000  -1.053469e+002 
2216250000  -6.523392e+000  -1.057606e+002 
2217500000  -6.751914e+000  -1.060507e+002 
2218750000  -6.689357e+000  -1.065380e+002 
2220000000  -6.643632e+000  -1.064597e+002 
2221250000  -6.574461e+000  -1.071762e+002 
2222500000  -6.591529e+000  -1.074309e+002 
2223750000  -6.569275e+000  -1.078681e+002 
2225000000  -6.565939e+000  -1.081962e+002 
2226250000  -6.556228e+000  -1.079010e+002 
2227500000  -6.623720e+000  -1.082308e+002 
2228750000  -6.618155e+000  -1.082175e+002 
2230000000  -6.650480e+000  -1.085456e+002 
2231250000  -6.645524e+000  -1.090721e+002 
2232500000  -6.689794e+000  -1.096559e+002 
2233750000  -6.690586e+000  -1.103903e+002 
2235000000  -6.732257e+000  -1.108587e+002 
2236250000  -6.700455e+000  -1.113748e+002 
2237500000  -6.637107e+000  -1.117171e+002 
2238750000  -6.649749e+000  -1.121339e+002 
2240000000  -6.574517e+000  -1.122081e+002 
2241250000  -6.642155e+000  -1.130179e+002 
2242500000  -6.658350e+000  -1.133051e+002 
2243750000  -6.643354e+000  -1.139436e+002 
2245000000  -6.661629e+000  -1.145692e+002 
2246250000  -6.529530e+000  -1.147817e+002 
2247500000  -6.470809e+000  -1.149722e+002 
2248750000  -6.409141e+000  -1.153603e+002 
2250000000  -6.368207e+000  -1.154996e+002 
2251250000  -6.418302e+000  -1.160501e+002 
2252500000  -6.513129e+000  -1.164319e+002 
2253750000  -6.523115e+000  -1.170663e+002 
2255000000  -6.624867e+000  -1.176923e+002 
2256250000  -6.531734e+000  -1.177599e+002 
2257500000  -6.519032e+000  -1.182476e+002 
2258750000  -6.531710e+000  -1.182560e+002 
2260000000  -6.493058e+000  -1.186151e+002 
2261250000  -6.520315e+000  -1.191881e+002 
2262500000  -6.566872e+000  -1.192863e+002 
2263750000  -6.574532e+000  -1.199395e+002 
2265000000  -6.540290e+000  -1.203527e+002 
2266250000  -6.453834e+000  -1.206831e+002 
2267500000  -6.378252e+000  -1.212540e+002 
2268750000  -6.390097e+000  -1.213223e+002 
2270000000  -6.294739e+000  -1.217705e+002 
2271250000  -6.407266e+000  -1.215901e+002 
2272500000  -6.496553e+000  -1.218434e+002 
2273750000  -6.491063e+000  -1.221522e+002 
2275000000  -6.540696e+000  -1.225942e+002 
2276250000  -6.474948e+000  -1.233033e+002 
2277500000  -6.447037e+000  -1.239712e+002 
2278750000  -6.403027e+000  -1.246912e+002 
2280000000  -6.441684e+000  -1.255514e+002 
2281250000  -6.425783e+000  -1.254529e+002 
2282500000  -6.426788e+000  -1.255697e+002 
2283750000  -6.433796e+000  -1.257957e+002 
2285000000  -6.373344e+000  -1.259192e+002 
2286250000  -6.388141e+000  -1.265025e+002 
2287500000  -6.359289e+000  -1.269670e+002 
2288750000  -6.386357e+000  -1.276425e+002 
2290000000  -6.376431e+000  -1.282283e+002 
2291250000  -6.394018e+000  -1.286043e+002 
2292500000  -6.372736e+000  -1.291287e+002 
2293750000  -6.443934e+000  -1.290043e+002 
2295000000  -6.445297e+000  -1.297735e+002 
2296250000  -6.465920e+000  -1.298958e+002 
2297500000  -6.446345e+000  -1.303693e+002 
2298750000  -6.466375e+000  -1.306536e+002 
2300000000  -6.493400e+000  -1.310940e+002 
2301250000  -6.432668e+000  -1.313914e+002 
2302500000  -6.424598e+000  -1.316655e+002 
2303750000  -6.398523e+000  -1.317628e+002 
2305000000  -6.395738e+000  -1.321046e+002 
2306250000  -6.414423e+000  -1.323700e+002 
2307500000  -6.401135e+000  -1.328179e+002 
2308750000  -6.390654e+000  -1.330145e+002 
2310000000  -6.385321e+000  -1.335308e+002 
2311250000  -6.337190e+000  -1.341537e+002 
2312500000  -6.320318e+000  -1.346872e+002 
2313750000  -6.309867e+000  -1.352609e+002 
2315000000  -6.234149e+000  -1.360088e+002 
2316250000  -6.296235e+000  -1.362785e+002 
2317500000  -6.316769e+000  -1.367416e+002 
2318750000  -6.343633e+000  -1.371120e+002 
2320000000  -6.395295e+000  -1.376550e+002 
2321250000  -6.345386e+000  -1.380919e+002 
2322500000  -6.335097e+000  -1.383776e+002 
2323750000  -6.318469e+000  -1.384765e+002 
2325000000  -6.320705e+000  -1.389265e+002 
2326250000  -6.364445e+000  -1.394360e+002 
2327500000  -6.378528e+000  -1.398848e+002 
2328750000  -6.421906e+000  -1.402478e+002 
2330000000  -6.412141e+000  -1.408203e+002 
2331250000  -6.437959e+000  -1.408893e+002 
2332500000  -6.427285e+000  -1.412131e+002 
2333750000  -6.399011e+000  -1.414377e+002 
2335000000  -6.386212e+000  -1.413657e+002 
2336250000  -6.402208e+000  -1.418535e+002 
2337500000  -6.414617e+000  -1.421905e+002 
2338750000  -6.433852e+000  -1.425241e+002 
2340000000  -6.395449e+000  -1.432231e+002 
2341250000  -6.405882e+000  -1.439373e+002 
2342500000  -6.392421e+000  -1.446670e+002 
2343750000  -6.427417e+000  -1.457121e+002 
2345000000  -6.413962e+000  -1.462163e+002 
2346250000  -6.513572e+000  -1.464313e+002 
2347500000  -6.599231e+000  -1.468767e+002 
2348750000  -6.595866e+000  -1.467624e+002 
2350000000  -6.661676e+000  -1.468702e+002 
2351250000  -6.606569e+000  -1.476359e+002 
2352500000  -6.577682e+000  -1.480499e+002 
2353750000  -6.550045e+000  -1.485080e+002 
2355000000  -6.512378e+000  -1.492407e+002 
2356250000  -6.538414e+000  -1.496199e+002 
2357500000  -6.567095e+000  -1.497232e+002 
2358750000  -6.645035e+000  -1.503743e+002 
2360000000  -6.627035e+000  -1.503737e+002 
2361250000  -6.599920e+000  -1.505967e+002 
2362500000  -6.646236e+000  -1.509697e+002 
2363750000  -6.625422e+000  -1.512881e+002 
2365000000  -6.645481e+000  -1.513392e+002 
2366250000  -6.751774e+000  -1.518973e+002 
2367500000  -6.781515e+000  -1.523031e+002 
2368750000  -6.814712e+000  -1.527052e+002 
2370000000  -6.873353e+000  -1.530792e+002 
2371250000  -6.832853e+000  -1.535543e+002 
2372500000  -6.823658e+000  -1.534419e+002 
2373750000  -6.859687e+000  -1.541457e+002 
2375000000  -6.856074e+000  -1.543418e+002 
2376250000  -6.878777e+000  -1.547747e+002 
2377500000  -6.969401e+000  -1.551807e+002 
2378750000  -6.996019e+000  -1.556207e+002 
2380000000  -7.031027e+000  -1.558772e+002 
2381250000  -7.074497e+000  -1.561357e+002 
2382500000  -7.085722e+000  -1.563533e+002 
2383750000  -7.186028e+000  -1.565707e+002 
2385000000  -7.217440e+000  -1.568304e+002 
2386250000  -7.245195e+000  -1.566080e+002 
2387500000  -7.280782e+000  -1.571138e+002 
2388750000  -7.255335e+000  -1.569646e+002 
2390000000  -7.290774e+000  -1.570508e+002 
2391250000  -7.233843e+000  -1.569438e+002 
2392500000  -7.209336e+000  -1.574196e+002 
2393750000  -7.161526e+000  -1.574779e+002 
2395000000  -7.146037e+000  -1.570033e+002 
2396250000  -7.274461e+000  -1.568984e+002 
2397500000  -7.341076e+000  -1.573933e+002 
2398750000  -7.340347e+000  -1.576515e+002 
2400000000  -7.335738e+000  -1.578256e+002 
2401250000  -7.314784e+000  -1.581645e+002 
2402500000  -7.266675e+000  -1.582733e+002 
2403750000  -7.263627e+000  -1.585558e+002 
2405000000  -7.217018e+000  -1.589949e+002 
2406250000  -7.272366e+000  -1.592321e+002 
2407500000  -7.304072e+000  -1.591090e+002 
2408750000  -7.306468e+000  -1.590395e+002 
2410000000  -7.292158e+000  -1.591157e+002 
2411250000  -7.254974e+000  -1.591049e+002 
2412500000  -7.191552e+000  -1.592589e+002 
2413750000  -7.127745e+000  -1.594818e+002 
2415000000  -7.108822e+000  -1.591316e+002 
2416250000  -7.019077e+000  -1.599608e+002 
2417500000  -7.001640e+000  -1.604892e+002 
2418750000  -6.973158e+000  -1.609388e+002 
2420000000  -6.947024e+000  -1.614452e+002 
2421250000  -7.016724e+000  -1.620584e+002 
2422500000  -7.035865e+000  -1.623474e+002 
2423750000  -7.059598e+000  -1.625044e+002 
2425000000  -7.065187e+000  -1.629647e+002 
2426250000  -6.941933e+000  -1.630353e+002 
2427500000  -6.869447e+000  -1.630007e+002 
2428750000  -6.807153e+000  -1.629911e+002 
2430000000  -6.797196e+000  -1.632074e+002 
2431250000  -6.812459e+000  -1.637498e+002 
2432500000  -6.829013e+000  -1.640251e+002 
2433750000  -6.806433e+000  -1.645476e+002 
2435000000  -6.829828e+000  -1.654321e+002 
2436250000  -6.755432e+000  -1.655631e+002 
2437500000  -6.734089e+000  -1.657572e+002 
2438750000  -6.668647e+000  -1.661421e+002 
2440000000  -6.614858e+000  -1.664407e+002 
2441250000  -6.586875e+000  -1.668951e+002 
2442500000  -6.542902e+000  -1.673463e+002 
2443750000  -6.529838e+000  -1.675307e+002 
2445000000  -6.557017e+000  -1.682286e+002 
2446250000  -6.622848e+000  -1.684645e+002 
2447500000  -6.686458e+000  -1.687662e+002 
2448750000  -6.683028e+000  -1.691585e+002 
2450000000  -6.770649e+000  -1.688979e+002 
2451250000  -6.655698e+000  -1.686996e+002 
2452500000  -6.585243e+000  -1.687720e+002 
2453750000  -6.531148e+000  -1.689402e+002 
2455000000  -6.486443e+000  -1.693604e+002 
2456250000  -6.477173e+000  -1.696988e+002 
2457500000  -6.519213e+000  -1.702970e+002 
2458750000  -6.541417e+000  -1.707450e+002 
2460000000  -6.555490e+000  -1.710277e+002 
2461250000  -6.565774e+000  -1.718094e+002 
2462500000  -6.532365e+000  -1.723410e+002 
2463750000  -6.483386e+000  -1.728226e+002 
2465000000  -6.468017e+000  -1.731775e+002 
2466250000  -6.400456e+000  -1.735530e+002 
2467500000  -6.309981e+000  -1.739753e+002 
2468750000  -6.290792e+000  -1.741708e+002 
2470000000  -6.241674e+000  -1.749796e+002 
2471250000  -6.343349e+000  -1.751758e+002 
2472500000  -6.340198e+000  -1.754153e+002 
2473750000  -6.361729e+000  -1.755377e+002 
2475000000  -6.395889e+000  -1.759075e+002 
2476250000  -6.358990e+000  -1.760159e+002 
2477500000  -6.389946e+000  -1.764043e+002 
2478750000  -6.391692e+000  -1.766393e+002 
2480000000  -6.389805e+000  -1.768997e+002 
2481250000  -6.448628e+000  -1.777740e+002 
2482500000  -6.469032e+000  -1.782815e+002 
2483750000  -6.451774e+000  -1.786227e+002 
2485000000  -6.409074e+000  -1.792530e+002 
2486250000  -6.321776e+000  -1.795238e+002 
2487500000  -6.275886e+000  -1.794168e+002 
2488750000  -6.252893e+000  -1.794603e+002 
2490000000  -6.157497e+000  -1.797382e+002 
2491250000  -6.228127e+000  1.795613e+002 
2492500000  -6.300244e+000  1.787842e+002 
2493750000  -6.274014e+000  1.783289e+002 
2495000000  -6.271347e+000  1.782017e+002 
2496250000  -6.236875e+000  1.783401e+002 
2497500000  -6.203797e+000  1.780403e+002 
2498750000  -6.196255e+000  1.780062e+002 
2500000000  -6.143847e+000  1.775799e+002 
2501250000  -6.159865e+000  1.772752e+002 
2502500000  -6.186195e+000  1.768226e+002 
2503750000  -6.182002e+000  1.768687e+002 
2505000000  -6.217983e+000  1.763745e+002 
2506250000  -6.152871e+000  1.760321e+002 
2507500000  -6.139917e+000  1.760567e+002 
2508750000  -6.107562e+000  1.755278e+002 
2510000000  -6.067946e+000  1.751537e+002 
2511250000  -6.065065e+000  1.745431e+002 
2512500000  -6.061803e+000  1.738834e+002 
2513750000  -6.055104e+000  1.733070e+002 
2515000000  -6.052817e+000  1.729956e+002 
2516250000  -6.042324e+000  1.728925e+002 
2517500000  -6.041735e+000  1.726705e+002 
2518750000  -6.092933e+000  1.725610e+002 
2520000000  -6.068697e+000  1.723743e+002 
2521250000  -6.085763e+000  1.717057e+002 
2522500000  -6.051306e+000  1.715451e+002 
2523750000  -6.046882e+000  1.710874e+002 
2525000000  -6.045047e+000  1.704290e+002 
2526250000  -6.091284e+000  1.702684e+002 
2527500000  -5.899913e+000  1.701519e+002 
2528750000  -6.081614e+000  1.696020e+002 
2530000000  -6.056714e+000  1.697298e+002 
2531250000  -6.074115e+000  1.688914e+002 
2532500000  -6.083859e+000  1.684124e+002 
2533750000  -6.054805e+000  1.681846e+002 
2535000000  -5.892450e+000  1.682723e+002 
2536250000  -6.026958e+000  1.676576e+002 
2537500000  -6.015141e+000  1.669977e+002 
2538750000  -6.000684e+000  1.666733e+002 
2540000000  -5.976760e+000  1.664117e+002 
2541250000  -5.895897e+000  1.655525e+002 
2542500000  -5.829603e+000  1.656380e+002 
2543750000  1.974919e+000  -1.491068e+002 
2545000000  -5.965194e+000  1.636950e+002 
2546250000  -6.004873e+000  1.664997e+002 
2547500000  -6.157264e+000  1.654534e+002 
2548750000  -4.934471e+000  1.608008e+002 
