!Agilent Technologies,E8364A,US41440144,A.06.04.32
!Agilent E8364A: A.06.04.32
!Date: Wednesday, January 31, 2018 11:56:01
!Correction: S11(Full 2 Port(1,2)) S21(Full 2 Port(1,2)) S12(Full 2 Port(1,2)) S22(Full 2 Port(1,2)) 
!S2P File: Measurements: S11, S21, S12, S22:
# Hz S  dB   R 50
2000000000 -9.322097e-002 -3.963551e+000 -5.271896e+001 1.670666e+002 -5.936101e+001 -1.499999e+002 -3.822930e+000 8.651243e+001
2001250000 -1.008921e-001 -4.226443e+000 -5.137696e+001 6.149841e+001 -5.863960e+001 7.468939e+001 -3.664449e+000 8.666297e+001
2002500000 -8.307105e-002 -4.119784e+000 -5.949358e+001 4.063433e+001 -5.367306e+001 7.704614e+001 -3.770492e+000 8.587806e+001
2003750000 -8.678198e-002 -4.090259e+000 -5.002967e+001 -1.676492e+001 -5.898093e+001 -1.273271e+002 -3.820227e+000 8.561259e+001
2005000000 -9.247639e-002 -4.033715e+000 -5.169789e+001 -9.627390e+001 -5.883685e+001 -1.146705e+002 -3.753389e+000 8.652993e+001
2006250000 -7.936314e-002 -4.272950e+000 -5.111271e+001 1.386424e+002 -5.449367e+001 -1.585099e+002 -3.856665e+000 8.499428e+001
2007500000 -1.192448e-001 -4.303182e+000 -4.749522e+001 1.160923e+002 -5.233289e+001 9.507757e+001 -3.808601e+000 8.538513e+001
2008750000 -9.823237e-002 -4.113871e+000 -5.404324e+001 9.466856e+001 -5.202784e+001 -1.276801e+001 -3.772666e+000 8.416299e+001
2010000000 -9.838858e-002 -4.255142e+000 -5.141117e+001 -7.334285e+001 -6.091129e+001 -1.245018e+001 -3.674299e+000 8.536128e+001
2011250000 -6.927250e-002 -4.270259e+000 -5.277418e+001 1.632321e+002 -5.612345e+001 1.027779e+002 -3.681130e+000 8.321249e+001
2012500000 -6.732766e-002 -4.086310e+000 -5.175399e+001 8.240086e+001 -6.096819e+001 -1.163150e+002 -3.740371e+000 8.399589e+001
2013750000 -8.546460e-002 -3.957860e+000 -5.590797e+001 4.911621e+001 -5.877686e+001 -1.258174e+002 -3.763223e+000 8.371862e+001
2015000000 -1.146349e-001 -4.181395e+000 -6.489898e+001 1.362221e+001 -5.535052e+001 -1.538946e+002 -3.817556e+000 8.297846e+001
2016250000 -6.242014e-002 -4.139290e+000 -6.330103e+001 -1.083190e+002 -5.540349e+001 6.910036e+001 -3.788958e+000 8.274993e+001
2017500000 -9.789201e-002 -4.147883e+000 -5.319243e+001 5.217044e+000 -5.216731e+001 -1.079232e+001 -3.617713e+000 8.165395e+001
2018750000 -1.209297e-001 -4.273698e+000 -5.476540e+001 9.005107e+001 -5.400803e+001 1.130060e+002 -3.812835e+000 8.170541e+001
2020000000 -8.751139e-002 -4.212475e+000 -5.781182e+001 -1.133979e+002 -5.135992e+001 -4.657180e+001 -3.767435e+000 8.173663e+001
2021250000 -9.378032e-002 -4.173065e+000 -4.698659e+001 -1.701714e+002 -6.339513e+001 1.453182e+002 -3.900456e+000 8.204279e+001
2022500000 -9.518087e-002 -4.306683e+000 -4.712963e+001 -1.153092e+002 -5.093867e+001 4.317584e+001 -3.761526e+000 8.123054e+001
2023750000 -8.342022e-002 -4.107417e+000 -5.115514e+001 -3.420126e+001 -4.614779e+001 -9.252126e+001 -3.927964e+000 7.974948e+001
2025000000 -1.024117e-001 -4.236408e+000 -4.870811e+001 3.841368e+001 -5.106916e+001 2.131468e+001 -3.752878e+000 8.104765e+001
2026250000 -1.122428e-001 -4.254316e+000 -5.776954e+001 4.858944e+001 -5.690734e+001 4.007117e+001 -3.751154e+000 8.027573e+001
2027500000 -8.736617e-002 -4.202175e+000 -5.660379e+001 -1.168992e+002 -5.883253e+001 -4.410413e+001 -3.667198e+000 7.961871e+001
2028750000 -1.011960e-001 -4.193132e+000 -5.613791e+001 -1.512256e+002 -5.199436e+001 -1.446088e+002 -3.835225e+000 8.003301e+001
2030000000 -1.036840e-001 -4.305970e+000 -5.608915e+001 3.583665e+001 -6.253374e+001 1.116590e+002 -3.703700e+000 7.923541e+001
2031250000 -6.925300e-002 -4.368540e+000 -6.202465e+001 1.409716e+002 -5.013465e+001 1.091425e+002 -3.763562e+000 7.857857e+001
2032500000 -1.006715e-001 -4.710757e+000 -5.353790e+001 2.692002e+001 -5.086692e+001 1.702942e+001 -3.821437e+000 7.890136e+001
2033750000 -1.065588e-001 -4.231772e+000 -5.433294e+001 1.028912e+002 -4.793409e+001 6.070223e+000 -3.773474e+000 7.889892e+001
2035000000 -1.225232e-001 -4.003164e+000 -5.738372e+001 3.710990e+001 -5.168000e+001 1.703881e+002 -3.773720e+000 7.788488e+001
2036250000 -1.231277e-001 -4.347497e+000 -5.888358e+001 -6.437724e+001 -7.387710e+001 4.827149e+001 -3.817644e+000 7.739967e+001
2037500000 -8.152449e-002 -4.464392e+000 -5.379369e+001 -8.832507e+001 -5.458402e+001 -9.506252e+001 -3.822423e+000 7.777822e+001
2038750000 -1.063090e-001 -4.259015e+000 -5.460674e+001 1.308334e+002 -6.529038e+001 -1.114284e+002 -3.766755e+000 7.697824e+001
2040000000 -1.128031e-001 -4.351594e+000 -5.290528e+001 9.357747e+001 -6.098857e+001 1.651279e+002 -3.780861e+000 7.706245e+001
2041250000 -8.134799e-002 -4.222875e+000 -4.895683e+001 1.021818e+002 -4.838227e+001 8.015385e+001 -3.885559e+000 7.629104e+001
2042500000 -1.076271e-001 -4.209383e+000 -5.302199e+001 3.767146e+001 -5.861983e+001 -1.097592e+002 -3.807196e+000 7.624918e+001
2043750000 -1.044250e-001 -4.410306e+000 -4.886265e+001 6.273587e+001 -5.826291e+001 -1.498091e+001 -3.778484e+000 7.545827e+001
2045000000 -1.396342e-001 -4.307709e+000 -5.375246e+001 -1.781437e+002 -5.185455e+001 -1.072302e+002 -3.726043e+000 7.638040e+001
2046250000 -1.489741e-001 -4.500303e+000 -5.652337e+001 1.054673e+002 -5.462794e+001 8.299223e+001 -3.760787e+000 7.539238e+001
2047500000 -1.267869e-001 -4.137643e+000 -5.775281e+001 -5.721155e+001 -6.499370e+001 9.203804e+001 -3.778335e+000 7.452004e+001
2048750000 -1.129251e-001 -4.115527e+000 -6.034515e+001 -1.112781e+001 -4.900613e+001 -1.808746e+001 -3.793795e+000 7.462619e+001
2050000000 -1.037887e-001 -4.505102e+000 -6.086175e+001 1.557683e+002 -6.383385e+001 1.390570e+001 -3.621965e+000 7.432285e+001
2051250000 -9.578887e-002 -4.343027e+000 -4.955643e+001 -7.652204e+001 -5.606187e+001 -4.176953e+001 -3.726808e+000 7.368153e+001
2052500000 -8.181873e-002 -4.536258e+000 -6.188633e+001 7.805140e+001 -5.616419e+001 -1.251415e+002 -3.826526e+000 7.328169e+001
2053750000 -7.414680e-002 -4.205161e+000 -6.059443e+001 3.448284e+001 -5.565324e+001 1.044610e+002 -3.874049e+000 7.386958e+001
2055000000 -1.031576e-001 -4.436283e+000 -5.732726e+001 5.855878e+001 -5.365856e+001 2.156029e+001 -3.691450e+000 7.390939e+001
2056250000 -1.060607e-001 -4.597704e+000 -4.986450e+001 -9.804216e+001 -5.578923e+001 -7.972720e+001 -3.555723e+000 7.314970e+001
2057500000 -1.007352e-001 -4.272399e+000 -4.957319e+001 1.183594e+002 -4.919098e+001 -7.617298e+001 -3.652323e+000 7.220023e+001
2058750000 -7.828993e-002 -4.115894e+000 -4.815017e+001 -1.734068e+002 -5.231135e+001 1.152284e+000 -3.674570e+000 7.058549e+001
2060000000 -9.897787e-002 -4.440482e+000 -5.360298e+001 -1.377379e+002 -6.282733e+001 9.895463e+001 -3.662634e+000 7.293284e+001
2061250000 -7.384312e-002 -4.444802e+000 -5.489107e+001 -1.564333e+002 -4.985888e+001 1.662631e+002 -3.730531e+000 7.104436e+001
2062500000 -1.387166e-001 -4.236029e+000 -6.725040e+001 1.037707e+002 -7.200989e+001 1.247791e+002 -3.755541e+000 7.123928e+001
2063750000 -1.236446e-001 -4.485481e+000 -7.008140e+001 8.224737e+001 -5.775940e+001 -7.359915e+001 -3.665746e+000 7.040670e+001
2065000000 -6.288157e-002 -4.516773e+000 -5.567434e+001 3.871420e+000 -5.081618e+001 -3.223819e+001 -3.601820e+000 7.038519e+001
2066250000 -1.006602e-001 -4.454974e+000 -5.330272e+001 -1.483662e+002 -5.132795e+001 5.174696e+001 -3.699905e+000 6.977574e+001
2067500000 -8.459690e-002 -4.474517e+000 -4.959549e+001 1.659980e+002 -4.574611e+001 -4.673282e+001 -3.610142e+000 6.943234e+001
2068750000 -1.229253e-001 -4.452300e+000 -5.666661e+001 -1.501398e+002 -6.091948e+001 1.609512e+002 -3.755643e+000 6.992623e+001
2070000000 -1.173143e-001 -4.746569e+000 -5.205495e+001 4.070436e+001 -4.881764e+001 1.326357e+002 -3.821297e+000 6.947013e+001
2071250000 -6.715182e-002 -4.312476e+000 -4.981916e+001 7.880911e+000 -5.175228e+001 5.890656e+001 -3.843051e+000 6.885152e+001
2072500000 -1.190985e-001 -4.413080e+000 -5.565314e+001 1.024692e+001 -4.968726e+001 1.761982e+002 -3.743368e+000 6.909879e+001
2073750000 -1.087854e-001 -4.438142e+000 -5.917329e+001 1.306688e+001 -5.599043e+001 9.098878e+001 -3.848176e+000 6.776295e+001
2075000000 -1.384942e-001 -4.537073e+000 -5.852407e+001 -1.709944e+002 -5.330821e+001 -1.393444e+002 -3.681430e+000 6.741057e+001
2076250000 -7.027496e-002 -4.318468e+000 -5.136851e+001 -1.499845e+002 -5.499978e+001 2.320381e+000 -3.580076e+000 6.762646e+001
2077500000 -8.538057e-002 -4.285049e+000 -6.303136e+001 9.582257e+001 -5.614100e+001 -1.705546e+002 -3.595620e+000 6.747847e+001
2078750000 -9.247905e-002 -4.630315e+000 -6.359255e+001 -1.582435e+002 -5.941675e+001 -1.503092e+002 -3.745395e+000 6.734607e+001
2080000000 -1.167200e-001 -4.488711e+000 -5.395581e+001 -1.041910e+001 -4.745727e+001 -1.184231e+002 -3.641603e+000 6.711864e+001
2081250000 -9.849737e-002 -4.296088e+000 -5.808735e+001 -1.189939e+002 -5.381443e+001 3.939935e+001 -3.641968e+000 6.743312e+001
2082500000 -1.117440e-001 -4.556310e+000 -5.405932e+001 1.325201e+002 -5.610528e+001 1.371343e+002 -3.733726e+000 6.595672e+001
2083750000 -1.171213e-001 -4.544476e+000 -4.887568e+001 1.224655e+002 -6.958594e+001 -1.407690e+002 -3.648347e+000 6.672146e+001
2085000000 -9.086972e-002 -4.682257e+000 -5.521884e+001 8.717724e+000 -5.652835e+001 -7.029814e+001 -3.721759e+000 6.576840e+001
2086250000 -8.577130e-002 -4.364302e+000 -5.367217e+001 2.294464e+001 -5.290479e+001 -1.242348e+002 -3.706218e+000 6.530561e+001
2087500000 -9.096897e-002 -4.757578e+000 -5.518712e+001 -5.265907e+001 -5.120533e+001 -3.538374e+001 -3.781450e+000 6.520605e+001
2088750000 -1.146426e-001 -4.760076e+000 -5.233614e+001 8.744110e+001 -5.736149e+001 7.324284e+001 -3.817455e+000 6.406463e+001
2090000000 -1.149898e-001 -4.575973e+000 -5.089211e+001 7.581175e+001 -5.350559e+001 1.606780e+002 -3.720685e+000 6.499181e+001
2091250000 -9.912583e-002 -4.044976e+000 -4.731030e+001 -1.269147e+002 -4.863542e+001 1.078111e+002 -3.673029e+000 6.300988e+001
2092500000 -9.496611e-002 -4.387631e+000 -6.268481e+001 -1.542041e+002 -5.001208e+001 1.670167e+002 -3.627846e+000 6.531904e+001
2093750000 -1.371504e-001 -4.547533e+000 -6.120988e+001 2.019035e+001 -5.510751e+001 1.571450e+002 -3.664716e+000 6.405756e+001
2095000000 -1.275252e-001 -4.465748e+000 -5.991037e+001 1.741018e+002 -5.570456e+001 -1.700601e+002 -3.704196e+000 6.307267e+001
2096250000 -8.705539e-002 -4.238487e+000 -5.733133e+001 1.770503e+002 -6.159691e+001 1.280048e+002 -3.571640e+000 6.209486e+001
2097500000 -1.374911e-001 -4.214380e+000 -5.616846e+001 1.611106e+002 -5.381014e+001 -5.861241e+001 -3.613570e+000 6.252071e+001
2098750000 -1.474479e-001 -4.472379e+000 -5.429416e+001 -1.497251e+002 -6.372310e+001 1.252094e+001 -3.634326e+000 6.195041e+001
2100000000 -1.068085e-001 -4.369395e+000 -5.052808e+001 1.111656e+002 -4.719117e+001 6.454250e+001 -3.603546e+000 6.136630e+001
2101250000 -1.156581e-001 -4.364579e+000 -5.534643e+001 -6.421756e+001 -6.869928e+001 -8.661987e+001 -3.593857e+000 6.227186e+001
2102500000 -1.124789e-001 -4.525327e+000 -5.245496e+001 -3.573290e+001 -4.905255e+001 -1.271198e+001 -3.697551e+000 6.291371e+001
2103750000 -1.032174e-001 -4.645768e+000 -5.535419e+001 -1.155404e+002 -6.104626e+001 1.466091e+002 -3.402200e+000 6.112283e+001
2105000000 -9.030762e-002 -4.200544e+000 -5.699105e+001 9.772841e+001 -6.043356e+001 -1.306230e+002 -3.561607e+000 6.214344e+001
2106250000 -1.181893e-001 -4.532540e+000 -5.404461e+001 1.215198e+002 -5.804483e+001 -1.363632e+002 -3.436626e+000 6.130084e+001
2107500000 -9.900844e-002 -4.512216e+000 -5.249783e+001 -1.043985e+002 -7.287753e+001 -8.287424e+001 -3.635920e+000 6.004560e+001
2108750000 -8.877131e-002 -4.515429e+000 -4.997060e+001 -1.777618e+001 -5.302945e+001 1.370345e+002 -3.572320e+000 6.107735e+001
2110000000 -1.449222e-001 -4.442152e+000 -5.033051e+001 -9.176743e+001 -6.050277e+001 4.278753e+001 -3.751935e+000 6.019016e+001
2111250000 -1.039107e-001 -4.437441e+000 -6.704060e+001 -1.031863e+002 -6.045960e+001 1.620647e+001 -3.591702e+000 5.916085e+001
2112500000 -1.219759e-001 -4.755621e+000 -6.650205e+001 -9.701001e+001 -5.101149e+001 5.565017e+001 -3.572592e+000 5.890394e+001
2113750000 -9.580746e-002 -4.292881e+000 -4.794318e+001 1.740570e+002 -5.953074e+001 6.608104e+001 -3.418986e+000 5.917228e+001
2115000000 -1.214716e-001 -4.380631e+000 -6.053598e+001 -1.031608e+002 -5.488867e+001 8.112370e+001 -3.674769e+000 5.761003e+001
2116250000 -9.753661e-002 -4.415534e+000 -6.490271e+001 -2.563173e+001 -5.123074e+001 1.218116e+002 -3.530317e+000 5.904109e+001
2117500000 -8.069295e-002 -4.499609e+000 -5.446313e+001 -7.000217e+001 -5.030155e+001 -1.548161e+002 -3.601220e+000 5.731040e+001
2118750000 -1.228666e-001 -4.584445e+000 -6.201068e+001 -5.181155e+001 -5.284813e+001 -1.158740e+002 -3.766004e+000 5.763446e+001
2120000000 -1.265123e-001 -4.506514e+000 -5.977899e+001 -1.681059e+002 -5.526410e+001 4.337434e+001 -3.634790e+000 5.678576e+001
2121250000 -7.256453e-002 -4.369945e+000 -5.179829e+001 -4.266534e+001 -5.307746e+001 -6.387567e+001 -3.563797e+000 5.684797e+001
2122500000 -8.866169e-002 -4.547263e+000 -4.828090e+001 -2.869033e+001 -4.947646e+001 -1.518134e+001 -3.501848e+000 5.662869e+001
2123750000 -8.949231e-002 -4.353655e+000 -4.783656e+001 7.631422e+001 -5.710912e+001 1.738600e+002 -3.380752e+000 5.618356e+001
2125000000 -9.424725e-002 -4.634725e+000 -5.231483e+001 9.134126e+001 -5.211263e+001 -1.730303e+002 -3.534007e+000 5.646825e+001
2126250000 -8.501348e-002 -4.403205e+000 -5.770447e+001 -1.618879e+002 -6.310531e+001 -1.418166e+002 -3.461228e+000 5.584127e+001
2127500000 -1.153422e-001 -4.354035e+000 -4.865321e+001 1.271708e+002 -5.619041e+001 9.348345e+001 -3.486779e+000 5.548545e+001
2128750000 -1.092542e-001 -4.404653e+000 -5.456038e+001 -1.347937e+002 -5.567120e+001 1.929525e+001 -3.589041e+000 5.403804e+001
2130000000 -1.177293e-001 -4.369680e+000 -5.621293e+001 2.549925e+001 -4.884723e+001 -3.283625e+001 -3.507188e+000 5.424615e+001
2131250000 -8.299626e-002 -4.381165e+000 -6.307380e+001 7.238097e+001 -5.339866e+001 5.986884e+001 -3.516708e+000 5.520092e+001
2132500000 -1.118531e-001 -4.447203e+000 -5.712663e+001 1.533511e+002 -4.633900e+001 2.832497e+001 -3.669463e+000 5.371830e+001
2133750000 -1.099130e-001 -4.539070e+000 -6.648048e+001 -8.629269e+001 -5.127599e+001 3.211643e+000 -3.663588e+000 5.373793e+001
2135000000 -1.321400e-001 -4.403881e+000 -5.692670e+001 1.230321e+002 -6.187633e+001 -1.203808e+001 -3.551272e+000 5.395266e+001
2136250000 -9.369159e-002 -4.449514e+000 -4.751443e+001 -5.509380e+001 -5.552423e+001 1.778105e+002 -3.624942e+000 5.305114e+001
2137500000 -7.866107e-002 -4.393771e+000 -5.803348e+001 -1.557759e+002 -6.551576e+001 -1.283861e+002 -3.282040e+000 5.272986e+001
2138750000 -1.355446e-001 -4.775201e+000 -5.458064e+001 1.796843e+002 -5.610030e+001 -1.026601e+001 -3.527744e+000 5.319264e+001
2140000000 -1.223950e-001 -4.365565e+000 -5.151871e+001 -1.118939e+002 -5.513092e+001 -1.317035e+001 -3.383713e+000 5.364792e+001
2141250000 -9.124491e-002 -4.513460e+000 -5.151915e+001 -1.820335e+001 -5.177021e+001 -6.832742e+001 -3.409584e+000 5.192409e+001
2142500000 -1.378200e-001 -4.687649e+000 -5.347729e+001 5.213949e+001 -5.846527e+001 1.125680e+002 -3.377198e+000 5.088282e+001
2143750000 -1.110344e-001 -4.575419e+000 -5.220092e+001 9.736459e+001 -5.518144e+001 1.403989e+002 -3.515264e+000 5.203626e+001
2145000000 -9.581116e-002 -4.315745e+000 -5.599002e+001 1.060659e+002 -5.386304e+001 -1.392079e+002 -3.341287e+000 5.222837e+001
2146250000 -8.667266e-002 -4.748454e+000 -4.916193e+001 9.234304e+001 -5.531145e+001 4.565073e+001 -3.412381e+000 5.108764e+001
2147500000 -1.080562e-001 -4.472814e+000 -5.869522e+001 -1.283002e+002 -5.487051e+001 1.052017e+002 -3.445599e+000 5.071986e+001
2148750000 -1.100020e-001 -4.397577e+000 -4.970013e+001 1.473603e+001 -6.065871e+001 6.816442e+001 -3.497311e+000 5.065108e+001
2150000000 -1.055753e-001 -4.454954e+000 -6.754501e+001 -1.687997e+002 -5.025319e+001 1.218590e+002 -3.472769e+000 5.034800e+001
2151250000 -1.282992e-001 -4.874390e+000 -5.537237e+001 7.344338e+001 -5.997659e+001 -5.720360e+001 -3.503388e+000 4.906240e+001
2152500000 -4.839833e-002 -4.674931e+000 -4.944143e+001 -8.004150e+001 -4.713106e+001 -1.512132e+002 -3.442788e+000 4.906141e+001
2153750000 -9.359074e-002 -4.479721e+000 -4.965128e+001 6.992225e+001 -5.366528e+001 -4.747581e+001 -3.358982e+000 4.834579e+001
2155000000 -9.380528e-002 -4.405799e+000 -4.726727e+001 3.900772e+001 -5.639339e+001 4.178157e+001 -3.422669e+000 5.011315e+001
2156250000 -1.372498e-001 -4.792506e+000 -5.598610e+001 1.228970e+002 -5.150507e+001 1.922723e+001 -3.509598e+000 4.996487e+001
2157500000 -1.328996e-001 -4.481515e+000 -5.603441e+001 1.669950e+002 -4.971813e+001 1.744146e+002 -3.348411e+000 4.856067e+001
2158750000 -3.826129e-002 -4.461572e+000 -5.358493e+001 1.251938e+002 -5.700297e+001 2.023605e+001 -3.358809e+000 4.888190e+001
2160000000 -1.037044e-001 -4.341602e+000 -5.957457e+001 1.786854e+002 -6.578278e+001 -5.523371e+001 -3.405112e+000 4.709803e+001
2161250000 -8.813552e-002 -4.590436e+000 -5.617818e+001 1.329877e+002 -5.826754e+001 1.275764e+001 -3.483225e+000 4.714746e+001
2162500000 -9.797613e-002 -4.521179e+000 -5.150289e+001 4.771484e+001 -4.992653e+001 -9.174545e+001 -3.513649e+000 4.670784e+001
2163750000 -8.526949e-002 -4.329767e+000 -5.619625e+001 -6.439893e+001 -4.938829e+001 -4.542333e+001 -3.279505e+000 4.659776e+001
2165000000 -7.055260e-002 -4.469267e+000 -5.536780e+001 -1.453409e+002 -5.684703e+001 -1.749285e+002 -3.451592e+000 4.609196e+001
2166250000 -1.083116e-001 -4.485579e+000 -4.865671e+001 8.388954e+001 -5.329149e+001 -6.357202e+000 -3.476566e+000 4.529722e+001
2167500000 -4.686906e-002 -4.693847e+000 -5.476338e+001 -4.991727e+001 -4.633252e+001 1.765151e+001 -3.276274e+000 4.614445e+001
2168750000 -5.558128e-002 -4.390790e+000 -5.489880e+001 2.842988e+001 -6.052907e+001 -6.374577e+001 -3.258462e+000 4.516526e+001
2170000000 -1.233183e-001 -4.279707e+000 -6.044358e+001 -2.920197e+001 -5.482634e+001 5.332816e+001 -3.390510e+000 4.583201e+001
2171250000 -7.947705e-002 -4.634048e+000 -6.147628e+001 1.424188e+002 -5.496819e+001 7.848407e+001 -3.274247e+000 4.478151e+001
2172500000 -7.384481e-002 -4.679657e+000 -5.903109e+001 1.090923e+002 -4.878815e+001 -7.319243e+001 -3.396400e+000 4.497583e+001
2173750000 -9.257448e-002 -4.667376e+000 -5.237495e+001 1.723515e+002 -6.258955e+001 -8.187838e+001 -3.388160e+000 4.437966e+001
2175000000 -9.153310e-002 -4.468363e+000 -5.091587e+001 -1.414073e+002 -5.713306e+001 5.949246e+001 -3.367709e+000 4.361287e+001
2176250000 -6.551438e-002 -4.614243e+000 -4.514054e+001 3.284475e+001 -4.733451e+001 -3.186020e+000 -3.281220e+000 4.474615e+001
2177500000 -8.092820e-002 -4.438793e+000 -5.259975e+001 6.507356e+001 -6.023000e+001 -1.055477e+002 -3.362720e+000 4.326685e+001
2178750000 -1.144926e-001 -4.480765e+000 -5.338025e+001 -6.563183e+001 -5.751683e+001 -1.614022e+002 -3.351693e+000 4.303828e+001
2180000000 -1.083452e-001 -4.432383e+000 -5.792160e+001 1.703255e+002 -5.277288e+001 -1.401431e+002 -3.363213e+000 4.292760e+001
2181250000 -4.665215e-002 -4.372522e+000 -5.747305e+001 -1.271891e+002 -5.807280e+001 -5.984336e+001 -3.346666e+000 4.310018e+001
2182500000 -1.345452e-001 -4.753024e+000 -4.896870e+001 -1.291140e+002 -7.235757e+001 1.276117e+002 -3.297853e+000 4.255429e+001
2183750000 -1.275021e-001 -4.490199e+000 -5.617688e+001 7.647944e+001 -5.417626e+001 -1.594869e+001 -3.221889e+000 4.317013e+001
2185000000 -8.008936e-002 -4.684074e+000 -5.057730e+001 -1.064690e+001 -5.074716e+001 -4.217809e+001 -3.193101e+000 4.116767e+001
2186250000 -9.699722e-002 -4.601640e+000 -5.681569e+001 1.599553e+002 -5.458372e+001 -8.634062e+001 -3.207357e+000 4.154238e+001
2187500000 -9.616911e-002 -4.617442e+000 -5.264025e+001 -1.794730e+002 -5.559344e+001 1.422525e+001 -3.389657e+000 4.176488e+001
