!Agilent Technologies,E8364A,US41440144,A.06.04.32
!Agilent E8364A: A.06.04.32
!Date: Wednesday, January 31, 2018 11:41:10
!Correction: S11(Full 2 Port(1,2)) S21(Full 2 Port(1,2)) S12(Full 2 Port(1,2)) S22(Full 2 Port(1,2)) 
!S2P File: Measurements: S11, S21, S12, S22:
# Hz S  dB   R 50
2000000000 -7.680374e+000 1.271840e+002 2.359218e+001 -1.579115e+001 -4.515478e+001 -1.396412e+002 -2.012645e+000 9.119383e+001
2001250000 -7.727862e+000 1.266333e+002 2.362877e+001 -1.598848e+001 -4.321492e+001 -1.451606e+002 -1.802660e+000 9.118427e+001
2002500000 -7.731688e+000 1.263265e+002 2.364380e+001 -1.669725e+001 -4.423524e+001 -1.482251e+002 -1.807700e+000 8.985168e+001
2003750000 -7.715451e+000 1.259482e+002 2.368973e+001 -1.715134e+001 -4.356637e+001 -1.328873e+002 -1.965053e+000 8.981535e+001
2005000000 -7.807596e+000 1.258547e+002 2.370217e+001 -1.769985e+001 -4.396958e+001 -1.533329e+002 -1.792449e+000 9.010508e+001
2006250000 -7.851519e+000 1.249215e+002 2.363657e+001 -1.790377e+001 -4.082025e+001 -1.487992e+002 -1.834202e+000 8.919144e+001
2007500000 -7.881190e+000 1.256985e+002 2.372362e+001 -1.848427e+001 -4.401229e+001 1.640573e+002 -1.904351e+000 8.920745e+001
2008750000 -7.797183e+000 1.249487e+002 2.378079e+001 -1.897633e+001 -4.667820e+001 -1.490881e+002 -1.838908e+000 8.776766e+001
2010000000 -7.791330e+000 1.247783e+002 2.379118e+001 -1.888579e+001 -4.404519e+001 -1.302111e+002 -1.763254e+000 8.824573e+001
2011250000 -7.857985e+000 1.240497e+002 2.376336e+001 -1.962037e+001 -4.320305e+001 -1.429833e+002 -1.721605e+000 8.659049e+001
2012500000 -7.878879e+000 1.233874e+002 2.378092e+001 -2.049846e+001 -4.082954e+001 -1.534126e+002 -1.830575e+000 8.702272e+001
2013750000 -7.865624e+000 1.236207e+002 2.378645e+001 -2.095361e+001 -4.508908e+001 -1.395253e+002 -1.855635e+000 8.636129e+001
2015000000 -7.887671e+000 1.231339e+002 2.382982e+001 -2.135383e+001 -4.467364e+001 -1.424943e+002 -1.869925e+000 8.606196e+001
2016250000 -7.886881e+000 1.233560e+002 2.381940e+001 -2.143331e+001 -5.132267e+001 -1.529034e+002 -1.789562e+000 8.536176e+001
2017500000 -7.957449e+000 1.223577e+002 2.392043e+001 -2.214579e+001 -4.174789e+001 -1.569675e+002 -1.693842e+000 8.501810e+001
2018750000 -7.998100e+000 1.218243e+002 2.391033e+001 -2.257501e+001 -4.088287e+001 -1.555534e+002 -1.928462e+000 8.472756e+001
2020000000 -7.926990e+000 1.220779e+002 2.395194e+001 -2.275519e+001 -4.493309e+001 -1.426809e+002 -1.874201e+000 8.377906e+001
2021250000 -7.969698e+000 1.214415e+002 2.399879e+001 -2.307057e+001 -4.321015e+001 -1.445316e+002 -1.861596e+000 8.467836e+001
2022500000 -7.984064e+000 1.216477e+002 2.400086e+001 -2.347968e+001 -4.580364e+001 -1.625267e+002 -1.835641e+000 8.269054e+001
2023750000 -7.899237e+000 1.204409e+002 2.400050e+001 -2.402395e+001 -4.102035e+001 -1.239958e+002 -1.841010e+000 8.204366e+001
2025000000 -8.059364e+000 1.208220e+002 2.399656e+001 -2.481762e+001 -4.299886e+001 -1.627357e+002 -1.807411e+000 8.223497e+001
2026250000 -8.043133e+000 1.202984e+002 2.408115e+001 -2.503912e+001 -4.321598e+001 -1.460941e+002 -1.793731e+000 8.232378e+001
2027500000 -8.092032e+000 1.199830e+002 2.405899e+001 -2.551253e+001 -4.279692e+001 -1.509703e+002 -1.809629e+000 8.183097e+001
2028750000 -8.146110e+000 1.195189e+002 2.409767e+001 -2.587121e+001 -4.108872e+001 -1.538839e+002 -1.856670e+000 8.154089e+001
2030000000 -8.162877e+000 1.192989e+002 2.409189e+001 -2.644369e+001 -4.250608e+001 -1.574373e+002 -1.821459e+000 8.095767e+001
2031250000 -8.142542e+000 1.192595e+002 2.416689e+001 -2.713120e+001 -4.423368e+001 -1.736272e+002 -1.807831e+000 7.920533e+001
2032500000 -8.117535e+000 1.183410e+002 2.414562e+001 -2.741761e+001 -4.392193e+001 -1.404384e+002 -1.908173e+000 8.005943e+001
2033750000 -8.140241e+000 1.185140e+002 2.421450e+001 -2.789192e+001 -4.506546e+001 -1.470972e+002 -1.805603e+000 8.045360e+001
2035000000 -8.228616e+000 1.178213e+002 2.413855e+001 -2.867510e+001 -4.238354e+001 -1.561565e+002 -1.809101e+000 7.834863e+001
2036250000 -8.243405e+000 1.183648e+002 2.425881e+001 -2.847213e+001 -4.473384e+001 1.701367e+002 -1.906647e+000 7.817999e+001
2037500000 -8.249743e+000 1.173391e+002 2.422022e+001 -2.875541e+001 -4.202401e+001 -1.537538e+002 -1.926241e+000 7.842437e+001
2038750000 -8.242858e+000 1.169045e+002 2.425856e+001 -2.994144e+001 -4.275729e+001 -1.449047e+002 -1.825354e+000 7.737614e+001
2040000000 -8.223246e+000 1.167904e+002 2.431495e+001 -3.021147e+001 -4.452314e+001 -1.353489e+002 -1.791506e+000 7.769097e+001
2041250000 -8.296657e+000 1.167919e+002 2.432638e+001 -3.066880e+001 -4.585457e+001 -1.552997e+002 -1.930755e+000 7.580707e+001
2042500000 -8.365134e+000 1.162948e+002 2.430457e+001 -3.111961e+001 -4.415479e+001 -1.531218e+002 -1.830481e+000 7.660354e+001
2043750000 -8.329306e+000 1.160766e+002 2.435496e+001 -3.158291e+001 -4.548528e+001 -1.545360e+002 -1.856416e+000 7.525364e+001
2045000000 -8.379259e+000 1.149991e+002 2.440327e+001 -3.213797e+001 -4.108457e+001 -1.491210e+002 -1.810990e+000 7.456853e+001
2046250000 -8.397993e+000 1.151175e+002 2.444051e+001 -3.265701e+001 -4.371147e+001 -1.528871e+002 -1.810727e+000 7.518327e+001
2047500000 -8.452758e+000 1.148171e+002 2.442001e+001 -3.303820e+001 -4.324710e+001 -1.583399e+002 -1.886969e+000 7.409744e+001
2048750000 -8.395678e+000 1.143717e+002 2.445334e+001 -3.340139e+001 -4.296856e+001 -1.279743e+002 -1.805879e+000 7.375478e+001
2050000000 -8.379252e+000 1.141793e+002 2.447697e+001 -3.416857e+001 -4.637508e+001 -1.298744e+002 -1.690719e+000 7.346175e+001
2051250000 -8.549158e+000 1.139774e+002 2.446849e+001 -3.421907e+001 -4.322023e+001 -1.633569e+002 -1.806666e+000 7.290220e+001
2052500000 -8.535872e+000 1.137783e+002 2.448067e+001 -3.494311e+001 -4.308267e+001 -1.626522e+002 -1.856796e+000 7.173196e+001
2053750000 -8.541642e+000 1.137252e+002 2.453799e+001 -3.534602e+001 -4.645859e+001 -1.684390e+002 -1.858554e+000 7.243422e+001
2055000000 -8.551888e+000 1.127985e+002 2.457670e+001 -3.604038e+001 -4.252439e+001 -1.490536e+002 -1.834948e+000 7.185566e+001
2056250000 -8.586640e+000 1.123931e+002 2.455010e+001 -3.633178e+001 -4.269434e+001 -1.450166e+002 -1.694144e+000 7.153551e+001
2057500000 -8.548815e+000 1.123077e+002 2.461786e+001 -3.692306e+001 -4.382898e+001 -1.385226e+002 -1.825426e+000 7.088549e+001
2058750000 -8.578255e+000 1.125648e+002 2.462004e+001 -3.715818e+001 -4.618699e+001 -1.567665e+002 -1.788793e+000 6.892078e+001
2060000000 -8.728273e+000 1.118142e+002 2.460410e+001 -3.757529e+001 -4.198296e+001 -1.602165e+002 -1.731126e+000 7.009462e+001
2061250000 -8.724610e+000 1.109594e+002 2.469003e+001 -3.802853e+001 -3.971949e+001 -1.610930e+002 -1.716437e+000 6.928632e+001
2062500000 -8.787683e+000 1.107703e+002 2.470352e+001 -3.877680e+001 -4.036169e+001 -1.648099e+002 -1.824858e+000 6.841157e+001
2063750000 -8.719145e+000 1.109577e+002 2.469043e+001 -3.913859e+001 -4.506582e+001 -1.597312e+002 -1.783171e+000 6.742750e+001
2065000000 -8.729630e+000 1.107084e+002 2.469155e+001 -3.971013e+001 -4.395774e+001 -1.488185e+002 -1.658077e+000 6.750021e+001
2066250000 -8.783689e+000 1.099430e+002 2.478432e+001 -4.056905e+001 -4.290750e+001 -1.569475e+002 -1.719468e+000 6.693122e+001
2067500000 -8.739328e+000 1.099924e+002 2.476575e+001 -4.044833e+001 -4.632473e+001 -1.458377e+002 -1.630751e+000 6.609243e+001
2068750000 -8.879274e+000 1.092769e+002 2.482607e+001 -4.129380e+001 -4.215746e+001 -1.705390e+002 -1.853631e+000 6.632281e+001
2070000000 -8.878304e+000 1.089305e+002 2.482402e+001 -4.162546e+001 -4.152423e+001 -1.480975e+002 -1.900514e+000 6.648086e+001
2071250000 -8.863879e+000 1.092790e+002 2.481295e+001 -4.206542e+001 -4.579894e+001 -1.533494e+002 -1.809782e+000 6.512275e+001
2072500000 -9.024001e+000 1.082124e+002 2.479753e+001 -4.268179e+001 -3.988868e+001 -1.657148e+002 -1.785600e+000 6.484169e+001
2073750000 -9.038834e+000 1.080480e+002 2.486963e+001 -4.273703e+001 -4.039590e+001 -1.694166e+002 -1.896463e+000 6.403792e+001
2075000000 -9.084115e+000 1.079941e+002 2.488222e+001 -4.362925e+001 -4.106087e+001 -1.764020e+002 -1.746552e+000 6.347470e+001
2076250000 -9.000766e+000 1.075258e+002 2.487517e+001 -4.397611e+001 -4.247775e+001 -1.472864e+002 -1.707007e+000 6.310300e+001
2077500000 -9.076561e+000 1.067468e+002 2.495014e+001 -4.474235e+001 -3.946658e+001 -1.606386e+002 -1.821546e+000 6.271053e+001
2078750000 -9.083622e+000 1.069606e+002 2.495261e+001 -4.499734e+001 -4.249099e+001 -1.669149e+002 -1.825041e+000 6.191899e+001
2080000000 -9.086361e+000 1.063163e+002 2.500465e+001 -4.584432e+001 -4.146611e+001 -1.599022e+002 -1.799404e+000 6.212408e+001
2081250000 -9.100375e+000 1.065138e+002 2.494913e+001 -4.602746e+001 -4.555728e+001 -1.541933e+002 -1.636019e+000 6.156320e+001
2082500000 -9.177025e+000 1.065955e+002 2.493155e+001 -4.645653e+001 -4.430043e+001 -1.799102e+002 -1.831164e+000 5.929436e+001
2083750000 -9.197816e+000 1.054352e+002 2.501721e+001 -4.656099e+001 -4.219142e+001 -1.584412e+002 -1.756510e+000 5.998726e+001
2085000000 -9.268039e+000 1.054467e+002 2.502556e+001 -4.726328e+001 -4.264424e+001 -1.725958e+002 -1.810377e+000 6.008780e+001
2086250000 -9.250120e+000 1.043908e+002 2.504934e+001 -4.780053e+001 -4.054868e+001 -1.534053e+002 -1.816175e+000 6.013719e+001
2087500000 -9.250431e+000 1.042388e+002 2.506524e+001 -4.830514e+001 -4.201122e+001 -1.559429e+002 -1.973479e+000 5.818200e+001
2088750000 -9.251091e+000 1.048153e+002 2.511073e+001 -4.861490e+001 -4.695615e+001 -1.658387e+002 -1.987545e+000 5.752652e+001
2090000000 -9.393116e+000 1.045423e+002 2.512738e+001 -4.934426e+001 -4.186141e+001 1.674253e+002 -1.778756e+000 5.735348e+001
2091250000 -9.445580e+000 1.039622e+002 2.511125e+001 -4.974154e+001 -4.258671e+001 -1.792557e+002 -1.766283e+000 5.694632e+001
2092500000 -9.494323e+000 1.019447e+002 2.515742e+001 -5.028045e+001 -3.790228e+001 -1.525890e+002 -1.721050e+000 5.650955e+001
2093750000 -9.459115e+000 1.025245e+002 2.518077e+001 -5.084253e+001 -4.223197e+001 -1.567286e+002 -1.722885e+000 5.669812e+001
2095000000 -9.623689e+000 1.030550e+002 2.522705e+001 -5.114347e+001 -3.983437e+001 1.730472e+002 -1.829844e+000 5.540114e+001
2096250000 -9.657289e+000 1.028555e+002 2.524195e+001 -5.186390e+001 -4.108849e+001 1.704853e+002 -1.765001e+000 5.496991e+001
2097500000 -9.537301e+000 1.025592e+002 2.520998e+001 -5.209665e+001 -4.448592e+001 -1.742130e+002 -1.688950e+000 5.380128e+001
2098750000 -9.607893e+000 1.017302e+002 2.521689e+001 -5.234640e+001 -4.297150e+001 -1.577672e+002 -1.952111e+000 5.343706e+001
2100000000 -9.711426e+000 1.022194e+002 2.528759e+001 -5.315018e+001 -4.255581e+001 1.680287e+002 -1.900222e+000 5.272143e+001
2101250000 -9.788165e+000 1.015651e+002 2.530656e+001 -5.360683e+001 -4.087088e+001 -1.764632e+002 -1.852396e+000 5.353325e+001
2102500000 -9.666959e+000 1.012688e+002 2.530665e+001 -5.390157e+001 -4.494521e+001 -1.649571e+002 -1.891312e+000 5.251492e+001
2103750000 -9.730294e+000 1.010676e+002 2.530560e+001 -5.475552e+001 -4.413585e+001 1.705917e+002 -1.655007e+000 5.092682e+001
2105000000 -9.849637e+000 1.009088e+002 2.537876e+001 -5.513832e+001 -4.233274e+001 1.701550e+002 -1.805488e+000 5.131642e+001
2106250000 -9.796586e+000 9.972104e+001 2.540455e+001 -5.578654e+001 -4.351800e+001 -1.603999e+002 -1.695663e+000 5.137257e+001
2107500000 -9.977133e+000 9.944494e+001 2.541512e+001 -5.616438e+001 -4.066854e+001 -1.766125e+002 -1.826586e+000 5.086718e+001
2108750000 -9.905983e+000 9.938695e+001 2.547024e+001 -5.669962e+001 -4.307498e+001 -1.777378e+002 -1.820685e+000 5.022934e+001
2110000000 -1.000999e+001 9.995082e+001 2.544269e+001 -5.669464e+001 -4.305004e+001 1.658177e+002 -2.042610e+000 4.941106e+001
2111250000 -1.011547e+001 9.863005e+001 2.546541e+001 -5.748384e+001 -3.923470e+001 -1.772688e+002 -1.850744e+000 4.867939e+001
2112500000 -1.012374e+001 9.848766e+001 2.549958e+001 -5.815527e+001 -4.099292e+001 1.755453e+002 -1.868984e+000 4.804469e+001
2113750000 -1.012213e+001 9.843758e+001 2.547569e+001 -5.838415e+001 -4.236980e+001 1.755671e+002 -1.739650e+000 4.766408e+001
2115000000 -1.023876e+001 9.766302e+001 2.552932e+001 -5.874949e+001 -3.964272e+001 -1.758118e+002 -1.859437e+000 4.514791e+001
2116250000 -1.035911e+001 9.750468e+001 2.552433e+001 -5.940774e+001 -3.859269e+001 -1.793340e+002 -1.798247e+000 4.689988e+001
2117500000 -1.020268e+001 9.722936e+001 2.563941e+001 -5.962708e+001 -4.034383e+001 1.792475e+002 -1.860066e+000 4.537085e+001
2118750000 -1.018344e+001 9.673626e+001 2.559705e+001 -6.073973e+001 -4.395788e+001 -1.663665e+002 -2.032945e+000 4.550790e+001
2120000000 -1.036781e+001 9.740322e+001 2.558703e+001 -6.066273e+001 -4.214333e+001 1.647309e+002 -2.025167e+000 4.426222e+001
2121250000 -1.032261e+001 9.600267e+001 2.563347e+001 -6.138596e+001 -4.226688e+001 -1.681072e+002 -1.849644e+000 4.453418e+001
2122500000 -1.045469e+001 9.644924e+001 2.560859e+001 -6.202433e+001 -4.134096e+001 1.670139e+002 -1.869099e+000 4.331942e+001
2123750000 -1.052588e+001 9.639071e+001 2.568458e+001 -6.274543e+001 -4.007306e+001 1.663683e+002 -1.663341e+000 4.238439e+001
2125000000 -1.052724e+001 9.575710e+001 2.571976e+001 -6.358746e+001 -4.127699e+001 1.673636e+002 -1.884401e+000 4.302975e+001
2126250000 -1.060247e+001 9.571933e+001 2.572464e+001 -6.355671e+001 -4.069999e+001 1.678803e+002 -1.761907e+000 4.221975e+001
2127500000 -1.068503e+001 9.527332e+001 2.580383e+001 -6.437169e+001 -4.045253e+001 1.740907e+002 -1.913512e+000 4.080121e+001
2128750000 -1.069840e+001 9.569662e+001 2.575673e+001 -6.448508e+001 -4.140836e+001 1.601699e+002 -2.070131e+000 3.980969e+001
2130000000 -1.064256e+001 9.457109e+001 2.577772e+001 -6.511304e+001 -4.274341e+001 -1.797967e+002 -1.952227e+000 3.975196e+001
2131250000 -1.091001e+001 9.411681e+001 2.582137e+001 -6.574786e+001 -3.874769e+001 1.779939e+002 -1.905835e+000 4.008122e+001
2132500000 -1.075816e+001 9.417407e+001 2.585698e+001 -6.642351e+001 -4.298592e+001 1.652807e+002 -2.087272e+000 3.885014e+001
2133750000 -1.088060e+001 9.344558e+001 2.588527e+001 -6.706006e+001 -4.158173e+001 1.750381e+002 -2.131324e+000 3.755580e+001
2135000000 -1.100544e+001 9.382834e+001 2.585322e+001 -6.715565e+001 -4.100145e+001 1.617910e+002 -2.054280e+000 3.777868e+001
2136250000 -1.110145e+001 9.353931e+001 2.589194e+001 -6.783349e+001 -3.844931e+001 1.645413e+002 -2.021446e+000 3.620457e+001
2137500000 -1.089284e+001 9.271175e+001 2.591821e+001 -6.847801e+001 -4.325457e+001 -1.689966e+002 -1.920476e+000 3.673156e+001
2138750000 -1.105083e+001 9.323348e+001 2.592642e+001 -6.914331e+001 -4.249777e+001 1.629147e+002 -2.250025e+000 3.664839e+001
2140000000 -1.122362e+001 9.200850e+001 2.595483e+001 -7.003297e+001 -3.895628e+001 1.770602e+002 -1.997846e+000 3.521890e+001
2141250000 -1.112261e+001 9.203146e+001 2.596075e+001 -7.053165e+001 -4.185962e+001 1.786444e+002 -1.909025e+000 3.560619e+001
2142500000 -1.117432e+001 9.189667e+001 2.596980e+001 -7.082363e+001 -4.313840e+001 1.735613e+002 -2.030401e+000 3.397672e+001
2143750000 -1.117466e+001 9.229247e+001 2.598416e+001 -7.135603e+001 -4.399449e+001 1.637538e+002 -1.966543e+000 3.337582e+001
2145000000 -1.134074e+001 9.043491e+001 2.598957e+001 -7.227364e+001 -3.980171e+001 -1.737202e+002 -1.953923e+000 3.281948e+001
2146250000 -1.128990e+001 9.125804e+001 2.599493e+001 -7.279971e+001 -4.285957e+001 1.634985e+002 -2.029104e+000 3.197015e+001
2147500000 -1.149743e+001 9.159249e+001 2.605422e+001 -7.310616e+001 -4.042430e+001 1.615648e+002 -1.939995e+000 3.318578e+001
2148750000 -1.156083e+001 9.080791e+001 2.601851e+001 -7.389230e+001 -4.017000e+001 1.748744e+002 -2.137959e+000 3.141472e+001
2150000000 -1.174382e+001 9.051071e+001 2.605252e+001 -7.388720e+001 -3.780207e+001 1.687939e+002 -2.254325e+000 3.076677e+001
2151250000 -1.162198e+001 9.001438e+001 2.602135e+001 -7.497408e+001 -4.024567e+001 1.619394e+002 -1.781954e+000 2.952130e+001
2152500000 -1.170403e+001 9.006350e+001 2.602808e+001 -7.500359e+001 -3.983766e+001 1.667468e+002 -1.938582e+000 2.946418e+001
2153750000 -1.159569e+001 8.971181e+001 2.605651e+001 -7.569825e+001 -4.363371e+001 1.771081e+002 -2.058205e+000 2.767709e+001
2155000000 -1.180450e+001 8.996760e+001 2.609666e+001 -7.640377e+001 -3.990990e+001 1.657047e+002 -2.202941e+000 2.857499e+001
2156250000 -1.194322e+001 8.968214e+001 2.611929e+001 -7.694389e+001 -3.894222e+001 1.618586e+002 -2.312555e+000 2.860827e+001
2157500000 -1.193314e+001 8.965034e+001 2.608484e+001 -7.725475e+001 -4.093612e+001 1.633899e+002 -2.195710e+000 2.708701e+001
2158750000 -1.195058e+001 8.954269e+001 2.613761e+001 -7.786222e+001 -4.058819e+001 1.628032e+002 -2.174588e+000 2.669887e+001
2160000000 -1.195084e+001 8.839902e+001 2.608615e+001 -7.854260e+001 -4.229689e+001 1.752062e+002 -2.144978e+000 2.560444e+001
2161250000 -1.200141e+001 8.921398e+001 2.613428e+001 -7.874603e+001 -4.252454e+001 1.531428e+002 -2.546212e+000 2.700458e+001
2162500000 -1.215497e+001 8.875802e+001 2.616107e+001 -7.932143e+001 -3.938626e+001 1.622089e+002 -2.473771e+000 2.376508e+001
2163750000 -1.220672e+001 8.797998e+001 2.611659e+001 -7.947730e+001 -3.968734e+001 1.739384e+002 -2.125836e+000 2.299444e+001
2165000000 -1.233515e+001 8.790737e+001 2.616535e+001 -8.037176e+001 -3.836032e+001 1.696325e+002 -2.372163e+000 2.325913e+001
2166250000 -1.229824e+001 8.688021e+001 2.621919e+001 -8.112411e+001 -4.088179e+001 1.748235e+002 -2.239399e+000 2.231933e+001
2167500000 -1.199622e+001 8.774569e+001 2.618359e+001 -8.114867e+001 -4.788667e+001 1.487147e+002 -2.366481e+000 2.180457e+001
2168750000 -1.241801e+001 8.657496e+001 2.615152e+001 -8.170901e+001 -3.984430e+001 1.758567e+002 -2.241077e+000 2.121522e+001
2170000000 -1.249023e+001 8.696078e+001 2.616017e+001 -8.282874e+001 -4.045956e+001 1.705121e+002 -2.559151e+000 2.232393e+001
2171250000 -1.256963e+001 8.737347e+001 2.623369e+001 -8.268674e+001 -3.999196e+001 1.616757e+002 -2.445059e+000 2.030924e+001
2172500000 -1.233331e+001 8.684824e+001 2.622393e+001 -8.337203e+001 -4.467258e+001 1.532039e+002 -2.686299e+000 2.071254e+001
2173750000 -1.265197e+001 8.717481e+001 2.621308e+001 -8.387988e+001 -3.951075e+001 1.539109e+002 -2.484296e+000 1.957605e+001
2175000000 -1.259483e+001 8.603249e+001 2.627834e+001 -8.413412e+001 -4.170121e+001 1.644213e+002 -2.534017e+000 1.782789e+001
2176250000 -1.254313e+001 8.573315e+001 2.626717e+001 -8.502619e+001 -4.439602e+001 1.650654e+002 -2.651027e+000 1.820057e+001
2177500000 -1.283403e+001 8.649940e+001 2.629612e+001 -8.535252e+001 -4.000969e+001 1.528358e+002 -2.620635e+000 1.787807e+001
2178750000 -1.304442e+001 8.483203e+001 2.635931e+001 -8.522111e+001 -3.848277e+001 1.749194e+002 -2.756361e+000 1.801105e+001
2180000000 -1.302049e+001 8.523212e+001 2.634721e+001 -8.595480e+001 -3.953630e+001 1.670548e+002 -2.621243e+000 1.704960e+001
2181250000 -1.294383e+001 8.429863e+001 2.630307e+001 -8.681134e+001 -4.151135e+001 1.708055e+002 -2.764029e+000 1.639167e+001
2182500000 -1.312502e+001 8.530953e+001 2.642002e+001 -8.705750e+001 -3.956357e+001 1.570318e+002 -2.668000e+000 1.664373e+001
2183750000 -1.314394e+001 8.497020e+001 2.644099e+001 -8.766438e+001 -4.013557e+001 1.620649e+002 -2.596257e+000 1.593991e+001
2185000000 -1.335333e+001 8.419104e+001 2.637511e+001 -8.789677e+001 -3.956879e+001 1.681794e+002 -2.642240e+000 1.482698e+001
2186250000 -1.341209e+001 8.512681e+001 2.640104e+001 -8.836086e+001 -3.853458e+001 1.535379e+002 -2.537684e+000 1.448590e+001
2187500000 -1.310594e+001 8.441274e+001 2.649151e+001 -8.872313e+001 -4.326378e+001 1.463674e+002 -2.705790e+000 1.382410e+001
2188750000 -1.360387e+001 8.442153e+001 2.650044e+001 -8.949937e+001 -3.780349e+001 1.575789e+002 -2.603813e+000 1.283499e+001
2190000000 -1.374301e+001 8.428860e+001 2.653257e+001 -9.021172e+001 -3.756631e+001 1.593078e+002 -2.634768e+000 1.204974e+001
