!Agilent Technologies,E8364A,US41440144,A.06.04.32
!Agilent E8364A: A.06.04.32
!Date: Wednesday, January 31, 2018 11:42:56
!Correction: S11(Full 2 Port(1,2)) S21(Full 2 Port(1,2)) S12(Full 2 Port(1,2)) S22(Full 2 Port(1,2)) 
!S2P File: Measurements: S11, S21, S12, S22:
# Hz S  dB   R 50
2000000000 -7.466642e+000 1.285477e+002 1.770493e+000 2.787525e+001 -5.622886e+001 -8.519712e+001 -4.750764e-001 -5.585687e+001
2001250000 -7.500334e+000 1.283046e+002 1.792873e+000 2.763996e+001 -5.661086e+001 -1.775174e+002 -5.588142e-001 -5.535641e+001
2002500000 -7.490752e+000 1.278963e+002 1.854553e+000 2.705110e+001 -5.221653e+001 1.785174e+002 -4.558828e-001 -5.596917e+001
2003750000 -7.507946e+000 1.274885e+002 1.909344e+000 2.640169e+001 -5.531156e+001 -6.590209e+001 -4.899427e-001 -5.655713e+001
2005000000 -7.544723e+000 1.274404e+002 1.961811e+000 2.637109e+001 -5.298447e+001 -1.063409e+002 -4.497277e-001 -5.664467e+001
2006250000 -7.570597e+000 1.268385e+002 1.897972e+000 2.574294e+001 -5.147609e+001 -1.411501e+002 -4.503366e-001 -5.710184e+001
2007500000 -7.585747e+000 1.269195e+002 1.989688e+000 2.516830e+001 -5.587868e+001 1.675889e+002 -4.771307e-001 -5.676731e+001
2008750000 -7.638073e+000 1.264936e+002 2.042504e+000 2.485952e+001 -6.181113e+001 3.377048e+000 -4.978034e-001 -5.733703e+001
2010000000 -7.620585e+000 1.261554e+002 2.091455e+000 2.435728e+001 -4.967457e+001 1.048283e+001 -3.382983e-001 -5.794361e+001
2011250000 -7.623475e+000 1.259540e+002 2.088859e+000 2.404973e+001 -5.575383e+001 -1.665790e+002 -4.809297e-001 -5.820152e+001
2012500000 -7.631995e+000 1.255738e+002 2.087199e+000 2.329061e+001 -5.216244e+001 -1.206312e+002 -5.418801e-001 -5.750291e+001
2013750000 -7.694880e+000 1.254111e+002 2.135927e+000 2.267566e+001 -5.315215e+001 -1.224986e+002 -4.270413e-001 -5.863332e+001
2015000000 -7.699683e+000 1.248828e+002 2.182800e+000 2.204803e+001 -5.660852e+001 -3.121724e+001 -4.238580e-001 -5.792024e+001
2016250000 -7.700273e+000 1.244958e+002 2.217454e+000 2.177554e+001 -4.928105e+001 9.571427e+001 -4.524871e-001 -5.917556e+001
2017500000 -7.745151e+000 1.244224e+002 2.300458e+000 2.124382e+001 -5.333573e+001 -7.914555e+001 -5.461081e-001 -5.961746e+001
2018750000 -7.708578e+000 1.239257e+002 2.325151e+000 2.072819e+001 -5.408320e+001 -1.059527e+002 -4.837089e-001 -5.969409e+001
2020000000 -7.732580e+000 1.237576e+002 2.357986e+000 2.052010e+001 -5.211242e+001 -4.375200e+001 -3.463896e-001 -5.964996e+001
2021250000 -7.779162e+000 1.232843e+002 2.404240e+000 2.013537e+001 -5.516628e+001 -4.314516e+001 -4.545458e-001 -5.970020e+001
2022500000 -7.812607e+000 1.231693e+002 2.410933e+000 1.957421e+001 -5.242867e+001 -7.018235e+001 -4.800309e-001 -6.020091e+001
2023750000 -7.844027e+000 1.226165e+002 2.464297e+000 1.905887e+001 -5.306885e+001 -5.360878e+001 -4.431776e-001 -6.061467e+001
2025000000 -7.805708e+000 1.222602e+002 2.478451e+000 1.809802e+001 -5.873910e+001 -1.222485e+002 -4.669975e-001 -6.105586e+001
2026250000 -7.854457e+000 1.222480e+002 2.520356e+000 1.777474e+001 -6.471590e+001 -5.258353e+001 -4.716099e-001 -6.071628e+001
2027500000 -7.913555e+000 1.220002e+002 2.541716e+000 1.728909e+001 -6.542010e+001 1.542455e+002 -5.956151e-001 -6.117356e+001
2028750000 -7.898263e+000 1.215840e+002 2.604801e+000 1.675284e+001 -4.686745e+001 -8.890016e+001 -4.129135e-001 -6.169639e+001
2030000000 -7.919549e+000 1.210603e+002 2.612770e+000 1.640390e+001 -6.174504e+001 -1.407108e+002 -4.133777e-001 -6.190357e+001
2031250000 -7.964534e+000 1.210693e+002 2.657800e+000 1.560447e+001 -5.468608e+001 1.126458e+002 -5.090157e-001 -6.229731e+001
2032500000 -7.982564e+000 1.207161e+002 2.694860e+000 1.555105e+001 -5.161152e+001 -4.254687e+000 -4.586274e-001 -6.189256e+001
2033750000 -7.959515e+000 1.202356e+002 2.802720e+000 1.463442e+001 -5.217522e+001 -6.495370e+001 -5.055277e-001 -6.220786e+001
2035000000 -8.024229e+000 1.199865e+002 2.667552e+000 1.399479e+001 -5.575087e+001 -5.080775e+001 -4.424771e-001 -6.254064e+001
2036250000 -8.052874e+000 1.193592e+002 2.765385e+000 1.362579e+001 -5.190573e+001 1.165335e+002 -3.609289e-001 -6.304899e+001
2037500000 -8.077254e+000 1.193390e+002 2.777318e+000 1.346857e+001 -4.892551e+001 -7.090720e+001 -4.012761e-001 -6.299105e+001
2038750000 -8.059583e+000 1.190922e+002 2.881490e+000 1.263806e+001 -4.595822e+001 -5.138294e+001 -4.832078e-001 -6.316459e+001
2040000000 -8.111786e+000 1.186030e+002 2.889695e+000 1.209457e+001 -5.351825e+001 -2.261865e+001 -4.393368e-001 -6.328079e+001
2041250000 -8.146706e+000 1.186045e+002 2.938486e+000 1.150938e+001 -5.154020e+001 9.600965e+001 -4.027962e-001 -6.365029e+001
2042500000 -8.177056e+000 1.177950e+002 2.943805e+000 1.095342e+001 -5.386074e+001 -1.262285e+002 -4.373238e-001 -6.433612e+001
2043750000 -8.172993e+000 1.177271e+002 2.995388e+000 1.064157e+001 -5.260523e+001 -7.768252e+000 -3.690875e-001 -6.496675e+001
2045000000 -8.228918e+000 1.172810e+002 2.997101e+000 1.004661e+001 -6.323849e+001 -1.776127e+002 -5.095863e-001 -6.479604e+001
2046250000 -8.249591e+000 1.170139e+002 3.074765e+000 9.383256e+000 -5.578994e+001 8.688477e+001 -4.258745e-001 -6.530252e+001
2047500000 -8.284181e+000 1.168454e+002 3.078825e+000 9.017653e+000 -5.304948e+001 -1.984161e+001 -4.735822e-001 -6.580055e+001
2048750000 -8.270794e+000 1.165697e+002 3.115858e+000 8.433015e+000 -5.078000e+001 -1.970655e+001 -5.461057e-001 -6.553143e+001
2050000000 -8.325586e+000 1.163944e+002 3.128484e+000 8.170081e+000 -4.885259e+001 -8.265771e+001 -4.878219e-001 -6.641193e+001
2051250000 -8.339787e+000 1.160230e+002 3.165182e+000 7.719456e+000 -5.174650e+001 -1.739685e+002 -4.934849e-001 -6.581237e+001
2052500000 -8.369339e+000 1.156556e+002 3.166056e+000 7.082941e+000 -6.593262e+001 -6.094280e+001 -4.188522e-001 -6.670589e+001
2053750000 -8.381471e+000 1.153801e+002 3.237935e+000 6.595597e+000 -4.856902e+001 4.209656e+000 -5.263138e-001 -6.687440e+001
2055000000 -8.399451e+000 1.150147e+002 3.301382e+000 5.842834e+000 -5.962238e+001 -1.797970e+002 -5.318122e-001 -6.730540e+001
2056250000 -8.432642e+000 1.148606e+002 3.294466e+000 5.864631e+000 -5.202357e+001 -9.371642e+001 -3.703468e-001 -6.768020e+001
2057500000 -8.462485e+000 1.144899e+002 3.374313e+000 5.148935e+000 -5.041873e+001 -8.043193e+001 -4.776902e-001 -6.778537e+001
2058750000 -8.476456e+000 1.142327e+002 3.355220e+000 4.457931e+000 -4.888177e+001 -2.244865e+001 -5.082273e-001 -6.783605e+001
2060000000 -8.501068e+000 1.137773e+002 3.435012e+000 4.252006e+000 -5.975167e+001 -1.254040e+002 -4.553802e-001 -6.841192e+001
2061250000 -8.519778e+000 1.134364e+002 3.449778e+000 3.900796e+000 -4.599225e+001 -1.767590e+002 -4.306910e-001 -6.844091e+001
2062500000 -8.583611e+000 1.132897e+002 3.494626e+000 3.128613e+000 -6.255537e+001 1.607557e+001 -4.577195e-001 -6.915762e+001
2063750000 -8.577805e+000 1.127895e+002 3.495313e+000 2.573219e+000 -5.543119e+001 -5.504718e+001 -5.741504e-001 -6.846526e+001
2065000000 -8.597683e+000 1.126652e+002 3.567033e+000 2.080798e+000 -5.053177e+001 -6.167190e+001 -4.357930e-001 -6.937296e+001
2066250000 -8.650448e+000 1.125824e+002 3.598833e+000 1.572050e+000 -5.851357e+001 5.361200e+001 -4.026568e-001 -6.892366e+001
2067500000 -8.656773e+000 1.118268e+002 3.609138e+000 1.272836e+000 -5.296184e+001 -3.212041e+001 -4.779202e-001 -6.992317e+001
2068750000 -8.686870e+000 1.116327e+002 3.699462e+000 5.683547e-001 -5.363775e+001 -7.238506e+001 -4.776982e-001 -6.950967e+001
2070000000 -8.758992e+000 1.111875e+002 3.727036e+000 -4.488884e-002 -5.281720e+001 -1.026996e+002 -4.072047e-001 -7.039494e+001
2071250000 -8.755362e+000 1.112046e+002 3.743339e+000 -4.514711e-001 -5.647577e+001 -1.242730e+002 -4.317294e-001 -7.063294e+001
2072500000 -8.797079e+000 1.106140e+002 3.779148e+000 -1.141600e+000 -4.828843e+001 1.716158e+002 -4.589440e-001 -7.107623e+001
2073750000 -8.829662e+000 1.101277e+002 3.793474e+000 -1.254930e+000 -5.203803e+001 -1.601336e+002 -4.045492e-001 -7.037732e+001
2075000000 -8.888130e+000 1.101077e+002 3.852793e+000 -1.936538e+000 -5.538153e+001 1.663731e+002 -4.695449e-001 -7.119049e+001
2076250000 -8.860998e+000 1.100996e+002 3.906847e+000 -2.455441e+000 -5.325961e+001 -5.433796e+001 -4.138390e-001 -7.075121e+001
2077500000 -8.871676e+000 1.098384e+002 3.959569e+000 -2.922523e+000 -4.984481e+001 -1.563589e+002 -4.729067e-001 -7.292304e+001
2078750000 -8.956019e+000 1.092824e+002 3.937664e+000 -3.293112e+000 -4.956224e+001 1.982826e+001 -4.081779e-001 -7.159861e+001
2080000000 -8.946487e+000 1.089893e+002 4.048962e+000 -4.449239e+000 -5.018064e+001 -1.427697e+002 -4.363665e-001 -7.294656e+001
2081250000 -8.999476e+000 1.085329e+002 4.022813e+000 -4.632935e+000 -5.296771e+001 -6.508102e+001 -4.340697e-001 -7.288528e+001
2082500000 -9.032444e+000 1.085248e+002 4.036942e+000 -5.263029e+000 -5.194961e+001 8.908757e+001 -4.269974e-001 -7.189244e+001
2083750000 -9.038819e+000 1.079546e+002 4.129290e+000 -5.336057e+000 -4.829483e+001 -8.623982e+000 -5.471118e-001 -7.253146e+001
2085000000 -9.070512e+000 1.073688e+002 4.174986e+000 -6.115364e+000 -5.107920e+001 -5.728711e+001 -3.952231e-001 -7.351347e+001
2086250000 -9.099371e+000 1.073991e+002 4.182228e+000 -6.592038e+000 -4.803357e+001 -1.193933e+002 -4.522389e-001 -7.444804e+001
2087500000 -9.149718e+000 1.068408e+002 4.202149e+000 -7.134273e+000 -6.486922e+001 1.157956e+002 -3.592369e-001 -7.358305e+001
2088750000 -9.148256e+000 1.066062e+002 4.305885e+000 -7.722536e+000 -5.140005e+001 -1.458975e+001 -4.355005e-001 -7.412756e+001
2090000000 -9.222533e+000 1.062107e+002 4.281648e+000 -8.692698e+000 -7.446621e+001 -8.918792e+001 -4.265006e-001 -7.438830e+001
2091250000 -9.267914e+000 1.062824e+002 4.321543e+000 -8.941738e+000 -5.188084e+001 -1.478865e+002 -4.656624e-001 -7.397318e+001
2092500000 -9.303071e+000 1.058751e+002 4.412063e+000 -9.200009e+000 -4.837991e+001 -1.075943e+002 -4.239163e-001 -7.475616e+001
2093750000 -9.353408e+000 1.053028e+002 4.437796e+000 -9.971267e+000 -5.239512e+001 -8.813799e+001 -4.876504e-001 -7.553458e+001
2095000000 -9.370382e+000 1.049762e+002 4.469131e+000 -1.059081e+001 -4.843829e+001 1.285265e+002 -4.385695e-001 -7.509822e+001
2096250000 -9.418220e+000 1.050408e+002 4.522964e+000 -1.122407e+001 -5.093679e+001 -1.499981e+002 -4.723119e-001 -7.558335e+001
2097500000 -9.452140e+000 1.045335e+002 4.528047e+000 -1.177931e+001 -6.417263e+001 1.391729e+002 -3.997530e-001 -7.613750e+001
2098750000 -9.494130e+000 1.040679e+002 4.578969e+000 -1.245924e+001 -6.118114e+001 -1.327897e+002 -5.695342e-001 -7.684504e+001
2100000000 -9.502984e+000 1.040299e+002 4.630360e+000 -1.305527e+001 -5.131955e+001 3.809354e+000 -3.589167e-001 -7.734794e+001
2101250000 -9.564215e+000 1.038923e+002 4.639642e+000 -1.360101e+001 -5.536873e+001 -1.012654e+002 -4.780359e-001 -7.694325e+001
2102500000 -9.583361e+000 1.034869e+002 4.673358e+000 -1.403284e+001 -4.709219e+001 -4.417152e+001 -3.665003e-001 -7.782649e+001
2103750000 -9.589246e+000 1.029225e+002 4.725371e+000 -1.496345e+001 -5.975002e+001 9.719242e+001 -5.126323e-001 -7.777159e+001
2105000000 -9.666028e+000 1.026075e+002 4.764194e+000 -1.553362e+001 -4.803114e+001 -1.621155e+002 -4.550442e-001 -7.763902e+001
2106250000 -9.707284e+000 1.021287e+002 4.784390e+000 -1.609313e+001 -5.221125e+001 -8.677999e+001 -4.757585e-001 -7.764870e+001
2107500000 -9.800740e+000 1.019110e+002 4.809007e+000 -1.668927e+001 -5.171715e+001 1.228090e+002 -4.676569e-001 -7.850523e+001
2108750000 -9.782010e+000 1.017706e+002 4.874083e+000 -1.703376e+001 -5.982778e+001 8.484533e+001 -4.754629e-001 -7.773586e+001
2110000000 -9.852296e+000 1.013483e+002 4.856140e+000 -1.766212e+001 -5.307761e+001 -1.687414e+001 -3.416775e-001 -7.843354e+001
2111250000 -9.875997e+000 1.012219e+002 4.892325e+000 -1.822812e+001 -5.123719e+001 -1.077122e+002 -4.343630e-001 -7.888960e+001
2112500000 -9.873364e+000 1.008024e+002 4.981736e+000 -1.897174e+001 -5.179253e+001 6.377368e+001 -3.824848e-001 -7.957870e+001
2113750000 -9.966617e+000 1.005893e+002 4.960055e+000 -1.931525e+001 -5.603077e+001 1.609025e+002 -5.502039e-001 -7.975208e+001
2115000000 -9.939627e+000 1.000751e+002 5.037446e+000 -2.002256e+001 -5.512886e+001 -1.738773e+002 -4.642236e-001 -7.930865e+001
2116250000 -1.004942e+001 9.999894e+001 5.038937e+000 -2.038397e+001 -5.027082e+001 1.608268e+002 -3.772683e-001 -8.056903e+001
2117500000 -1.003878e+001 9.938788e+001 5.107429e+000 -2.112752e+001 -4.585460e+001 -1.783977e+002 -4.451862e-001 -8.064030e+001
2118750000 -1.010528e+001 9.956229e+001 5.082471e+000 -2.173754e+001 -5.909500e+001 1.255365e+002 -4.008128e-001 -8.016714e+001
2120000000 -1.016282e+001 9.900654e+001 5.113130e+000 -2.243417e+001 -4.888762e+001 -5.764390e+000 -4.729187e-001 -8.025513e+001
2121250000 -1.016608e+001 9.882956e+001 5.168405e+000 -2.283153e+001 -5.260405e+001 -1.010518e+002 -5.092076e-001 -8.129320e+001
2122500000 -1.026670e+001 9.816555e+001 5.174374e+000 -2.359407e+001 -5.682211e+001 -4.867547e+001 -4.502030e-001 -8.176492e+001
2123750000 -1.026663e+001 9.786936e+001 5.225810e+000 -2.459364e+001 -4.731297e+001 1.519420e+002 -4.492922e-001 -8.151937e+001
2125000000 -1.029979e+001 9.769225e+001 5.265835e+000 -2.505395e+001 -5.480923e+001 -6.080530e+001 -4.204260e-001 -8.208570e+001
2126250000 -1.042636e+001 9.740325e+001 5.241506e+000 -2.544741e+001 -5.276507e+001 1.415564e+002 -4.948321e-001 -8.159463e+001
2127500000 -1.044946e+001 9.736742e+001 5.341285e+000 -2.617095e+001 -5.556868e+001 1.674216e+002 -4.426284e-001 -8.199608e+001
2128750000 -1.049794e+001 9.721844e+001 5.363946e+000 -2.668620e+001 -5.631649e+001 -1.159280e+002 -4.370321e-001 -8.255126e+001
2130000000 -1.051241e+001 9.656057e+001 5.361828e+000 -2.701739e+001 -4.992138e+001 -3.441833e+000 -4.718628e-001 -8.296438e+001
2131250000 -1.061716e+001 9.601904e+001 5.411166e+000 -2.821132e+001 -5.798194e+001 -9.525645e+001 -5.065328e-001 -8.342040e+001
2132500000 -1.064197e+001 9.626665e+001 5.432633e+000 -2.831276e+001 -6.146445e+001 2.905737e+001 -4.178776e-001 -8.334083e+001
2133750000 -1.071241e+001 9.587409e+001 5.495162e+000 -2.918567e+001 -5.005860e+001 -9.854366e+000 -4.742050e-001 -8.315729e+001
2135000000 -1.070907e+001 9.538312e+001 5.526581e+000 -2.947494e+001 -6.387806e+001 5.061258e+001 -4.846457e-001 -8.442343e+001
2136250000 -1.078008e+001 9.514297e+001 5.512000e+000 -2.996405e+001 -4.891580e+001 -1.398833e+002 -5.083312e-001 -8.382452e+001
2137500000 -1.083713e+001 9.501941e+001 5.519311e+000 -3.075484e+001 -5.819515e+001 -6.953970e+001 -4.189276e-001 -8.406723e+001
2138750000 -1.089923e+001 9.497185e+001 5.569717e+000 -3.121817e+001 -5.034815e+001 -2.421091e+001 -2.394538e-001 -8.454044e+001
2140000000 -1.093259e+001 9.461911e+001 5.598902e+000 -3.243692e+001 -5.609659e+001 -6.995367e+001 -5.097788e-001 -8.516771e+001
2141250000 -1.098164e+001 9.417749e+001 5.613909e+000 -3.278559e+001 -4.808506e+001 -4.597027e+001 -5.529510e-001 -8.535410e+001
2142500000 -1.104270e+001 9.390694e+001 5.650777e+000 -3.308830e+001 -5.140127e+001 -1.792951e+002 -4.958515e-001 -8.526313e+001
2143750000 -1.110333e+001 9.373634e+001 5.695320e+000 -3.390685e+001 -5.330915e+001 -1.155266e+002 -4.264594e-001 -8.598428e+001
2145000000 -1.112995e+001 9.348135e+001 5.679161e+000 -3.462070e+001 -5.279629e+001 -8.146888e+001 -5.425214e-001 -8.554807e+001
2146250000 -1.118546e+001 9.301110e+001 5.704884e+000 -3.507554e+001 -6.684578e+001 5.203836e+001 -5.003793e-001 -8.616084e+001
2147500000 -1.125632e+001 9.280811e+001 5.767376e+000 -3.578948e+001 -5.566419e+001 -2.793941e+001 -4.980090e-001 -8.596027e+001
2148750000 -1.128725e+001 9.317860e+001 5.786599e+000 -3.642637e+001 -5.222333e+001 1.517252e+002 -4.095891e-001 -8.703371e+001
2150000000 -1.139617e+001 9.226072e+001 5.788085e+000 -3.677033e+001 -4.822372e+001 1.376661e+002 -4.352347e-001 -8.774564e+001
2151250000 -1.143815e+001 9.196090e+001 5.831781e+000 -3.766098e+001 -5.665862e+001 -3.885846e+001 -4.195071e-001 -8.716161e+001
2152500000 -1.148265e+001 9.163607e+001 5.835227e+000 -3.801824e+001 -6.321213e+001 1.629876e+002 -5.711536e-001 -8.694727e+001
2153750000 -1.153757e+001 9.167180e+001 5.880747e+000 -3.860670e+001 -5.708354e+001 -4.605577e+001 -5.098488e-001 -8.717460e+001
2155000000 -1.156644e+001 9.148508e+001 5.944016e+000 -3.931721e+001 -5.281709e+001 7.060457e+001 -5.248732e-001 -8.869971e+001
2156250000 -1.165778e+001 9.103171e+001 5.967998e+000 -3.983648e+001 -5.483906e+001 1.308313e+002 -4.583080e-001 -8.856744e+001
2157500000 -1.175254e+001 9.085842e+001 5.959152e+000 -4.053635e+001 -4.856322e+001 -1.619072e+002 -4.746016e-001 -8.828591e+001
2158750000 -1.175979e+001 9.099184e+001 6.036339e+000 -4.104168e+001 -4.943143e+001 -1.193451e+002 -4.367208e-001 -8.949609e+001
2160000000 -1.184383e+001 9.059394e+001 6.031802e+000 -4.179368e+001 -5.515289e+001 -6.057301e+001 -4.536506e-001 -8.964928e+001
2161250000 -1.190972e+001 8.987069e+001 6.070427e+000 -4.203006e+001 -5.435486e+001 8.886228e+001 -4.592225e-001 -9.035928e+001
2162500000 -1.196503e+001 9.007698e+001 6.073903e+000 -4.277112e+001 -5.540625e+001 -1.966477e+001 -5.947238e-001 -8.968563e+001
2163750000 -1.196887e+001 9.017931e+001 6.123347e+000 -4.302376e+001 -5.321915e+001 4.490995e+001 -5.611020e-001 -8.981199e+001
2165000000 -1.207018e+001 8.955239e+001 6.134779e+000 -4.405830e+001 -5.265913e+001 -1.394869e+002 -4.223711e-001 -9.018452e+001
2166250000 -1.219463e+001 8.902330e+001 6.180025e+000 -4.488914e+001 -4.989695e+001 1.525831e+002 -4.723085e-001 -9.003019e+001
2167500000 -1.214262e+001 8.918802e+001 6.256971e+000 -4.516639e+001 -4.543533e+001 -1.835444e+001 -5.555285e-001 -9.153507e+001
2168750000 -1.218021e+001 8.898593e+001 6.195862e+000 -4.586070e+001 -5.318634e+001 -8.829326e+001 -5.674976e-001 -9.032736e+001
2170000000 -1.233553e+001 8.855575e+001 6.217757e+000 -4.727312e+001 -5.284048e+001 1.072789e+002 -5.088316e-001 -9.129655e+001
2171250000 -1.236613e+001 8.863537e+001 6.351822e+000 -4.712045e+001 -4.965519e+001 -1.419852e+002 -5.351781e-001 -9.188395e+001
2172500000 -1.243896e+001 8.817664e+001 6.308370e+000 -4.771172e+001 -5.374999e+001 -9.210567e+001 -4.149942e-001 -9.244344e+001
2173750000 -1.251841e+001 8.787570e+001 6.299873e+000 -4.879395e+001 -5.734289e+001 -1.436843e+002 -4.940934e-001 -9.239748e+001
2175000000 -1.255279e+001 8.779698e+001 6.380483e+000 -4.918501e+001 -5.687109e+001 -1.669040e+002 -5.149516e-001 -9.228093e+001
2176250000 -1.259027e+001 8.743159e+001 6.398047e+000 -5.023074e+001 -5.672144e+001 -3.014335e+001 -4.097223e-001 -9.288015e+001
2177500000 -1.270250e+001 8.745818e+001 6.454402e+000 -5.067187e+001 -4.952143e+001 -1.643220e+002 -5.481721e-001 -9.285902e+001
2178750000 -1.285654e+001 8.710461e+001 6.462835e+000 -5.067778e+001 -4.750519e+001 -1.343423e+002 -4.576858e-001 -9.328198e+001
2180000000 -1.286314e+001 8.709628e+001 6.504657e+000 -5.167406e+001 -5.078049e+001 -1.393850e+002 -4.359338e-001 -9.370736e+001
2181250000 -1.283365e+001 8.645644e+001 6.491286e+000 -5.244107e+001 -6.542916e+001 -7.988188e+001 -4.256974e-001 -9.371616e+001
2182500000 -1.300374e+001 8.650009e+001 6.573052e+000 -5.308319e+001 -6.130650e+001 1.186978e+002 -4.359390e-001 -9.400691e+001
2183750000 -1.304884e+001 8.667564e+001 6.598081e+000 -5.390440e+001 -5.384046e+001 -1.514967e+002 -5.967930e-001 -9.459389e+001
2185000000 -1.316096e+001 8.609682e+001 6.535440e+000 -5.427069e+001 -8.107400e+001 -1.456328e+002 -5.709583e-001 -9.430330e+001
2186250000 -1.321879e+001 8.587587e+001 6.610953e+000 -5.484142e+001 -5.700722e+001 4.750804e+001 -5.876102e-001 -9.491739e+001
2187500000 -1.323782e+001 8.580106e+001 6.670324e+000 -5.535350e+001 -5.350441e+001 1.216486e+001 -5.307251e-001 -9.499032e+001
2188750000 -1.337679e+001 8.541508e+001 6.690211e+000 -5.609064e+001 -4.785816e+001 1.506752e+002 -5.902792e-001 -9.458607e+001
