!Agilent Technologies,E8364A,US41440144,A.06.04.32
!Agilent E8364A: A.06.04.32
!Date: Wednesday, January 31, 2018 11:44:37
!Correction: S11(Full 2 Port(1,2)) S21(Full 2 Port(1,2)) S12(Full 2 Port(1,2)) S22(Full 2 Port(1,2)) 
!S2P File: Measurements: S11, S21, S12, S22:
# Hz S  dB   R 50
2000000000 -7.274473e+000 1.781438e+002 3.458227e+001 1.539316e+002 -5.220545e+001 4.874776e+001 -2.080341e+001 1.726012e+002
2001250000 -7.218256e+000 1.773386e+002 3.460605e+001 1.534732e+002 -5.242206e+001 6.801388e+001 -2.075103e+001 1.702469e+002
2002500000 -7.312598e+000 1.773529e+002 3.458104e+001 1.532092e+002 -5.012765e+001 4.979826e+001 -2.073517e+001 1.772880e+002
2003750000 -7.124676e+000 1.768694e+002 3.458942e+001 1.525921e+002 -5.997326e+001 1.047163e+002 -2.062358e+001 1.799715e+002
2005000000 -7.271225e+000 1.767183e+002 3.458234e+001 1.524450e+002 -5.084549e+001 5.275883e+001 -1.940694e+001 1.736640e+002
2006250000 -7.160520e+000 1.764427e+002 3.450628e+001 1.519748e+002 -6.663178e+001 8.242115e+001 -1.984051e+001 1.752035e+002
2007500000 -7.284379e+000 1.757899e+002 3.453343e+001 1.514348e+002 -5.037209e+001 5.648374e+001 -2.040865e+001 1.740096e+002
2008750000 -7.248198e+000 1.752865e+002 3.455919e+001 1.511535e+002 -5.131570e+001 7.693423e+001 -1.981202e+001 1.746151e+002
2010000000 -7.285880e+000 1.771839e+002 3.457066e+001 1.510436e+002 -4.801282e+001 -1.721935e+001 -2.002930e+001 1.758223e+002
2011250000 -7.099198e+000 1.750326e+002 3.450092e+001 1.506519e+002 -5.704758e+001 1.237271e+002 -2.022936e+001 1.770108e+002
2012500000 -7.130795e+000 1.750698e+002 3.448777e+001 1.498918e+002 -6.537538e+001 2.502280e+001 -2.030355e+001 1.739255e+002
2013750000 -7.104629e+000 1.745571e+002 3.445484e+001 1.494813e+002 -5.906348e+001 1.277956e+002 -2.026919e+001 1.758817e+002
2015000000 -7.252402e+000 1.749085e+002 3.447750e+001 1.491880e+002 -5.258404e+001 1.262813e+001 -1.998133e+001 1.799452e+002
2016250000 -7.261744e+000 1.737546e+002 3.443345e+001 1.493174e+002 -5.193614e+001 6.599282e+001 -1.967952e+001 1.782444e+002
2017500000 -7.345964e+000 1.734587e+002 3.451579e+001 1.485969e+002 -4.789173e+001 4.834778e+001 -2.003476e+001 1.687324e+002
2018750000 -7.114190e+000 1.730768e+002 3.451255e+001 1.481503e+002 -5.688607e+001 9.054941e+001 -1.914443e+001 1.793483e+002
2020000000 -7.164590e+000 1.739122e+002 3.447100e+001 1.480359e+002 -5.586425e+001 -1.618320e+001 -2.077417e+001 1.782675e+002
2021250000 -7.109706e+000 1.732935e+002 3.450784e+001 1.478405e+002 -6.345813e+001 -3.114781e+001 -1.937592e+001 1.761932e+002
2022500000 -7.109957e+000 1.728497e+002 3.446021e+001 1.475533e+002 -7.565131e+001 -2.289021e+001 -1.915441e+001 1.777471e+002
2023750000 -7.186783e+000 1.737472e+002 3.442111e+001 1.470869e+002 -4.990580e+001 -3.704795e+001 -1.987290e+001 -1.774220e+002
2025000000 -7.254189e+000 1.713213e+002 3.442277e+001 1.464071e+002 -4.904366e+001 6.458733e+001 -1.924642e+001 1.738351e+002
2026250000 -7.139931e+000 1.719007e+002 3.443993e+001 1.461985e+002 -6.276226e+001 5.183312e+001 -1.932086e+001 1.712187e+002
2027500000 -7.172353e+000 1.715667e+002 3.441603e+001 1.457321e+002 -6.238923e+001 4.151688e+001 -1.923086e+001 1.686011e+002
2028750000 -7.018599e+000 1.712951e+002 3.442625e+001 1.454468e+002 -5.891202e+001 -1.642462e+002 -1.907920e+001 1.768672e+002
2030000000 -7.240108e+000 1.712621e+002 3.437749e+001 1.450980e+002 -5.434171e+001 6.564075e+000 -1.947728e+001 1.754001e+002
2031250000 -7.327706e+000 1.695273e+002 3.442319e+001 1.443022e+002 -4.706707e+001 6.172514e+001 -1.965007e+001 1.705170e+002
2032500000 -7.218541e+000 1.712504e+002 3.439618e+001 1.443531e+002 -5.063922e+001 -1.693803e+001 -1.887442e+001 1.773104e+002
2033750000 -7.330407e+000 1.706027e+002 3.439352e+001 1.438900e+002 -4.909792e+001 1.729652e+001 -1.963154e+001 1.748878e+002
2035000000 -7.087369e+000 1.694815e+002 3.434479e+001 1.433790e+002 -6.178886e+001 1.169298e+002 -1.857812e+001 1.745494e+002
2036250000 -7.206476e+000 1.685836e+002 3.441071e+001 1.431492e+002 -5.248038e+001 7.177631e+001 -1.864989e+001 1.738960e+002
2037500000 -7.285503e+000 1.685914e+002 3.431882e+001 1.428523e+002 -5.029433e+001 5.232840e+001 -1.881772e+001 1.704499e+002
2038750000 -7.076326e+000 1.684790e+002 3.437675e+001 1.422814e+002 -5.964648e+001 1.107132e+002 -1.863043e+001 1.736934e+002
2040000000 -7.139919e+000 1.679639e+002 3.436542e+001 1.416263e+002 -5.995273e+001 5.665743e+001 -1.829615e+001 1.708530e+002
2041250000 -7.406642e+000 1.671174e+002 3.436844e+001 1.413453e+002 -4.524347e+001 5.759513e+001 -1.850265e+001 1.741052e+002
2042500000 -7.015012e+000 1.676473e+002 3.431810e+001 1.410588e+002 -5.842897e+001 -1.618004e+002 -1.815534e+001 1.700112e+002
2043750000 -7.108727e+000 1.679131e+002 3.432613e+001 1.407053e+002 -5.913155e+001 -3.562054e+001 -1.828434e+001 1.766140e+002
2045000000 -7.244951e+000 1.671240e+002 3.434597e+001 1.404231e+002 -5.422394e+001 2.717319e+001 -1.843732e+001 1.718105e+002
2046250000 -7.292582e+000 1.665035e+002 3.432407e+001 1.400082e+002 -5.217455e+001 4.786414e+001 -1.791741e+001 1.695295e+002
2047500000 -7.061199e+000 1.663078e+002 3.429935e+001 1.399936e+002 -5.787388e+001 1.366430e+002 -1.814885e+001 1.724691e+002
2048750000 -7.280924e+000 1.661534e+002 3.423901e+001 1.395589e+002 -5.176269e+001 4.230991e+001 -1.886865e+001 1.712938e+002
2050000000 -7.010545e+000 1.658964e+002 3.430147e+001 1.390333e+002 -5.830383e+001 -1.624109e+002 -1.828046e+001 1.724666e+002
2051250000 -7.089304e+000 1.648228e+002 3.429800e+001 1.388021e+002 -5.498973e+001 1.211794e+002 -1.814560e+001 1.725458e+002
2052500000 -7.201157e+000 1.649697e+002 3.423383e+001 1.381717e+002 -5.468192e+001 5.452857e+001 -1.782632e+001 1.739835e+002
2053750000 -7.275925e+000 1.654231e+002 3.426385e+001 1.380076e+002 -5.132981e+001 7.817883e+000 -1.807603e+001 1.736559e+002
2055000000 -7.141231e+000 1.646768e+002 3.429497e+001 1.370638e+002 -6.043950e+001 3.626144e+001 -1.759628e+001 1.665782e+002
2056250000 -7.245960e+000 1.645250e+002 3.423682e+001 1.373739e+002 -5.225037e+001 3.576668e+001 -1.769134e+001 1.693012e+002
2057500000 -7.249150e+000 1.652295e+002 3.426385e+001 1.365624e+002 -4.920069e+001 -1.445703e+001 -1.807430e+001 1.725313e+002
2058750000 -7.356517e+000 1.651899e+002 3.422506e+001 1.366051e+002 -4.584078e+001 -4.145225e+000 -1.806096e+001 1.738997e+002
2060000000 -7.047352e+000 1.634081e+002 3.420990e+001 1.362970e+002 -5.747168e+001 1.485981e+002 -1.819403e+001 1.660691e+002
2061250000 -7.071083e+000 1.627118e+002 3.421714e+001 1.359039e+002 -5.704034e+001 1.290527e+002 -1.767027e+001 1.659899e+002
2062500000 -7.123000e+000 1.629141e+002 3.421521e+001 1.353122e+002 -6.641235e+001 9.925765e+001 -1.741389e+001 1.708327e+002
2063750000 -7.152312e+000 1.630783e+002 3.421682e+001 1.351149e+002 -5.552728e+001 2.114438e+001 -1.776056e+001 1.697100e+002
2065000000 -7.135811e+000 1.632651e+002 3.419016e+001 1.343220e+002 -5.261649e+001 -2.300175e+001 -1.781689e+001 1.649175e+002
2066250000 -7.212073e+000 1.611743e+002 3.423363e+001 1.341941e+002 -4.876546e+001 7.672007e+001 -1.784845e+001 1.718252e+002
2067500000 -7.288783e+000 1.626960e+002 3.418636e+001 1.340213e+002 -4.803268e+001 -3.114518e+000 -1.724949e+001 1.707650e+002
2068750000 -7.256586e+000 1.616703e+002 3.419345e+001 1.333720e+002 -5.308504e+001 2.814722e+001 -1.709092e+001 1.692590e+002
2070000000 -7.320446e+000 1.621985e+002 3.419631e+001 1.331241e+002 -4.830574e+001 3.942936e+000 -1.652161e+001 1.689653e+002
2071250000 -7.253880e+000 1.617264e+002 3.414820e+001 1.327283e+002 -5.125228e+001 2.230485e-001 -1.721264e+001 1.685751e+002
2072500000 -7.095443e+000 1.596208e+002 3.410698e+001 1.322430e+002 -5.234308e+001 1.151295e+002 -1.731773e+001 1.722142e+002
2073750000 -7.076541e+000 1.587878e+002 3.410359e+001 1.321372e+002 -4.915751e+001 1.347690e+002 -1.742920e+001 1.749674e+002
2075000000 -7.092599e+000 1.589585e+002 3.411691e+001 1.314850e+002 -5.216841e+001 1.141971e+002 -1.761689e+001 1.690540e+002
2076250000 -7.106774e+000 1.601433e+002 3.415660e+001 1.312527e+002 -5.939902e+001 1.398497e+001 -1.747706e+001 1.662538e+002
2077500000 -7.125789e+000 1.587109e+002 3.412099e+001 1.307535e+002 -5.363495e+001 8.861951e+001 -1.744385e+001 1.670276e+002
2078750000 -7.313857e+000 1.586430e+002 3.408667e+001 1.305016e+002 -4.912307e+001 5.611464e+001 -1.653398e+001 1.722522e+002
2080000000 -7.126879e+000 1.589758e+002 3.410023e+001 1.296649e+002 -6.196838e+001 3.185274e+001 -1.632010e+001 1.675560e+002
2081250000 -7.272161e+000 1.585614e+002 3.406202e+001 1.295959e+002 -5.021480e+001 3.660843e+001 -1.643310e+001 1.635761e+002
2082500000 -7.363835e+000 1.578177e+002 3.398660e+001 1.294037e+002 -4.794673e+001 5.630514e+001 -1.696495e+001 1.715910e+002
2083750000 -7.301279e+000 1.580499e+002 3.404790e+001 1.293852e+002 -5.032138e+001 3.448854e+001 -1.656068e+001 1.665866e+002
2085000000 -7.252491e+000 1.574549e+002 3.400967e+001 1.283686e+002 -5.413573e+001 2.943341e+001 -1.655493e+001 1.654899e+002
2086250000 -7.120249e+000 1.580311e+002 3.400251e+001 1.281814e+002 -5.530147e+001 -3.433017e+001 -1.681110e+001 1.631458e+002
2087500000 -7.114971e+000 1.577655e+002 3.398368e+001 1.280864e+002 -5.674480e+001 -4.651278e+001 -1.654117e+001 1.674216e+002
2088750000 -7.257041e+000 1.569223e+002 3.397945e+001 1.278013e+002 -5.375870e+001 4.189021e+001 -1.651352e+001 1.710215e+002
2090000000 -7.349546e+000 1.561874e+002 3.396834e+001 1.269444e+002 -4.852120e+001 4.407114e+001 -1.649677e+001 1.635613e+002
2091250000 -7.271581e+000 1.556131e+002 3.397692e+001 1.266609e+002 -4.994677e+001 5.948285e+001 -1.669813e+001 1.699845e+002
2092500000 -6.763558e+000 1.567112e+002 3.399340e+001 1.264117e+002 -4.660575e+001 -1.275330e+002 -1.738836e+001 1.675340e+002
2093750000 -7.040263e+000 1.561189e+002 3.395536e+001 1.261071e+002 -5.770185e+001 -1.055096e+002 -1.643773e+001 1.621405e+002
2095000000 -7.148094e+000 1.541718e+002 3.397775e+001 1.255085e+002 -5.172773e+001 1.032613e+002 -1.617595e+001 1.718911e+002
2096250000 -7.278127e+000 1.542173e+002 3.398363e+001 1.251395e+002 -4.945842e+001 7.534586e+001 -1.613905e+001 1.659740e+002
2097500000 -7.076522e+000 1.547856e+002 3.392973e+001 1.248890e+002 -6.890749e+001 1.082343e+002 -1.632237e+001 1.674468e+002
2098750000 -6.948586e+000 1.544077e+002 3.388773e+001 1.245072e+002 -5.205418e+001 -1.462617e+002 -1.672447e+001 1.669663e+002
2100000000 -7.374078e+000 1.543541e+002 3.394391e+001 1.238565e+002 -4.767015e+001 2.836505e+001 -1.599959e+001 1.633264e+002
2101250000 -7.250721e+000 1.531114e+002 3.391179e+001 1.234955e+002 -5.022045e+001 7.265840e+001 -1.568569e+001 1.638995e+002
2102500000 -7.250464e+000 1.546604e+002 3.384214e+001 1.232813e+002 -4.980389e+001 -1.649770e+001 -1.628259e+001 1.603678e+002
2103750000 -7.251518e+000 1.524197e+002 3.389985e+001 1.226318e+002 -4.927739e+001 7.007906e+001 -1.609824e+001 1.611125e+002
2105000000 -7.135075e+000 1.518333e+002 3.389956e+001 1.226423e+002 -5.048471e+001 1.147054e+002 -1.541874e+001 1.678840e+002
2106250000 -7.366519e+000 1.537053e+002 3.388388e+001 1.220439e+002 -4.779351e+001 9.200482e+000 -1.617418e+001 1.563503e+002
2107500000 -7.259018e+000 1.524042e+002 3.385209e+001 1.218801e+002 -5.384948e+001 3.833871e+001 -1.591773e+001 1.660442e+002
2108750000 -7.303839e+000 1.515893e+002 3.386755e+001 1.214060e+002 -5.067027e+001 6.169104e+001 -1.551555e+001 1.626217e+002
2110000000 -7.244156e+000 1.513660e+002 3.385779e+001 1.212813e+002 -5.250187e+001 7.229354e+001 -1.515875e+001 1.634324e+002
2111250000 -7.136085e+000 1.515272e+002 3.382918e+001 1.209318e+002 -6.137337e+001 5.988491e+001 -1.592103e+001 1.618493e+002
2112500000 -7.202731e+000 1.511073e+002 3.386012e+001 1.202420e+002 -5.461589e+001 4.011296e+001 -1.565448e+001 1.605558e+002
2113750000 -7.233654e+000 1.515775e+002 3.379393e+001 1.200615e+002 -5.129452e+001 -7.143693e+000 -1.636865e+001 1.604212e+002
2115000000 -7.180623e+000 1.503389e+002 3.382975e+001 1.198721e+002 -5.614920e+001 7.680154e+001 -1.524537e+001 1.658809e+002
2116250000 -7.104924e+000 1.495111e+002 3.381775e+001 1.192129e+002 -5.593456e+001 1.261845e+002 -1.505692e+001 1.659846e+002
2117500000 -6.964835e+000 1.493609e+002 3.383460e+001 1.192294e+002 -5.335554e+001 -1.753430e+002 -1.524346e+001 1.673629e+002
2118750000 -7.164270e+000 1.499990e+002 3.376679e+001 1.182787e+002 -5.527046e+001 1.403428e+000 -1.528740e+001 1.661159e+002
2120000000 -7.338925e+000 1.487424e+002 3.377260e+001 1.183797e+002 -4.860554e+001 6.658981e+001 -1.538744e+001 1.623682e+002
2121250000 -7.146721e+000 1.495392e+002 3.375558e+001 1.179392e+002 -5.684401e+001 -2.622453e+001 -1.614391e+001 1.615258e+002
2122500000 -7.292140e+000 1.491781e+002 3.372699e+001 1.175028e+002 -5.091471e+001 1.618366e+001 -1.531582e+001 1.608958e+002
2123750000 -7.278616e+000 1.467571e+002 3.375608e+001 1.168184e+002 -4.675816e+001 9.744197e+001 -1.504041e+001 1.589059e+002
2125000000 -7.132400e+000 1.474472e+002 3.374036e+001 1.164123e+002 -5.713358e+001 1.388570e+002 -1.462178e+001 1.649831e+002
2126250000 -7.034404e+000 1.473199e+002 3.373862e+001 1.163488e+002 -5.446654e+001 1.776845e+002 -1.456158e+001 1.638212e+002
2127500000 -7.223100e+000 1.475298e+002 3.379508e+001 1.158913e+002 -5.417950e+001 5.399057e+001 -1.536519e+001 1.620426e+002
2128750000 -7.211327e+000 1.473913e+002 3.371194e+001 1.156357e+002 -5.869857e+001 4.828525e+001 -1.536561e+001 1.629165e+002
2130000000 -7.412308e+000 1.480563e+002 3.370852e+001 1.152079e+002 -4.564132e+001 9.462613e+000 -1.571634e+001 1.631355e+002
2131250000 -7.188734e+000 1.461726e+002 3.373537e+001 1.147620e+002 -5.758846e+001 7.997890e+001 -1.439305e+001 1.587613e+002
2132500000 -7.324572e+000 1.475706e+002 3.370486e+001 1.147334e+002 -4.751813e+001 3.386685e+000 -1.543952e+001 1.629759e+002
2133750000 -7.186689e+000 1.469518e+002 3.370194e+001 1.141138e+002 -5.360462e+001 -4.327916e+001 -1.513231e+001 1.665988e+002
2135000000 -7.171377e+000 1.461342e+002 3.373312e+001 1.144527e+002 -6.036274e+001 4.453599e+001 -1.446119e+001 1.600758e+002
2136250000 -7.182103e+000 1.450680e+002 3.365924e+001 1.134202e+002 -6.298652e+001 9.719906e+001 -1.500813e+001 1.611393e+002
2137500000 -7.391914e+000 1.468509e+002 3.367459e+001 1.131846e+002 -4.434110e+001 -6.708772e-001 -1.579003e+001 1.626878e+002
2138750000 -7.249975e+000 1.454082e+002 3.367871e+001 1.128490e+002 -5.277037e+001 9.187840e+000 -1.484288e+001 1.656167e+002
2140000000 -7.088811e+000 1.446767e+002 3.369493e+001 1.120513e+002 -6.539032e+001 -8.027368e+001 -1.446901e+001 1.616070e+002
2141250000 -7.092268e+000 1.444589e+002 3.364636e+001 1.118645e+002 -6.326807e+001 -1.075957e+002 -1.470880e+001 1.600417e+002
2142500000 -7.144941e+000 1.435915e+002 3.369448e+001 1.117671e+002 -5.689989e+001 1.078685e+002 -1.471421e+001 1.612845e+002
2143750000 -7.145867e+000 1.435896e+002 3.370617e+001 1.110927e+002 -6.088237e+001 9.738376e+001 -1.388475e+001 1.593693e+002
2145000000 -7.224807e+000 1.434947e+002 3.362285e+001 1.107380e+002 -5.485611e+001 1.507598e+001 -1.591368e+001 1.792116e+002
2146250000 -7.280690e+000 1.431614e+002 3.361966e+001 1.101491e+002 -5.168165e+001 4.120329e+001 -1.379714e+001 1.443105e+002
2147500000 -7.207361e+000 1.414646e+002 3.362082e+001 1.099472e+002 -4.966404e+001 1.137949e+002 -1.485639e+001 1.439724e+002
2148750000 -7.272363e+000 1.425509e+002 3.359319e+001 1.093977e+002 -5.460018e+001 2.865673e+001 -1.539055e+001 1.558413e+002
2150000000 -7.111237e+000 1.410443e+002 3.363733e+001 1.094694e+002 -5.012076e+001 1.344829e+002 -1.354685e+001 1.547033e+002
2151250000 -7.246774e+000 1.407763e+002 3.359645e+001 1.087154e+002 -5.095238e+001 9.798804e+001 -1.529970e+001 1.530234e+002
2152500000 -7.056013e+000 1.425833e+002 3.354770e+001 1.088940e+002 -5.154871e+001 -9.950484e+001 -1.370575e+001 1.555428e+002
2153750000 -7.407822e+000 1.425485e+002 3.357421e+001 1.082798e+002 -4.671571e+001 5.679227e+000 -1.492513e+001 1.636703e+002
2155000000 -7.293284e+000 1.398086e+002 3.358139e+001 1.077260e+002 -4.872399e+001 8.957324e+001 -1.427606e+001 1.581129e+002
2156250000 -7.202372e+000 1.413096e+002 3.360208e+001 1.073322e+002 -5.482964e+001 -3.313808e+001 -1.369590e+001 1.613946e+002
2157500000 -7.232785e+000 1.395203e+002 3.352465e+001 1.071687e+002 -5.099135e+001 1.157153e+002 -1.437790e+001 1.565693e+002
2158750000 -7.256299e+000 1.403580e+002 3.355954e+001 1.066509e+002 -5.334503e+001 4.807875e+001 -1.440700e+001 1.538303e+002
2160000000 -7.241963e+000 1.404530e+002 3.353106e+001 1.062046e+002 -5.399417e+001 -2.151366e+000 -1.427534e+001 1.567976e+002
2161250000 -7.309398e+000 1.396847e+002 3.354627e+001 1.060720e+002 -5.461931e+001 3.623717e+001 -1.264265e+001 1.614739e+002
2162500000 -7.281466e+000 1.386587e+002 3.354158e+001 1.055846e+002 -5.109513e+001 8.214520e+001 -1.244555e+001 1.503316e+002
2163750000 -7.310098e+000 1.399876e+002 3.349207e+001 1.057555e+002 -5.038641e+001 -2.952936e+000 -1.570509e+001 1.584762e+002
2165000000 -7.117327e+000 1.386646e+002 3.353121e+001 1.049632e+002 -6.630163e+001 1.027653e+002 -1.418268e+001 1.604381e+002
2166250000 -7.350054e+000 1.388429e+002 3.350188e+001 1.046511e+002 -5.257265e+001 2.669613e+001 -1.558433e+001 1.741919e+002
2167500000 -7.371091e+000 1.381378e+002 3.350006e+001 1.041085e+002 -4.857882e+001 4.295168e+001 -1.384265e+001 1.456398e+002
2168750000 -7.202495e+000 1.396375e+002 3.345423e+001 1.036707e+002 -4.691028e+001 -3.756017e+001 -1.429115e+001 1.602401e+002
2170000000 -7.258584e+000 1.368836e+002 3.345862e+001 1.030246e+002 -5.163897e+001 8.889378e+001 -1.392685e+001 1.579413e+002
2171250000 -7.177644e+000 1.368899e+002 3.349697e+001 1.032116e+002 -5.669083e+001 1.368929e+002 -1.417372e+001 1.563542e+002
2172500000 -7.395236e+000 1.371111e+002 3.347237e+001 1.025437e+002 -4.941142e+001 3.654871e+001 -1.341244e+001 1.590951e+002
2173750000 -7.394939e+000 1.371005e+002 3.342249e+001 1.021130e+002 -4.937909e+001 2.556089e+001 -1.358831e+001 1.571304e+002
2175000000 -7.114013e+000 1.373507e+002 3.346188e+001 1.019943e+002 -5.431674e+001 -5.935402e+001 -1.403511e+001 1.560321e+002
2176250000 -7.397596e+000 1.373706e+002 3.344100e+001 1.011673e+002 -4.749900e+001 1.311538e+001 -1.334205e+001 1.544814e+002
2177500000 -7.253789e+000 1.354640e+002 3.342217e+001 1.009593e+002 -5.628196e+001 7.999067e+001 -1.380556e+001 1.571032e+002
2178750000 -7.310326e+000 1.354157e+002 3.342540e+001 1.011249e+002 -5.544253e+001 7.356456e+001 -1.355764e+001 1.599892e+002
2180000000 -7.119423e+000 1.351859e+002 3.344998e+001 1.004484e+002 -6.709650e+001 -1.740490e+002 -1.362478e+001 1.564957e+002
2181250000 -7.340207e+000 1.351736e+002 3.335769e+001 9.981982e+001 -5.102639e+001 2.829335e+001 -1.337951e+001 1.570123e+002
2182500000 -7.326737e+000 1.350679e+002 3.343736e+001 9.976321e+001 -5.300056e+001 2.892937e+001 -1.365123e+001 1.556992e+002
2183750000 -7.120945e+000 1.345536e+002 3.343260e+001 9.908995e+001 -6.423097e+001 -1.030586e+002 -1.365579e+001 1.545882e+002
2185000000 -7.314004e+000 1.352638e+002 3.334273e+001 9.886987e+001 -4.916964e+001 -9.517612e+000 -1.370583e+001 1.542549e+002
2186250000 -7.090123e+000 1.349929e+002 3.336409e+001 9.888137e+001 -5.203279e+001 -6.527693e+001 -1.366865e+001 1.550995e+002
2187500000 -7.262951e+000 1.351018e+002 3.337617e+001 9.813113e+001 -4.813929e+001 -2.883969e+001 -1.365022e+001 1.547327e+002
2188750000 -7.245381e+000 1.336527e+002 3.335182e+001 9.814056e+001 -6.051188e+001 5.064176e+000 -1.386320e+001 1.570514e+002
2190000000 -7.168008e+000 1.316359e+002 3.333234e+001 9.706136e+001 -5.349787e+001 1.521410e+002 -1.327850e+001 1.572943e+002
2191250000 -7.435167e+000 1.326703e+002 3.335944e+001 9.718204e+001 -4.904366e+001 6.015475e+001 -1.336920e+001 1.561385e+002
