!Agilent Technologies,E8364A,US41440144,A.06.04.32
!Agilent E8364A: A.06.04.32
!Date: Wednesday, January 31, 2018 11:48:58
!Correction: S11(Full 2 Port(1,2)) S21(Full 2 Port(1,2)) S12(Full 2 Port(1,2)) S22(Full 2 Port(1,2)) 
!S2P File: Measurements: S11, S21, S12, S22:
# Hz S  dB   R 50
2000000000 -1.565415e-001 -3.961354e+000 -5.021944e+001 -7.282171e+001 -5.635243e+001 6.073879e+001 -2.921390e+000 -5.744221e+001
2001250000 -1.423875e-001 -4.248101e+000 -5.506434e+001 -1.216727e+002 -5.414066e+001 -7.643155e+001 -2.995615e+000 -5.671909e+001
2002500000 -1.341309e-001 -4.312693e+000 -4.952864e+001 7.630167e+001 -5.658457e+001 4.506734e+001 -2.936544e+000 -5.718366e+001
2003750000 -1.342568e-001 -4.123288e+000 -5.021988e+001 -9.409560e+001 -5.732608e+001 1.117674e+002 -3.038076e+000 -5.841092e+001
2005000000 -1.304388e-001 -4.046013e+000 -4.835764e+001 -5.577941e+001 -6.075683e+001 1.243035e+002 -2.950427e+000 -5.885114e+001
2006250000 -1.625382e-001 -4.393910e+000 -5.472061e+001 3.183906e+001 -5.214297e+001 -1.682157e+002 -2.991487e+000 -5.925766e+001
2007500000 -1.157710e-001 -4.198459e+000 -4.931872e+001 1.037421e+002 -4.972801e+001 1.046372e+002 -3.012826e+000 -5.883148e+001
2008750000 -1.383833e-001 -4.119370e+000 -5.224488e+001 1.287792e+002 -6.026498e+001 1.941979e+001 -2.992079e+000 -5.964651e+001
2010000000 -1.524971e-001 -4.190534e+000 -5.040245e+001 -1.161536e+002 -5.870875e+001 7.306770e+001 -2.852619e+000 -6.054056e+001
2011250000 -1.410081e-001 -4.296514e+000 -6.604854e+001 -6.380984e+001 -5.001471e+001 1.448873e+002 -3.009102e+000 -6.100891e+001
2012500000 -1.401252e-001 -4.149100e+000 -5.407442e+001 5.847383e+001 -6.467385e+001 -3.600282e+001 -3.023526e+000 -6.088181e+001
2013750000 -1.056698e-001 -4.005742e+000 -5.514831e+001 4.256758e+001 -5.400059e+001 -7.294675e+001 -3.065028e+000 -6.119494e+001
2015000000 -1.608271e-001 -4.295160e+000 -5.263863e+001 7.371152e+001 -5.293946e+001 -9.773549e+001 -3.036231e+000 -6.161399e+001
2016250000 -1.039911e-001 -4.083544e+000 -5.426846e+001 1.197829e+002 -5.197511e+001 7.541781e+001 -2.966291e+000 -6.277628e+001
2017500000 -1.452624e-001 -4.175770e+000 -5.007376e+001 -3.838121e+001 -5.673054e+001 -1.262322e+002 -3.027118e+000 -6.242247e+001
2018750000 -1.657880e-001 -4.242533e+000 -5.654407e+001 6.817578e+001 -5.398559e+001 1.532900e+002 -3.092726e+000 -6.330101e+001
2020000000 -1.408179e-001 -4.221483e+000 -6.133883e+001 6.522179e+001 -7.112837e+001 8.905540e+001 -2.859531e+000 -6.312407e+001
2021250000 -1.618072e-001 -4.389722e+000 -5.326154e+001 -1.216329e+002 -5.302945e+001 -1.742113e+002 -3.121019e+000 -6.324508e+001
2022500000 -1.227806e-001 -4.342973e+000 -4.723905e+001 -7.488164e+001 -5.724594e+001 -1.533779e+001 -3.124142e+000 -6.490510e+001
2023750000 -1.599603e-001 -4.048665e+000 -5.698826e+001 -6.111673e+001 -6.767721e+001 -1.303522e+002 -3.112325e+000 -6.419486e+001
2025000000 -1.412146e-001 -4.164423e+000 -4.902657e+001 7.954294e+001 -5.855204e+001 -7.058526e+001 -3.117467e+000 -6.538103e+001
2026250000 -1.704359e-001 -4.373678e+000 -4.992609e+001 7.598040e+001 -5.748907e+001 2.191436e+001 -3.062848e+000 -6.586574e+001
2027500000 -1.340134e-001 -4.127560e+000 -5.786524e+001 -7.638054e+001 -6.262609e+001 -7.660816e+001 -2.994276e+000 -6.607446e+001
2028750000 -1.374901e-001 -4.072336e+000 -5.289397e+001 1.221010e+002 -5.655416e+001 -8.881870e+001 -3.055152e+000 -6.686478e+001
2030000000 -1.364477e-001 -4.176895e+000 -6.171632e+001 8.011435e+001 -5.622450e+001 -4.646116e+001 -3.179488e+000 -6.645348e+001
2031250000 -1.322775e-001 -4.325840e+000 -5.431881e+001 -6.187328e+001 -5.170026e+001 1.159384e+002 -3.062234e+000 -6.742871e+001
2032500000 -1.633152e-001 -4.272945e+000 -6.446302e+001 -1.708618e+001 -4.890063e+001 -5.232383e+000 -3.187282e+000 -6.817504e+001
2033750000 -1.494608e-001 -4.199379e+000 -5.685697e+001 1.765766e+002 -4.600641e+001 -2.048164e+000 -3.117754e+000 -6.776360e+001
2035000000 -1.530715e-001 -4.099830e+000 -5.815033e+001 5.211029e+001 -5.344545e+001 -1.236618e+002 -3.085973e+000 -6.908242e+001
2036250000 -1.565705e-001 -4.202478e+000 -5.343008e+001 -7.289627e+001 -6.074033e+001 2.650589e+001 -3.014674e+000 -6.841293e+001
2037500000 -1.361787e-001 -4.159482e+000 -5.539687e+001 -2.723764e+001 -5.943534e+001 1.212893e+002 -3.023891e+000 -6.903893e+001
2038750000 -1.247371e-001 -4.297726e+000 -5.331007e+001 2.403261e+001 -6.690284e+001 1.185407e+002 -3.167598e+000 -6.958002e+001
2040000000 -1.776435e-001 -4.286980e+000 -5.098101e+001 1.276822e+002 -5.060324e+001 -4.032817e+001 -3.240494e+000 -7.046655e+001
2041250000 -1.453207e-001 -4.320335e+000 -5.111287e+001 1.002966e+002 -5.909053e+001 1.501921e+002 -3.148799e+000 -7.033530e+001
2042500000 -1.643897e-001 -4.248262e+000 -5.295036e+001 4.614375e+001 -5.285807e+001 -1.171334e+002 -3.169063e+000 -7.129503e+001
2043750000 -1.500951e-001 -4.341145e+000 -5.773024e+001 5.628146e+001 -4.880866e+001 -1.751939e+001 -3.116752e+000 -7.156794e+001
2045000000 -1.387783e-001 -4.373699e+000 -5.421202e+001 1.726299e+002 -6.970937e+001 1.549563e+001 -3.276330e+000 -7.154807e+001
2046250000 -1.914813e-001 -4.398275e+000 -5.542332e+001 -9.163918e+001 -6.339670e+001 1.720392e+002 -3.246469e+000 -7.281782e+001
2047500000 -1.536372e-001 -4.267512e+000 -5.414433e+001 4.124570e+001 -5.788948e+001 -1.783740e+002 -3.196226e+000 -7.300288e+001
2048750000 -1.498914e-001 -4.264671e+000 -6.645141e+001 -1.801637e+001 -5.286195e+001 1.249155e+001 -3.283771e+000 -7.253987e+001
2050000000 -1.376253e-001 -4.343409e+000 -5.278870e+001 1.494965e+002 -5.003643e+001 -4.217186e+001 -3.242665e+000 -7.365470e+001
2051250000 -1.561933e-001 -4.320151e+000 -4.615313e+001 -1.143408e+002 -5.491588e+001 -7.439240e+001 -3.203662e+000 -7.327158e+001
2052500000 -1.036417e-001 -4.479186e+000 -5.445071e+001 1.710052e+002 -5.614262e+001 6.929289e+001 -3.284131e+000 -7.453969e+001
2053750000 -1.174051e-001 -4.258742e+000 -6.234648e+001 7.957655e+001 -4.891824e+001 8.034040e-001 -3.258053e+000 -7.590379e+001
2055000000 -1.497251e-001 -4.538596e+000 -5.484520e+001 6.840269e+001 -4.827418e+001 -6.438651e+001 -3.425777e+000 -7.490047e+001
2056250000 -1.445501e-001 -4.581314e+000 -6.238432e+001 7.386352e+001 -5.300075e+001 -5.442249e+001 -3.178717e+000 -7.548685e+001
2057500000 -1.471589e-001 -4.349361e+000 -5.890870e+001 2.579332e+001 -5.515028e+001 4.622223e+000 -3.283847e+000 -7.649645e+001
2058750000 -1.251927e-001 -4.375978e+000 -5.196195e+001 -1.548843e+002 -6.335640e+001 -7.574076e+001 -3.239834e+000 -7.616587e+001
2060000000 -1.355804e-001 -4.404445e+000 -5.167324e+001 -8.360974e+001 -6.644159e+001 9.502337e+001 -3.398814e+000 -7.627614e+001
2061250000 -1.184041e-001 -4.238721e+000 -4.890962e+001 -1.398975e+002 -4.583982e+001 -1.458856e+002 -3.279646e+000 -7.793688e+001
2062500000 -1.673129e-001 -4.110570e+000 -6.331107e+001 -7.351752e+001 -5.597532e+001 9.805536e+000 -3.259650e+000 -7.762423e+001
2063750000 -1.279178e-001 -4.308491e+000 -5.860401e+001 -7.089447e+001 -5.844696e+001 -5.888200e+001 -3.417029e+000 -7.888507e+001
2065000000 -1.055831e-001 -4.360643e+000 -6.071370e+001 -2.772566e+001 -5.317633e+001 -5.258624e+001 -3.342756e+000 -7.888207e+001
2066250000 -1.740073e-001 -4.426577e+000 -5.132122e+001 1.639059e+002 -5.661312e+001 7.804345e+001 -3.337405e+000 -7.795979e+001
2067500000 -1.505730e-001 -4.497373e+000 -6.195465e+001 5.236273e+000 -5.625101e+001 -6.803559e-003 -3.335830e+000 -7.934376e+001
2068750000 -1.333924e-001 -4.324054e+000 -6.181914e+001 1.403586e+002 -4.928957e+001 8.328197e+001 -3.419030e+000 -7.975845e+001
2070000000 -1.465826e-001 -4.589303e+000 -6.186919e+001 8.628217e+001 -5.102324e+001 -7.325578e+001 -3.296618e+000 -8.122749e+001
2071250000 -1.104367e-001 -4.358035e+000 -5.427219e+001 6.374506e+001 -5.645355e+001 -1.797532e+002 -3.277180e+000 -8.142789e+001
2072500000 -1.633413e-001 -4.464841e+000 -5.088506e+001 -3.983097e+001 -4.828981e+001 -1.718659e+002 -3.418693e+000 -8.153396e+001
2073750000 -1.580872e-001 -4.408246e+000 -6.904612e+001 2.872327e+001 -5.552112e+001 6.285675e+001 -3.326011e+000 -8.147483e+001
2075000000 -1.552578e-001 -4.564019e+000 -5.728101e+001 1.199414e+002 -6.106387e+001 9.814888e+001 -3.388474e+000 -8.206861e+001
2076250000 -9.845267e-002 -4.322753e+000 -5.318335e+001 -9.592669e+001 -6.283501e+001 -3.183208e+000 -3.488141e+000 -8.221706e+001
2077500000 -1.469271e-001 -4.344406e+000 -5.014610e+001 7.896769e+000 -4.942868e+001 1.168981e+002 -3.487710e+000 -8.374262e+001
2078750000 -1.409501e-001 -4.669997e+000 -5.633300e+001 -9.318527e+001 -5.795517e+001 6.343373e+001 -3.342027e+000 -8.290764e+001
2080000000 -1.577390e-001 -4.338679e+000 -6.570678e+001 -1.335756e+002 -5.710313e+001 4.392424e+001 -3.469073e+000 -8.382603e+001
2081250000 -1.600446e-001 -4.519620e+000 -5.531999e+001 -1.748612e+002 -6.367763e+001 5.043003e+001 -3.482145e+000 -8.422307e+001
2082500000 -1.276936e-001 -4.395199e+000 -5.140060e+001 4.519143e+001 -4.918375e+001 7.062353e+001 -3.364233e+000 -8.325196e+001
2083750000 -1.503079e-001 -4.395260e+000 -5.392030e+001 -1.979094e+001 -5.291471e+001 -1.279806e+001 -3.478059e+000 -8.529629e+001
2085000000 -1.179148e-001 -4.640316e+000 -5.462868e+001 4.180947e+001 -5.795712e+001 5.335345e+001 -3.354773e+000 -8.562997e+001
2086250000 -1.172844e-001 -4.522759e+000 -4.990514e+001 1.497030e+001 -4.458018e+001 -1.250730e+002 -3.435969e+000 -8.689845e+001
2087500000 -1.273344e-001 -4.647527e+000 -5.325285e+001 -7.626409e+001 -5.796861e+001 7.540525e+001 -3.244026e+000 -8.677193e+001
2088750000 -1.658457e-001 -4.455211e+000 -5.840621e+001 1.583504e+002 -5.911689e+001 1.051672e+002 -3.407933e+000 -8.744625e+001
2090000000 -1.527704e-001 -4.400946e+000 -5.077283e+001 -4.202878e+001 -4.806813e+001 1.667684e+002 -3.466664e+000 -8.699458e+001
2091250000 -1.586712e-001 -4.202102e+000 -4.578494e+001 -1.569132e+002 -5.302024e+001 1.393633e+002 -3.450463e+000 -8.722918e+001
2092500000 -1.073812e-001 -4.537946e+000 -5.239816e+001 2.922899e+001 -4.816659e+001 -1.049891e+002 -3.529709e+000 -8.835938e+001
2093750000 -1.368880e-001 -4.378116e+000 -5.403166e+001 -1.208700e+002 -6.085267e+001 -1.634307e+002 -3.547755e+000 -8.978426e+001
2095000000 -1.377106e-001 -4.554935e+000 -5.878791e+001 1.309269e+002 -4.454091e+001 1.505907e+002 -3.436422e+000 -8.871079e+001
2096250000 -1.161877e-001 -4.360375e+000 -5.358774e+001 -1.178424e+002 -5.733577e+001 1.610256e+002 -3.526611e+000 -8.925157e+001
2097500000 -1.906903e-001 -4.331964e+000 -8.085878e+001 7.888332e+001 -6.277830e+001 -1.208525e+002 -3.403121e+000 -9.021128e+001
2098750000 -1.642280e-001 -4.486979e+000 -5.255561e+001 -1.440945e+002 -5.239016e+001 1.566662e+002 -3.520345e+000 -9.039759e+001
2100000000 -1.790901e-001 -4.335832e+000 -4.905259e+001 1.097525e+002 -5.662597e+001 7.214737e+001 -3.398005e+000 -9.131081e+001
2101250000 -1.431217e-001 -4.256098e+000 -7.327419e+001 3.840363e-001 -5.390997e+001 1.510489e+002 -3.597054e+000 -9.078721e+001
2102500000 -1.452783e-001 -4.390085e+000 -5.855158e+001 -1.375486e+002 -5.273313e+001 -5.029036e+001 -3.560634e+000 -9.281331e+001
2103750000 -1.736061e-001 -4.809965e+000 -5.690629e+001 -2.987939e+001 -5.126016e+001 6.322099e+001 -3.662518e+000 -9.317249e+001
2105000000 -1.352819e-001 -4.279921e+000 -6.465862e+001 -1.714068e+002 -5.997274e+001 1.115470e+002 -3.665777e+000 -9.326571e+001
2106250000 -1.571749e-001 -4.409715e+000 -6.051286e+001 -1.498305e+002 -5.075378e+001 -1.977252e+001 -3.739832e+000 -9.274957e+001
2107500000 -1.536498e-001 -4.456632e+000 -4.624230e+001 -6.317035e+001 -5.069144e+001 1.644475e+002 -3.421860e+000 -9.499975e+001
2108750000 -1.172983e-001 -4.607119e+000 -5.716607e+001 -2.811113e+001 -5.172229e+001 5.631742e+001 -3.629521e+000 -9.414603e+001
2110000000 -1.807464e-001 -4.232881e+000 -4.294992e+001 -4.920655e+001 -5.212239e+001 -3.123334e+001 -3.597979e+000 -9.523456e+001
2111250000 -1.411604e-001 -4.377822e+000 -6.475977e+001 1.303980e+002 -4.984861e+001 -1.059844e+002 -3.665103e+000 -9.520264e+001
2112500000 -1.879762e-001 -4.511343e+000 -4.829800e+001 -7.408493e+001 -5.124000e+001 1.037842e+002 -3.563412e+000 -9.503765e+001
2113750000 -1.623779e-001 -4.313706e+000 -6.830696e+001 -7.587681e+001 -6.364250e+001 -1.265923e+002 -3.688838e+000 -9.577387e+001
2115000000 -1.339379e-001 -4.528236e+000 -4.916369e+001 -3.326789e+001 -6.041257e+001 1.043467e+002 -3.600851e+000 -9.648330e+001
2116250000 -1.395655e-001 -4.551524e+000 -5.523775e+001 8.085854e+001 -6.077380e+001 -1.525907e+002 -3.604246e+000 -9.760859e+001
2117500000 -1.520631e-001 -4.601099e+000 -6.086448e+001 -7.523949e+001 -5.898481e+001 8.698941e+001 -3.679509e+000 -9.761726e+001
2118750000 -1.337968e-001 -4.575632e+000 -6.279521e+001 -5.099313e+000 -6.215471e+001 5.944308e+001 -3.576816e+000 -9.700515e+001
2120000000 -1.416921e-001 -4.664735e+000 -5.155724e+001 -7.803171e+001 -5.559362e+001 5.219664e+001 -3.707160e+000 -9.803969e+001
2121250000 -1.153764e-001 -4.437832e+000 -4.712599e+001 1.071660e+001 -5.671246e+001 -5.218146e+001 -3.803463e+000 -9.879330e+001
2122500000 -1.248989e-001 -4.758668e+000 -5.021329e+001 -2.168718e+001 -5.094490e+001 -3.024635e+001 -3.609295e+000 -9.977139e+001
2123750000 -1.606466e-001 -4.387454e+000 -5.848468e+001 5.596129e+001 -5.170055e+001 1.158013e+002 -3.859586e+000 -9.925533e+001
2125000000 -1.206000e-001 -4.503065e+000 -6.018634e+001 5.850965e+001 -5.619912e+001 -7.544263e+001 -3.691692e+000 -1.008763e+002
2126250000 -1.434092e-001 -4.421870e+000 -5.686911e+001 1.524467e+002 -5.799925e+001 2.783531e+001 -3.685704e+000 -1.007506e+002
2127500000 -1.588173e-001 -4.401699e+000 -5.167135e+001 1.009144e+002 -6.489984e+001 -1.700103e+002 -3.756102e+000 -1.005229e+002
2128750000 -1.474777e-001 -4.291649e+000 -5.565742e+001 -1.120138e+002 -7.026276e+001 -6.342111e+001 -3.732459e+000 -1.011823e+002
2130000000 -1.541381e-001 -4.364559e+000 -4.867680e+001 -5.208303e+000 -5.099494e+001 -1.056073e+001 -3.770074e+000 -1.020457e+002
2131250000 -1.648662e-001 -4.464864e+000 -6.453081e+001 1.744483e+002 -5.862671e+001 1.628461e+002 -3.821608e+000 -1.029161e+002
2132500000 -1.798611e-001 -4.302649e+000 -5.747749e+001 1.414628e+002 -5.775365e+001 -9.215526e+000 -3.706940e+000 -1.023608e+002
2133750000 -1.500343e-001 -4.657395e+000 -5.811173e+001 -9.417010e+001 -5.255587e+001 1.247111e+002 -3.676566e+000 -1.029824e+002
2135000000 -1.527804e-001 -4.301587e+000 -5.674318e+001 -1.316736e+002 -6.720757e+001 -1.429799e+002 -3.925463e+000 -1.048053e+002
2136250000 -1.241116e-001 -4.548491e+000 -4.815643e+001 -8.999004e+001 -5.914214e+001 -4.377161e+001 -3.755203e+000 -1.033174e+002
2137500000 -1.516001e-001 -4.267767e+000 -5.058826e+001 1.721685e+002 -5.410803e+001 -2.753924e+001 -3.786142e+000 -1.042270e+002
2138750000 -1.590822e-001 -4.556736e+000 -6.038880e+001 8.111520e+001 -6.129238e+001 -4.549019e+001 -3.749620e+000 -1.056976e+002
2140000000 -1.320622e-001 -4.276392e+000 -5.567402e+001 1.736377e+002 -5.809589e+001 -4.985727e+001 -3.860252e+000 -1.058461e+002
2141250000 -1.484936e-001 -4.245918e+000 -5.627709e+001 -2.510015e+001 -5.423747e+001 -5.046748e+001 -3.900739e+000 -1.070890e+002
2142500000 -1.718649e-001 -4.532873e+000 -5.478837e+001 8.727780e+001 -5.382081e+001 1.181763e+002 -3.929634e+000 -1.057221e+002
2143750000 -1.381906e-001 -4.422653e+000 -5.696231e+001 1.646470e+002 -4.964353e+001 1.420617e+002 -3.806709e+000 -1.078524e+002
2145000000 -1.255496e-001 -4.525091e+000 -5.575219e+001 8.946702e+001 -5.860799e+001 3.964938e+001 -3.922997e+000 -1.075956e+002
2146250000 -1.538763e-001 -4.575238e+000 -4.676853e+001 6.305335e+001 -6.422165e+001 -8.781869e+001 -3.929420e+000 -1.074714e+002
2147500000 -1.527149e-001 -4.573538e+000 -5.919408e+001 9.272890e+001 -5.430986e+001 1.443664e+001 -3.953957e+000 -1.078283e+002
2148750000 -1.253788e-001 -4.383996e+000 -5.115020e+001 -5.709600e+000 -5.284385e+001 1.167084e+002 -3.942023e+000 -1.088110e+002
2150000000 -1.311495e-001 -4.640231e+000 -5.554693e+001 1.635620e+002 -4.560603e+001 1.331600e+002 -3.941285e+000 -1.100617e+002
2151250000 -1.653616e-001 -4.617932e+000 -5.226773e+001 4.240433e+001 -5.044754e+001 7.729664e+001 -3.959673e+000 -1.095790e+002
2152500000 -1.450609e-001 -4.692014e+000 -4.876213e+001 -9.590481e+001 -6.156757e+001 -1.598630e+002 -4.009912e+000 -1.095000e+002
2153750000 -1.579434e-001 -4.689755e+000 -4.657579e+001 1.001469e+002 -6.760339e+001 5.009910e+001 -4.050836e+000 -1.089471e+002
2155000000 -1.265561e-001 -4.377293e+000 -5.892242e+001 7.741491e+001 -5.405754e+001 4.463084e+001 -4.182273e+000 -1.119456e+002
2156250000 -1.742844e-001 -4.811062e+000 -5.322353e+001 1.240168e+002 -5.302983e+001 -1.733315e+002 -4.105589e+000 -1.124302e+002
2157500000 -1.651523e-001 -4.360426e+000 -5.633651e+001 -8.095184e+001 -5.132369e+001 1.758532e+002 -4.138271e+000 -1.114230e+002
2158750000 -1.046268e-001 -4.461298e+000 -5.035225e+001 1.103211e+002 -6.268707e+001 -4.450772e+001 -4.122324e+000 -1.123827e+002
2160000000 -1.854579e-001 -4.445118e+000 -5.489964e+001 -4.197418e+001 -6.343705e+001 1.086893e+002 -4.067400e+000 -1.134282e+002
2161250000 -1.348630e-001 -4.390618e+000 -5.045642e+001 5.798579e+001 -4.785999e+001 5.252056e+001 -4.121336e+000 -1.142404e+002
2162500000 -1.415933e-001 -4.517774e+000 -5.678248e+001 3.245087e+001 -5.677327e+001 1.704938e+002 -4.267986e+000 -1.132854e+002
2163750000 -1.558123e-001 -4.349948e+000 -5.190177e+001 -4.433552e+001 -4.966576e+001 -1.002161e+002 -4.291367e+000 -1.130177e+002
2165000000 -1.433140e-001 -4.437794e+000 -5.034803e+001 9.793501e+001 -6.361469e+001 1.427840e+002 -4.323424e+000 -1.136549e+002
2166250000 -1.430599e-001 -4.355162e+000 -5.108672e+001 5.749629e+001 -5.918433e+001 -1.354012e+001 -4.397887e+000 -1.140910e+002
2167500000 -1.111033e-001 -4.697554e+000 -5.694099e+001 -1.458784e+001 -4.758924e+001 -4.419515e+000 -4.397530e+000 -1.159367e+002
2168750000 -8.319042e-002 -4.422702e+000 -5.331044e+001 -1.777066e+002 -4.689001e+001 -1.440636e+002 -4.461349e+000 -1.153061e+002
2170000000 -1.496896e-001 -4.332806e+000 -5.556384e+001 9.394130e+001 -5.757096e+001 -3.581915e+001 -4.316549e+000 -1.156307e+002
2171250000 -1.444308e-001 -4.623635e+000 -4.937472e+001 -8.196917e+001 -6.370599e+001 1.000086e+002 -4.415122e+000 -1.157130e+002
2172500000 -1.124611e-001 -4.618638e+000 -5.455935e+001 4.504045e+001 -5.351593e+001 -1.175092e+001 -4.369071e+000 -1.165641e+002
2173750000 -1.829213e-001 -4.615278e+000 -5.077504e+001 1.722332e+002 -6.370708e+001 -1.629610e+002 -4.454350e+000 -1.166611e+002
2175000000 -1.606202e-001 -4.398666e+000 -4.860881e+001 -1.639410e+002 -6.590895e+001 -1.646969e+002 -4.407506e+000 -1.166227e+002
2176250000 -1.274413e-001 -4.688076e+000 -5.614407e+001 3.304292e+001 -6.110576e+001 3.219262e+001 -4.512894e+000 -1.169483e+002
2177500000 -1.334402e-001 -4.336752e+000 -5.604990e+001 5.903169e+001 -6.402545e+001 -1.767590e+002 -4.614312e+000 -1.171866e+002
2178750000 -1.840192e-001 -4.700387e+000 -5.744991e+001 -7.546503e+001 -4.828313e+001 -1.301282e+002 -4.472268e+000 -1.168946e+002
2180000000 -1.561590e-001 -4.328491e+000 -5.527351e+001 -1.138370e+002 -5.188096e+001 -1.251003e+002 -4.426550e+000 -1.174152e+002
2181250000 -8.920813e-002 -4.388095e+000 -5.392303e+001 -1.446052e+001 -4.971107e+001 5.395387e+001 -4.536314e+000 -1.177057e+002
2182500000 -1.857203e-001 -4.671833e+000 -5.265365e+001 -7.971130e+001 -5.157428e+001 -2.890183e+001 -4.567393e+000 -1.179486e+002
2183750000 -1.569952e-001 -4.678713e+000 -5.715800e+001 9.331786e+001 -5.822502e+001 -1.094077e+002 -4.677631e+000 -1.184554e+002
2185000000 -1.335179e-001 -4.491205e+000 -5.274697e+001 -7.485426e+000 -5.176375e+001 3.167064e+001 -4.516686e+000 -1.173818e+002
2186250000 -8.674915e-002 -4.400115e+000 -6.085849e+001 -1.799764e+002 -5.431837e+001 4.676743e+001 -4.603780e+000 -1.181852e+002
