!Agilent Technologies,E8364A,US41440144,A.06.04.32
!Agilent E8364A: A.06.04.32
!Date: Wednesday, January 31, 2018 11:51:26
!Correction: S11(Full 2 Port(1,2)) S21(Full 2 Port(1,2)) S12(Full 2 Port(1,2)) S22(Full 2 Port(1,2)) 
!S2P File: Measurements: S11, S21, S12, S22:
# Hz S  dB   R 50
2000000000 -1.850462e-001 -4.195325e+000 -5.628016e+001 -8.363411e+001 -5.401713e+001 -1.093960e+002 -2.195539e+000 8.673261e+001
2001250000 -1.333620e-001 -3.973740e+000 -5.685653e+001 4.554972e+001 -5.531801e+001 9.898353e+001 -1.998656e+000 8.736197e+001
2002500000 -1.421118e-001 -4.099014e+000 -5.234937e+001 -5.097406e+001 -5.584367e+001 5.990214e+001 -2.224358e+000 8.708610e+001
2003750000 -1.394148e-001 -3.887804e+000 -5.709932e+001 -1.080458e+002 -6.247417e+001 -7.462900e+001 -2.232718e+000 8.657120e+001
2005000000 -1.351117e-001 -4.028633e+000 -5.728258e+001 1.611819e+002 -6.377213e+001 -1.169750e+001 -2.156106e+000 8.689833e+001
2006250000 -1.685112e-001 -4.196551e+000 -6.167056e+001 1.147089e+002 -6.983954e+001 -1.192765e+002 -2.238162e+000 8.635889e+001
2007500000 -1.197084e-001 -3.878243e+000 -5.173180e+001 2.881161e+001 -5.318113e+001 1.068642e+002 -2.200878e+000 8.721836e+001
2008750000 -1.547774e-001 -4.006537e+000 -5.519531e+001 1.422647e+002 -5.123018e+001 4.958031e+000 -2.166655e+000 8.599040e+001
2010000000 -1.436030e-001 -4.127281e+000 -5.701442e+001 -1.729591e+002 -5.356123e+001 -8.841382e+001 -2.187180e+000 8.652796e+001
2011250000 -1.109827e-001 -4.287816e+000 -5.279210e+001 -5.346766e+001 -4.693585e+001 1.500538e+002 -2.159939e+000 8.525045e+001
2012500000 -1.040343e-001 -4.126214e+000 -5.060280e+001 6.789429e+001 -5.397894e+001 -1.669733e+002 -2.131259e+000 8.577950e+001
2013750000 -1.297556e-001 -4.092165e+000 -4.997709e+001 1.149610e+002 -5.490392e+001 -1.665373e+001 -2.087247e+000 8.468180e+001
2015000000 -1.535180e-001 -4.156076e+000 -5.090728e+001 4.030131e+001 -6.179424e+001 -1.589777e+002 -2.200242e+000 8.528561e+001
2016250000 -1.301378e-001 -4.069151e+000 -6.739709e+001 -1.360376e+002 -5.019053e+001 1.248304e+002 -2.207554e+000 8.479132e+001
2017500000 -1.469825e-001 -3.983541e+000 -6.004500e+001 -1.027843e+002 -5.245357e+001 -1.125740e+002 -2.095266e+000 8.425853e+001
2018750000 -1.720736e-001 -4.321218e+000 -4.927569e+001 1.196248e+002 -5.421393e+001 -9.342118e+001 -2.220099e+000 8.427483e+001
2020000000 -1.457259e-001 -4.225644e+000 -5.682107e+001 1.132121e+002 -5.823379e+001 -2.356934e+001 -2.161319e+000 8.399983e+001
2021250000 -1.506481e-001 -4.195870e+000 -5.057944e+001 -1.276030e+002 -5.072232e+001 -1.686210e+002 -2.155224e+000 8.383137e+001
2022500000 -1.310119e-001 -4.397633e+000 -4.668635e+001 -9.928835e+001 -5.100283e+001 7.040490e+001 -2.273444e+000 8.308956e+001
2023750000 -1.514301e-001 -4.000764e+000 -5.502680e+001 -4.808929e+001 -5.729734e+001 -6.558868e+001 -2.172345e+000 8.289905e+001
2025000000 -1.366062e-001 -4.066238e+000 -5.187059e+001 5.018800e+001 -7.036436e+001 -1.145952e+002 -2.183472e+000 8.290014e+001
2026250000 -1.427916e-001 -4.150063e+000 -6.171744e+001 -8.725313e+001 -5.480553e+001 1.749012e+002 -2.073530e+000 8.309068e+001
2027500000 -1.229967e-001 -3.912306e+000 -5.947945e+001 -7.065199e+001 -5.555389e+001 6.387273e+001 -2.174442e+000 8.328120e+001
2028750000 -1.348642e-001 -3.989867e+000 -5.724105e+001 1.677573e+002 -4.835049e+001 -1.520644e+002 -2.248219e+000 8.294775e+001
2030000000 -1.544770e-001 -4.261235e+000 -7.386066e+001 4.265072e+001 -5.096301e+001 -8.459732e+001 -2.125053e+000 8.263301e+001
2031250000 -1.346288e-001 -4.244153e+000 -6.041689e+001 7.576236e+001 -5.109404e+001 7.424574e+001 -2.074384e+000 8.181659e+001
2032500000 -1.407009e-001 -4.340635e+000 -5.479145e+001 -6.930550e+001 -5.281972e+001 7.758492e+001 -2.230489e+000 8.317305e+001
2033750000 -1.521111e-001 -4.196455e+000 -5.076229e+001 -1.587380e+002 -4.902278e+001 -7.600713e+001 -2.180568e+000 8.202110e+001
2035000000 -1.931742e-001 -4.112002e+000 -5.583378e+001 2.498616e+001 -5.951607e+001 5.973541e+001 -2.184527e+000 8.075951e+001
2036250000 -1.511887e-001 -4.400376e+000 -6.052872e+001 -9.376389e+001 -5.954353e+001 1.283538e+002 -2.200737e+000 8.113381e+001
2037500000 -1.424389e-001 -4.224779e+000 -5.622334e+001 -3.319235e+000 -4.951981e+001 -5.311477e+001 -2.198307e+000 8.065205e+001
2038750000 -1.276754e-001 -4.338332e+000 -6.680901e+001 4.980247e+001 -5.059411e+001 -4.588139e+001 -2.098983e+000 8.090678e+001
2040000000 -1.932759e-001 -4.453372e+000 -4.967282e+001 1.115993e+002 -5.295646e+001 5.327793e+001 -2.115845e+000 8.124587e+001
2041250000 -1.397435e-001 -4.277652e+000 -5.234474e+001 1.697370e+002 -4.794064e+001 6.028332e+001 -2.136903e+000 7.943220e+001
2042500000 -1.294627e-001 -4.067170e+000 -5.441331e+001 2.547398e+001 -5.445568e+001 -1.707489e+002 -2.266619e+000 7.991470e+001
2043750000 -1.588334e-001 -4.340073e+000 -5.591054e+001 4.396723e+001 -5.361021e+001 1.155629e+002 -2.181417e+000 8.020040e+001
2045000000 -1.830638e-001 -4.264073e+000 -5.146036e+001 1.694512e+002 -6.224973e+001 -1.203279e+002 -2.059335e+000 7.954510e+001
2046250000 -1.610446e-001 -4.423082e+000 -5.690078e+001 1.548041e+002 -6.013588e+001 6.077822e+001 -2.219059e+000 8.043215e+001
2047500000 -1.636718e-001 -4.087270e+000 -5.514430e+001 8.402635e+001 -6.294225e+001 2.094117e+001 -2.164696e+000 7.898856e+001
2048750000 -1.471882e-001 -4.178304e+000 -4.796635e+001 -2.166841e+001 -4.955637e+001 -3.736670e+001 -2.104655e+000 7.975064e+001
2050000000 -1.395741e-001 -4.223863e+000 -5.812323e+001 1.016496e+002 -5.714106e+001 -5.204832e+001 -2.094350e+000 7.925794e+001
2051250000 -1.897161e-001 -4.186390e+000 -5.052565e+001 -1.412210e+002 -5.292327e+001 -1.499964e+002 -2.191148e+000 7.837624e+001
2052500000 -1.182982e-001 -4.459196e+000 -5.768750e+001 1.578066e+002 -5.130570e+001 5.333529e+001 -2.227404e+000 7.840707e+001
2053750000 -1.369599e-001 -4.136485e+000 -5.103981e+001 4.182694e+001 -4.965680e+001 6.233251e+000 -2.113735e+000 7.882507e+001
2055000000 -1.530157e-001 -4.306487e+000 -5.257578e+001 3.205000e+001 -6.010775e+001 1.352466e+002 -2.165027e+000 7.864342e+001
2056250000 -1.244892e-001 -4.452393e+000 -5.509130e+001 -4.560181e+001 -6.834734e+001 -1.516976e+002 -2.024071e+000 7.841161e+001
2057500000 -1.547729e-001 -4.433859e+000 -5.228976e+001 5.284104e+001 -5.015015e+001 -6.067228e+001 -2.095609e+000 7.824511e+001
2058750000 -1.295210e-001 -4.118956e+000 -6.459956e+001 -1.565256e+002 -5.476043e+001 -2.049294e+001 -2.073882e+000 7.654448e+001
2060000000 -1.397147e-001 -4.332009e+000 -6.353343e+001 -3.664767e+001 -4.834763e+001 -1.250054e+002 -2.035156e+000 7.732130e+001
2061250000 -1.351316e-001 -4.210668e+000 -5.268555e+001 -1.566838e+002 -4.607764e+001 -1.388140e+002 -2.142590e+000 7.689071e+001
2062500000 -1.478390e-001 -3.991601e+000 -5.249740e+001 -1.151237e+002 -5.482822e+001 -1.679187e+002 -2.118550e+000 7.672917e+001
2063750000 -1.291685e-001 -4.229202e+000 -5.299834e+001 -3.474202e+001 -5.590004e+001 -1.273064e+002 -2.061890e+000 7.566076e+001
2065000000 -1.471549e-001 -4.209321e+000 -5.095347e+001 -4.426299e+001 -5.564000e+001 4.738935e+001 -2.097281e+000 7.656557e+001
2066250000 -1.695014e-001 -4.365263e+000 -4.751693e+001 1.621956e+002 -6.051566e+001 6.730213e+001 -2.118960e+000 7.563403e+001
2067500000 -1.248547e-001 -4.454672e+000 -6.026949e+001 -3.931072e+001 -5.289417e+001 2.706604e+000 -2.033257e+000 7.564358e+001
2068750000 -1.288214e-001 -4.236194e+000 -4.982111e+001 -1.632290e+002 -5.664810e+001 1.152974e+002 -2.083768e+000 7.483154e+001
2070000000 -1.656610e-001 -4.371890e+000 -5.493315e+001 1.962125e+001 -4.907492e+001 -3.794896e+001 -2.220375e+000 7.616809e+001
2071250000 -1.134387e-001 -4.255721e+000 -6.421646e+001 -1.671387e+001 -6.868196e+001 4.228265e+001 -2.067308e+000 7.578238e+001
2072500000 -1.563808e-001 -4.260435e+000 -6.752844e+001 5.831714e+001 -5.702259e+001 1.437365e+002 -2.193712e+000 7.512132e+001
2073750000 -1.093471e-001 -4.317527e+000 -5.253098e+001 -9.180624e+001 -6.650616e+001 5.512387e+001 -2.186490e+000 7.379505e+001
2075000000 -1.742527e-001 -4.336718e+000 -5.887072e+001 8.381854e+001 -5.531061e+001 9.876295e+001 -2.100609e+000 7.450780e+001
2076250000 -1.104351e-001 -4.221960e+000 -5.187437e+001 1.437991e+002 -6.234983e+001 3.986984e+001 -2.121473e+000 7.363632e+001
2077500000 -1.484601e-001 -4.203503e+000 -6.091158e+001 -3.380962e+001 -4.905445e+001 -1.792219e+002 -2.178356e+000 7.382684e+001
2078750000 -1.417068e-001 -4.514734e+000 -5.995163e+001 5.220646e+000 -5.180950e+001 -1.649957e+002 -2.236537e+000 7.369617e+001
2080000000 -1.783655e-001 -4.190747e+000 -5.764911e+001 -1.650852e+002 -6.602890e+001 -1.244380e+002 -2.153632e+000 7.420093e+001
2081250000 -1.528734e-001 -4.145186e+000 -5.924206e+001 -3.041440e+001 -4.871548e+001 3.760697e+001 -2.083395e+000 7.384290e+001
2082500000 -1.689270e-001 -4.360269e+000 -5.739787e+001 6.157170e+001 -6.192315e+001 -1.082965e+002 -2.216922e+000 7.178559e+001
2083750000 -1.810697e-001 -4.142249e+000 -5.355860e+001 1.279301e+002 -6.332685e+001 -6.920854e+001 -2.120899e+000 7.249123e+001
2085000000 -1.184072e-001 -4.573199e+000 -5.164479e+001 3.885932e+001 -7.008045e+001 -4.059404e+001 -2.155037e+000 7.325473e+001
2086250000 -9.377737e-002 -4.313665e+000 -6.095546e+001 2.642029e+001 -4.668054e+001 -1.459563e+002 -2.258634e+000 7.266824e+001
2087500000 -1.200096e-001 -4.517871e+000 -5.755742e+001 -5.498580e+001 -5.569706e+001 -4.647488e+001 -2.206491e+000 7.218201e+001
2088750000 -1.667390e-001 -4.630986e+000 -5.235008e+001 1.349483e+002 -6.680302e+001 9.410197e+001 -2.186425e+000 7.182513e+001
2090000000 -1.234544e-001 -4.337417e+000 -5.629325e+001 5.717234e+001 -5.481182e+001 1.511068e+002 -2.194314e+000 7.188892e+001
2091250000 -1.399589e-001 -4.121723e+000 -4.501160e+001 -1.641173e+002 -4.923510e+001 1.354716e+002 -2.088590e+000 7.135205e+001
2092500000 -1.300379e-001 -4.283999e+000 -5.327375e+001 9.392777e+000 -4.732631e+001 -1.734957e+002 -2.172108e+000 7.182158e+001
2093750000 -1.533374e-001 -4.378788e+000 -5.271745e+001 -1.404939e+002 -5.649857e+001 -1.354937e+002 -2.083564e+000 7.207804e+001
2095000000 -1.559692e-001 -4.630242e+000 -5.907087e+001 -9.912267e+001 -5.509899e+001 -1.359202e+002 -2.231251e+000 7.070807e+001
2096250000 -1.344671e-001 -4.021164e+000 -5.125452e+001 -1.429290e+002 -5.836278e+001 1.165545e+002 -2.155043e+000 7.055899e+001
2097500000 -1.920780e-001 -4.107203e+000 -5.684921e+001 -8.672159e+000 -5.536012e+001 -4.411564e+001 -2.036488e+000 6.999203e+001
2098750000 -1.797456e-001 -4.351448e+000 -5.311996e+001 -1.625123e+002 -6.216991e+001 1.032644e+002 -2.213680e+000 7.084376e+001
2100000000 -1.472546e-001 -4.255026e+000 -6.635723e+001 8.314820e+001 -5.968404e+001 7.636797e+001 -2.150081e+000 7.003728e+001
2101250000 -1.502910e-001 -4.218414e+000 -5.295715e+001 -2.083680e+000 -6.202852e+001 -1.598877e+002 -2.107435e+000 7.033960e+001
2102500000 -1.646329e-001 -4.170131e+000 -5.559025e+001 -1.370247e+002 -4.697895e+001 -2.684872e+001 -2.242212e+000 7.010189e+001
2103750000 -1.648721e-001 -4.484080e+000 -5.585674e+001 -7.886120e+001 -6.427190e+001 7.319386e+001 -1.987046e+000 7.009827e+001
2105000000 -1.412859e-001 -4.216481e+000 -4.711740e+001 -1.553620e+001 -5.946770e+001 -1.660642e+001 -2.066354e+000 6.962165e+001
2106250000 -1.542575e-001 -4.282161e+000 -5.128684e+001 1.624576e+002 -5.086204e+001 -3.256941e+001 -1.998437e+000 6.935962e+001
2107500000 -1.464547e-001 -4.345902e+000 -5.738152e+001 -3.813633e+001 -5.486691e+001 -1.542815e+002 -2.278362e+000 6.904672e+001
2108750000 -1.528559e-001 -4.527638e+000 -4.994064e+001 2.590907e+001 -5.527850e+001 3.610335e+001 -2.035662e+000 6.876471e+001
2110000000 -1.859955e-001 -4.219761e+000 -5.104205e+001 -1.152066e+002 -5.109142e+001 -5.063641e+001 -2.343774e+000 6.837106e+001
2111250000 -1.604999e-001 -4.472012e+000 -5.527843e+001 -6.330210e+001 -5.277082e+001 -1.148485e+002 -2.154464e+000 6.856023e+001
2112500000 -1.453767e-001 -4.449866e+000 -6.573324e+001 -2.902312e+001 -8.021612e+001 -5.804324e+001 -2.172500e+000 6.758205e+001
2113750000 -1.240987e-001 -4.298467e+000 -4.921732e+001 -7.255178e+001 -6.446573e+001 -1.716271e+002 -2.114914e+000 6.777124e+001
2115000000 -1.769365e-001 -4.494323e+000 -5.203621e+001 -7.279535e+001 -5.749320e+001 5.920676e+001 -2.185716e+000 6.702330e+001
2116250000 -1.392818e-001 -4.443477e+000 -5.478075e+001 8.535165e+001 -4.693425e+001 1.497505e+002 -2.126626e+000 6.779195e+001
2117500000 -1.219265e-001 -4.458034e+000 -5.380173e+001 7.862394e+001 -5.172105e+001 -1.588881e+002 -2.209836e+000 6.664788e+001
2118750000 -1.652079e-001 -4.537085e+000 -5.584787e+001 -1.300840e+002 -4.938673e+001 -7.767531e+001 -2.298411e+000 6.696848e+001
2120000000 -1.472888e-001 -4.627522e+000 -5.521301e+001 -1.117738e+002 -5.126453e+001 -2.686587e+000 -2.198112e+000 6.553551e+001
2121250000 -1.343105e-001 -4.297325e+000 -4.769222e+001 -6.456006e+001 -6.673412e+001 -1.344598e+002 -2.268656e+000 6.710844e+001
2122500000 -1.606345e-001 -4.455047e+000 -5.244145e+001 -2.503928e+001 -5.606784e+001 -4.954543e+001 -2.212179e+000 6.671861e+001
2123750000 -1.507897e-001 -4.596302e+000 -5.509399e+001 2.961228e+001 -5.763350e+001 7.529996e+001 -2.096956e+000 6.571252e+001
2125000000 -1.548720e-001 -4.376532e+000 -6.660755e+001 1.131398e+002 -5.492742e+001 -1.327083e+002 -2.104622e+000 6.587231e+001
2126250000 -1.634106e-001 -4.328428e+000 -5.576633e+001 1.547619e+002 -5.654970e+001 -1.706829e+002 -2.112256e+000 6.573701e+001
2127500000 -1.430912e-001 -4.174471e+000 -6.118358e+001 7.391236e+001 -6.118034e+001 -1.791676e+002 -2.303627e+000 6.532749e+001
2128750000 -1.578772e-001 -4.498012e+000 -5.332915e+001 -1.631968e+002 -6.015608e+001 -1.473946e+002 -2.263706e+000 6.369626e+001
2130000000 -1.698169e-001 -4.332936e+000 -5.693148e+001 -4.316399e+001 -5.851086e+001 -5.321972e+001 -2.329633e+000 6.494360e+001
2131250000 -1.664352e-001 -4.391082e+000 -7.066955e+001 -6.251572e+001 -5.151350e+001 1.624921e+002 -2.210447e+000 6.506929e+001
2132500000 -1.594652e-001 -4.336445e+000 -5.487261e+001 1.011803e+002 -5.768001e+001 -2.464445e+001 -2.343979e+000 6.440879e+001
2133750000 -1.767268e-001 -4.352503e+000 -5.650677e+001 5.773605e+001 -5.210465e+001 8.932475e+001 -2.402266e+000 6.400251e+001
2135000000 -1.497356e-001 -4.265132e+000 -5.061837e+001 -1.288965e+002 -5.318304e+001 9.275181e+001 -2.185667e+000 6.395154e+001
2136250000 -1.586746e-001 -4.320180e+000 -5.127303e+001 -2.824140e+001 -6.110386e+001 -4.922131e+001 -2.274289e+000 6.286285e+001
2137500000 -1.365236e-001 -4.279994e+000 -5.944524e+001 7.521768e+001 -5.053452e+001 -6.322120e+001 -2.232571e+000 6.346021e+001
2138750000 -1.401472e-001 -4.500145e+000 -6.681387e+001 1.027500e+002 -5.446894e+001 -1.128994e+002 -2.384744e+000 6.336091e+001
2140000000 -1.677839e-001 -4.411952e+000 -5.652053e+001 1.596680e+002 -5.246709e+001 -1.363736e+002 -2.184372e+000 6.317800e+001
2141250000 -1.558339e-001 -4.272569e+000 -4.975574e+001 1.868267e+001 -5.434795e+001 -7.689197e+001 -2.196432e+000 6.306790e+001
2142500000 -1.519408e-001 -4.415913e+000 -5.105362e+001 4.674351e+001 -7.038632e+001 -9.590894e+001 -2.270686e+000 6.181536e+001
2143750000 -1.298974e-001 -4.584646e+000 -5.684505e+001 8.329395e+000 -5.738480e+001 -4.311053e+000 -2.331061e+000 6.245515e+001
2145000000 -1.471397e-001 -4.466653e+000 -6.028547e+001 6.739752e+001 -5.366515e+001 -1.310753e+001 -2.233308e+000 6.142668e+001
2146250000 -1.014595e-001 -4.367626e+000 -4.687083e+001 7.608150e+001 -5.342273e+001 3.566759e+001 -2.274211e+000 6.169221e+001
2147500000 -1.598184e-001 -4.416363e+000 -5.252318e+001 -1.230746e+002 -5.468484e+001 1.090855e+002 -2.181442e+000 6.180436e+001
2148750000 -1.213229e-001 -4.180105e+000 -5.083936e+001 -2.167398e+001 -5.451559e+001 1.153762e+002 -2.344461e+000 6.132476e+001
2150000000 -1.386250e-001 -4.315550e+000 -5.358051e+001 -6.833727e+001 -4.774154e+001 -1.771920e+002 -2.285648e+000 6.119778e+001
2151250000 -1.666916e-001 -4.553566e+000 -6.059903e+001 -1.474303e+001 -5.807791e+001 1.776251e+002 -2.404733e+000 5.981144e+001
2152500000 -1.244600e-001 -4.711570e+000 -5.636921e+001 -4.104164e+001 -5.646310e+001 8.088374e+001 -2.265787e+000 5.989457e+001
2153750000 -1.706305e-001 -4.248460e+000 -5.025086e+001 5.994430e+001 -4.738680e+001 -1.083356e+001 -2.173804e+000 5.876292e+001
2155000000 -1.629476e-001 -4.268971e+000 -5.133446e+001 5.664085e+001 -5.401005e+001 1.023879e+002 -2.302205e+000 5.974056e+001
2156250000 -1.623944e-001 -4.664495e+000 -4.949847e+001 1.272737e+002 -5.399230e+001 1.139035e+002 -2.474929e+000 6.053915e+001
2157500000 -1.745556e-001 -4.372473e+000 -6.269074e+001 1.453981e+002 -5.148273e+001 1.235881e+002 -2.305931e+000 5.954865e+001
2158750000 -8.823711e-002 -4.263923e+000 -4.887882e+001 5.976919e+001 -5.032957e+001 1.202207e+002 -2.296350e+000 5.973498e+001
2160000000 -1.854904e-001 -4.358884e+000 -5.104126e+001 1.791525e+002 -5.213597e+001 -7.139576e+001 -2.281929e+000 5.877029e+001
2161250000 -1.275014e-001 -4.500955e+000 -5.246246e+001 8.808949e+001 -5.265611e+001 9.104112e+001 -2.362027e+000 5.894040e+001
2162500000 -1.245721e-001 -4.527430e+000 -5.143727e+001 3.657135e+001 -5.628237e+001 -1.456886e+002 -2.408847e+000 5.778641e+001
2163750000 -1.250965e-001 -4.380815e+000 -5.319424e+001 -6.248856e+001 -5.005135e+001 -1.041143e+002 -2.425965e+000 5.717579e+001
2165000000 -1.464476e-001 -4.364124e+000 -5.446833e+001 -1.798003e+002 -5.989959e+001 1.549857e+002 -2.528805e+000 5.731190e+001
2166250000 -1.420100e-001 -4.377555e+000 -5.722115e+001 1.939138e+001 -6.461962e+001 -8.969519e+001 -2.415950e+000 5.711443e+001
2167500000 -1.041043e-001 -4.565439e+000 -5.998748e+001 -1.851866e+001 -5.301435e+001 -1.553405e+001 -2.366856e+000 5.786061e+001
2168750000 -9.838474e-002 -4.296064e+000 -5.554733e+001 4.358705e+000 -5.643820e+001 -4.363042e+001 -2.570178e+000 5.645392e+001
2170000000 -1.540304e-001 -4.096718e+000 -5.958532e+001 3.002233e+001 -5.488992e+001 -7.216767e+001 -2.489607e+000 5.673451e+001
2171250000 -1.502514e-001 -4.417866e+000 -5.103107e+001 -1.193130e+002 -5.314233e+001 1.513964e+002 -2.505975e+000 5.629112e+001
2172500000 -1.468715e-001 -4.476130e+000 -5.384538e+001 1.297892e+002 -5.136541e+001 4.247369e+001 -2.616663e+000 5.753265e+001
2173750000 -1.309899e-001 -4.518585e+000 -6.779498e+001 1.304190e+002 -6.547279e+001 -9.832112e+001 -2.586596e+000 5.644110e+001
2175000000 -1.487893e-001 -4.368464e+000 -5.794056e+001 -1.010902e+002 -5.757270e+001 1.322416e+002 -2.590869e+000 5.477507e+001
2176250000 -1.212856e-001 -4.408478e+000 -4.787170e+001 1.842605e+001 -5.489944e+001 -7.732291e+001 -2.650305e+000 5.615229e+001
2177500000 -1.315913e-001 -4.145709e+000 -4.863129e+001 1.638579e+002 -5.274323e+001 1.639733e+002 -2.668457e+000 5.527637e+001
2178750000 -1.574708e-001 -4.589258e+000 -5.643457e+001 1.210513e+002 -4.842791e+001 -1.531322e+002 -2.699460e+000 5.504145e+001
2180000000 -1.595794e-001 -4.247446e+000 -5.266350e+001 1.294075e+002 -6.428815e+001 5.548730e+001 -2.616747e+000 5.511779e+001
2181250000 -9.948215e-002 -4.277912e+000 -5.171387e+001 -4.367107e+001 -5.031210e+001 -9.543430e+001 -2.695892e+000 5.502799e+001
2182500000 -1.647436e-001 -4.661189e+000 -6.234281e+001 -1.353522e+002 -5.736845e+001 5.158187e+001 -2.656119e+000 5.483398e+001
2183750000 -1.417127e-001 -4.623487e+000 -5.630555e+001 1.016658e+002 -5.790406e+001 -1.114334e+002 -2.639179e+000 5.528604e+001
2185000000 -1.308426e-001 -4.730975e+000 -5.714877e+001 -4.985683e-001 -5.855563e+001 -3.866389e+001 -2.586713e+000 5.448449e+001
2186250000 -1.248221e-001 -4.354107e+000 -4.543681e+001 -1.564916e+002 -5.816767e+001 -1.578965e+002 -2.581444e+000 5.403892e+001
2187500000 -1.338161e-001 -4.521506e+000 -6.003258e+001 -1.393230e+002 -5.171017e+001 -9.892309e+001 -2.798991e+000 5.455237e+001
