!Agilent Technologies,E8364A,US41440144,A.06.04.32
!Agilent E8364A: A.06.04.32
!Date: Friday, February 02, 2018 16:06:53
!Correction: S11(Full 2 Port(1,2)) S21(Full 2 Port(1,2)) S12(Full 2 Port(1,2)) S22(Full 2 Port(1,2)) 
!S2P File: Measurements: S11, S21, S12, S22:
# Hz S  dB   R 50
2000000000 -1.912461e+001 -3.337725e+001 -2.343941e+001 -8.178357e+001 -2.325484e+001 -7.779829e+001 -6.066580e-001 6.724055e+001
2001250000 -1.922129e+001 -3.459731e+001 -2.347384e+001 -8.144820e+001 -2.353110e+001 -7.623122e+001 -6.601913e-001 6.700988e+001
2002500000 -1.925078e+001 -3.525285e+001 -2.380751e+001 -8.045415e+001 -2.323802e+001 -7.861231e+001 -6.733921e-001 6.590982e+001
2003750000 -1.922548e+001 -3.639796e+001 -2.363757e+001 -8.128931e+001 -2.303648e+001 -7.762627e+001 -5.864866e-001 6.610972e+001
2005000000 -1.920849e+001 -3.723554e+001 -2.336326e+001 -8.133546e+001 -2.354526e+001 -7.944481e+001 -6.064635e-001 6.607636e+001
2006250000 -1.925347e+001 -3.763235e+001 -2.360485e+001 -8.228616e+001 -2.359391e+001 -8.130257e+001 -5.893053e-001 6.535938e+001
2007500000 -1.925304e+001 -3.870992e+001 -2.350636e+001 -8.306716e+001 -2.341690e+001 -7.887051e+001 -5.783030e-001 6.554077e+001
2008750000 -1.923073e+001 -3.958046e+001 -2.374998e+001 -8.341576e+001 -2.337359e+001 -7.932862e+001 -4.973089e-001 6.596066e+001
2010000000 -1.928666e+001 -3.997926e+001 -2.361682e+001 -8.649117e+001 -2.332644e+001 -8.016133e+001 -5.523198e-001 6.538660e+001
2011250000 -1.921159e+001 -4.058559e+001 -2.378415e+001 -8.592435e+001 -2.282761e+001 -7.985859e+001 -5.764387e-001 6.566782e+001
2012500000 -1.920170e+001 -4.184148e+001 -2.377576e+001 -8.636306e+001 -2.313985e+001 -7.859021e+001 -4.854544e-001 6.484921e+001
2013750000 -1.929568e+001 -4.264187e+001 -2.378852e+001 -8.686120e+001 -2.319407e+001 -8.263475e+001 -5.238566e-001 6.549511e+001
2015000000 -1.932487e+001 -4.304352e+001 -2.360822e+001 -8.599547e+001 -2.352050e+001 -8.208124e+001 -5.493730e-001 6.482043e+001
2016250000 -1.925513e+001 -4.385926e+001 -2.379737e+001 -8.755325e+001 -2.374931e+001 -8.387573e+001 -3.826942e-001 6.479759e+001
2017500000 -1.915699e+001 -4.487970e+001 -2.365823e+001 -8.742747e+001 -2.357036e+001 -8.347208e+001 -5.113194e-001 6.444741e+001
2018750000 -1.928193e+001 -4.573573e+001 -2.367200e+001 -8.976708e+001 -2.373255e+001 -8.585973e+001 -4.248018e-001 6.387732e+001
2020000000 -1.920564e+001 -4.631767e+001 -2.339363e+001 -9.203256e+001 -2.353827e+001 -8.570244e+001 -4.010832e-001 6.461472e+001
2021250000 -1.925016e+001 -4.672662e+001 -2.307486e+001 -9.058636e+001 -2.330112e+001 -8.564207e+001 -3.890105e-001 6.423038e+001
2022500000 -1.929941e+001 -4.780004e+001 -2.342973e+001 -9.138484e+001 -2.349778e+001 -8.491637e+001 -4.811114e-001 6.417006e+001
2023750000 -1.931799e+001 -4.921398e+001 -2.305864e+001 -9.207589e+001 -2.355267e+001 -8.523198e+001 -5.191672e-001 6.404859e+001
2025000000 -1.932390e+001 -4.923451e+001 -2.336022e+001 -8.971447e+001 -2.326918e+001 -8.871600e+001 -5.733364e-001 6.384663e+001
2026250000 -1.934176e+001 -5.024432e+001 -2.348373e+001 -9.262782e+001 -2.339436e+001 -8.896315e+001 -4.747197e-001 6.380285e+001
2027500000 -1.928695e+001 -5.061622e+001 -2.346868e+001 -9.299671e+001 -2.331299e+001 -8.882809e+001 -5.492238e-001 6.366135e+001
2028750000 -1.932720e+001 -5.185458e+001 -2.352596e+001 -9.367986e+001 -2.335203e+001 -9.062632e+001 -5.459682e-001 6.384210e+001
2030000000 -1.935626e+001 -5.225727e+001 -2.324937e+001 -9.311211e+001 -2.320154e+001 -8.994245e+001 -6.107759e-001 6.308477e+001
2031250000 -1.932702e+001 -5.313865e+001 -2.350017e+001 -9.307420e+001 -2.347824e+001 -9.187035e+001 -4.841233e-001 6.273791e+001
2032500000 -1.931645e+001 -5.396807e+001 -2.349085e+001 -9.358620e+001 -2.341871e+001 -9.023000e+001 -4.961164e-001 6.275590e+001
2033750000 -1.933986e+001 -5.518691e+001 -2.372431e+001 -9.480419e+001 -2.290168e+001 -8.983254e+001 -4.012665e-001 6.252449e+001
2035000000 -1.933908e+001 -5.560430e+001 -2.333617e+001 -9.530452e+001 -2.345963e+001 -9.236910e+001 -4.867855e-001 6.224367e+001
2036250000 -1.935099e+001 -5.577707e+001 -2.325939e+001 -9.727966e+001 -2.330555e+001 -9.469207e+001 -4.695956e-001 6.196708e+001
2037500000 -1.943775e+001 -5.671491e+001 -2.313687e+001 -9.623309e+001 -2.335421e+001 -9.337821e+001 -4.993407e-001 6.192996e+001
2038750000 -1.944841e+001 -5.816739e+001 -2.330560e+001 -9.615443e+001 -2.346162e+001 -9.392043e+001 -5.596035e-001 6.197525e+001
2040000000 -1.947313e+001 -5.924179e+001 -2.307507e+001 -9.788461e+001 -2.260744e+001 -9.503436e+001 -5.919961e-001 6.198914e+001
2041250000 -1.950984e+001 -5.915251e+001 -2.303575e+001 -9.946411e+001 -2.329178e+001 -9.500632e+001 -5.627656e-001 6.152718e+001
2042500000 -1.955105e+001 -6.017226e+001 -2.317389e+001 -9.893056e+001 -2.315746e+001 -9.543142e+001 -5.275432e-001 6.111422e+001
2043750000 -1.951402e+001 -6.097466e+001 -2.337452e+001 -9.956424e+001 -2.313680e+001 -9.542867e+001 -4.256486e-001 6.125882e+001
2045000000 -1.955539e+001 -6.226770e+001 -2.345675e+001 -9.888145e+001 -2.306747e+001 -9.605152e+001 -4.443082e-001 6.084871e+001
2046250000 -1.955373e+001 -6.244689e+001 -2.348884e+001 -1.016442e+002 -2.336332e+001 -9.721882e+001 -4.911443e-001 6.089495e+001
2047500000 -1.952862e+001 -6.389841e+001 -2.372958e+001 -1.014115e+002 -2.307856e+001 -9.542973e+001 -4.958355e-001 6.127472e+001
2048750000 -1.950728e+001 -6.433405e+001 -2.360200e+001 -1.016196e+002 -2.318830e+001 -9.470405e+001 -4.886521e-001 6.077217e+001
2050000000 -1.958166e+001 -6.489275e+001 -2.358059e+001 -1.011293e+002 -2.306250e+001 -9.658528e+001 -4.657527e-001 6.085568e+001
2051250000 -1.962317e+001 -6.608534e+001 -2.349847e+001 -1.018138e+002 -2.309765e+001 -9.986902e+001 -5.068349e-001 6.035280e+001
2052500000 -1.961316e+001 -6.667249e+001 -2.353188e+001 -1.021187e+002 -2.340019e+001 -9.986076e+001 -5.055642e-001 5.961573e+001
2053750000 -1.963373e+001 -6.783353e+001 -2.372577e+001 -1.039429e+002 -2.310473e+001 -9.740379e+001 -4.668852e-001 5.945641e+001
2055000000 -1.969172e+001 -6.839801e+001 -2.371179e+001 -1.027636e+002 -2.316313e+001 -9.922417e+001 -4.518158e-001 5.913226e+001
2056250000 -1.969893e+001 -6.867728e+001 -2.327104e+001 -1.046338e+002 -2.324103e+001 -1.023456e+002 -4.990942e-001 5.857210e+001
2057500000 -1.974857e+001 -6.926871e+001 -2.354786e+001 -1.035145e+002 -2.305354e+001 -1.005597e+002 -5.086939e-001 5.849882e+001
2058750000 -1.962518e+001 -7.030138e+001 -2.389789e+001 -1.063037e+002 -2.321436e+001 -1.037013e+002 -4.430008e-001 5.910941e+001
2060000000 -1.979043e+001 -7.089914e+001 -2.349787e+001 -1.055617e+002 -2.311235e+001 -1.034208e+002 -4.497688e-001 5.921475e+001
2061250000 -1.975513e+001 -7.170186e+001 -2.305362e+001 -1.068545e+002 -2.275946e+001 -1.046356e+002 -4.750157e-001 5.884686e+001
2062500000 -1.978746e+001 -7.297089e+001 -2.340032e+001 -1.076795e+002 -2.295248e+001 -1.042177e+002 -4.732294e-001 5.905766e+001
2063750000 -1.989817e+001 -7.348765e+001 -2.354012e+001 -1.050510e+002 -2.286861e+001 -1.048201e+002 -4.978665e-001 5.860752e+001
2065000000 -1.987506e+001 -7.442389e+001 -2.349458e+001 -1.057929e+002 -2.274842e+001 -1.030443e+002 -4.778871e-001 5.846915e+001
2066250000 -1.984993e+001 -7.500764e+001 -2.329333e+001 -1.091762e+002 -2.277669e+001 -1.065010e+002 -5.438692e-001 5.872710e+001
2067500000 -1.988314e+001 -7.563528e+001 -2.352609e+001 -1.091829e+002 -2.310140e+001 -1.059506e+002 -5.822443e-001 5.872255e+001
2068750000 -1.988483e+001 -7.628643e+001 -2.361404e+001 -1.075355e+002 -2.292542e+001 -1.036495e+002 -5.324237e-001 5.891449e+001
2070000000 -1.988884e+001 -7.716243e+001 -2.327731e+001 -1.117273e+002 -2.319142e+001 -1.074802e+002 -5.252697e-001 5.920489e+001
2071250000 -2.000229e+001 -7.780698e+001 -2.340581e+001 -1.122411e+002 -2.310723e+001 -1.079112e+002 -5.692576e-001 5.830136e+001
2072500000 -2.003447e+001 -7.893630e+001 -2.331887e+001 -1.135852e+002 -2.277908e+001 -1.040646e+002 -5.777324e-001 5.788877e+001
2073750000 -2.003894e+001 -7.992941e+001 -2.362166e+001 -1.111843e+002 -2.315975e+001 -1.058143e+002 -6.147768e-001 5.795632e+001
2075000000 -2.004642e+001 -8.088364e+001 -2.365251e+001 -1.129652e+002 -2.250207e+001 -1.085318e+002 -5.315023e-001 5.677282e+001
2076250000 -2.012684e+001 -8.161298e+001 -2.361156e+001 -1.132732e+002 -2.286300e+001 -1.105989e+002 -5.426304e-001 5.654008e+001
2077500000 -2.020049e+001 -8.208489e+001 -2.371499e+001 -1.133063e+002 -2.301055e+001 -1.096130e+002 -4.846026e-001 5.695521e+001
2078750000 -2.021240e+001 -8.241114e+001 -2.375525e+001 -1.121268e+002 -2.296431e+001 -1.101306e+002 -5.465065e-001 5.663882e+001
2080000000 -2.023143e+001 -8.412731e+001 -2.363476e+001 -1.140854e+002 -2.303069e+001 -1.133798e+002 -6.130478e-001 5.686340e+001
2081250000 -2.032333e+001 -8.419542e+001 -2.330122e+001 -1.158923e+002 -2.290684e+001 -1.139728e+002 -5.368105e-001 5.636858e+001
2082500000 -2.036523e+001 -8.481024e+001 -2.352602e+001 -1.159465e+002 -2.300022e+001 -1.139845e+002 -5.540083e-001 5.716595e+001
2083750000 -2.044976e+001 -8.529057e+001 -2.339511e+001 -1.173733e+002 -2.318031e+001 -1.145211e+002 -5.901718e-001 5.752524e+001
2085000000 -2.049589e+001 -8.671716e+001 -2.366688e+001 -1.171197e+002 -2.318889e+001 -1.107657e+002 -5.581971e-001 5.743120e+001
2086250000 -2.053324e+001 -8.743880e+001 -2.358368e+001 -1.187367e+002 -2.282978e+001 -1.142746e+002 -5.744046e-001 5.622478e+001
2087500000 -2.061805e+001 -8.792674e+001 -2.362006e+001 -1.199254e+002 -2.278360e+001 -1.143783e+002 -6.334743e-001 5.613558e+001
2088750000 -2.050862e+001 -8.863992e+001 -2.334011e+001 -1.179362e+002 -2.330511e+001 -1.138939e+002 -5.707682e-001 5.583270e+001
2090000000 -2.054239e+001 -8.966057e+001 -2.340633e+001 -1.205709e+002 -2.320443e+001 -1.146644e+002 -4.366768e-001 5.473253e+001
2091250000 -2.061062e+001 -9.100310e+001 -2.352663e+001 -1.185631e+002 -2.301284e+001 -1.177607e+002 -5.589238e-001 5.439089e+001
2092500000 -2.062009e+001 -9.095352e+001 -2.310684e+001 -1.178742e+002 -2.291545e+001 -1.172101e+002 -4.118141e-001 5.418087e+001
2093750000 -2.066896e+001 -9.216575e+001 -2.357846e+001 -1.206229e+002 -2.297251e+001 -1.166669e+002 -3.916318e-001 5.413558e+001
2095000000 -2.071632e+001 -9.304007e+001 -2.334017e+001 -1.219892e+002 -2.280921e+001 -1.171001e+002 -3.791249e-001 5.451781e+001
2096250000 -2.082346e+001 -9.375039e+001 -2.334717e+001 -1.211386e+002 -2.224000e+001 -1.177967e+002 -3.250550e-001 5.336962e+001
2097500000 -2.082513e+001 -9.461494e+001 -2.289154e+001 -1.227298e+002 -2.285470e+001 -1.202639e+002 -4.345914e-001 5.286669e+001
2098750000 -2.088050e+001 -9.478432e+001 -2.287211e+001 -1.242866e+002 -2.275796e+001 -1.187943e+002 -4.858676e-001 5.351025e+001
2100000000 -2.095909e+001 -9.606345e+001 -2.335396e+001 -1.248264e+002 -2.284055e+001 -1.183696e+002 -6.346393e-001 5.255087e+001
2101250000 -2.101318e+001 -9.649809e+001 -2.309896e+001 -1.235191e+002 -2.289596e+001 -1.191660e+002 -6.834399e-001 5.313506e+001
2102500000 -2.104552e+001 -9.742784e+001 -2.322053e+001 -1.259318e+002 -2.332852e+001 -1.200017e+002 -5.344734e-001 5.228942e+001
2103750000 -2.113374e+001 -9.758480e+001 -2.296864e+001 -1.255252e+002 -2.319425e+001 -1.203417e+002 -5.674338e-001 5.274251e+001
2105000000 -2.116371e+001 -9.889323e+001 -2.312901e+001 -1.286201e+002 -2.304269e+001 -1.211943e+002 -5.212730e-001 5.347376e+001
2106250000 -2.112427e+001 -9.999630e+001 -2.312131e+001 -1.257523e+002 -2.319178e+001 -1.220030e+002 -4.437405e-001 5.327917e+001
2107500000 -2.121839e+001 -1.006949e+002 -2.309829e+001 -1.276784e+002 -2.331632e+001 -1.243683e+002 -5.428250e-001 5.313647e+001
2108750000 -2.129524e+001 -1.015153e+002 -2.284253e+001 -1.273012e+002 -2.301362e+001 -1.257082e+002 -6.327774e-001 5.359396e+001
2110000000 -2.131956e+001 -1.020432e+002 -2.262176e+001 -1.277360e+002 -2.296643e+001 -1.221200e+002 -4.390397e-001 5.343615e+001
2111250000 -2.134316e+001 -1.028641e+002 -2.285457e+001 -1.276233e+002 -2.266481e+001 -1.252424e+002 -5.213059e-001 5.281329e+001
2112500000 -2.151310e+001 -1.043518e+002 -2.297417e+001 -1.287165e+002 -2.286534e+001 -1.235569e+002 -4.319166e-001 5.255457e+001
2113750000 -2.155327e+001 -1.048826e+002 -2.303775e+001 -1.296784e+002 -2.309477e+001 -1.265480e+002 -5.026014e-001 5.270120e+001
2115000000 -2.161240e+001 -1.059341e+002 -2.339291e+001 -1.305149e+002 -2.319649e+001 -1.237341e+002 -4.936286e-001 5.205505e+001
2116250000 -2.165154e+001 -1.064383e+002 -2.325935e+001 -1.317606e+002 -2.300848e+001 -1.259094e+002 -5.183631e-001 5.193892e+001
2117500000 -2.176886e+001 -1.072489e+002 -2.318100e+001 -1.307128e+002 -2.296519e+001 -1.257675e+002 -4.356855e-001 5.191728e+001
2118750000 -2.184816e+001 -1.084358e+002 -2.306807e+001 -1.309557e+002 -2.305131e+001 -1.287765e+002 -5.347178e-001 5.166060e+001
2120000000 -2.175317e+001 -1.082078e+002 -2.295886e+001 -1.334506e+002 -2.292067e+001 -1.267084e+002 -4.895930e-001 5.204128e+001
2121250000 -2.186927e+001 -1.100904e+002 -2.331695e+001 -1.318842e+002 -2.281674e+001 -1.280706e+002 -4.299847e-001 5.125996e+001
2122500000 -2.194965e+001 -1.103929e+002 -2.311694e+001 -1.321171e+002 -2.247877e+001 -1.299946e+002 -4.956428e-001 5.172755e+001
2123750000 -2.212794e+001 -1.118976e+002 -2.277918e+001 -1.333625e+002 -2.251196e+001 -1.322195e+002 -4.654267e-001 5.102145e+001
2125000000 -2.217007e+001 -1.130340e+002 -2.307080e+001 -1.337218e+002 -2.260061e+001 -1.311713e+002 -4.074381e-001 5.097776e+001
2126250000 -2.223963e+001 -1.137045e+002 -2.331035e+001 -1.362175e+002 -2.296643e+001 -1.317654e+002 -5.172812e-001 5.061505e+001
2127500000 -2.237789e+001 -1.142570e+002 -2.310583e+001 -1.359408e+002 -2.239116e+001 -1.313551e+002 -3.935219e-001 4.995466e+001
2128750000 -2.249153e+001 -1.148353e+002 -2.286434e+001 -1.362706e+002 -2.235620e+001 -1.316794e+002 -3.457861e-001 5.011563e+001
2130000000 -2.253154e+001 -1.160371e+002 -2.329314e+001 -1.379487e+002 -2.254428e+001 -1.318007e+002 -3.790073e-001 5.015223e+001
2131250000 -2.255354e+001 -1.168175e+002 -2.328819e+001 -1.386703e+002 -2.261744e+001 -1.315039e+002 -4.183433e-001 4.975782e+001
2132500000 -2.257011e+001 -1.173550e+002 -2.290239e+001 -1.384978e+002 -2.250397e+001 -1.337459e+002 -4.875927e-001 4.937561e+001
2133750000 -2.268394e+001 -1.191069e+002 -2.295119e+001 -1.389108e+002 -2.270399e+001 -1.327071e+002 -4.767318e-001 4.933823e+001
2135000000 -2.262121e+001 -1.195816e+002 -2.330132e+001 -1.387113e+002 -2.310036e+001 -1.351246e+002 -4.144756e-001 4.885756e+001
2136250000 -2.270871e+001 -1.203382e+002 -2.337987e+001 -1.390808e+002 -2.262679e+001 -1.349367e+002 -5.159013e-001 4.966530e+001
2137500000 -2.280175e+001 -1.218027e+002 -2.311279e+001 -1.389644e+002 -2.271006e+001 -1.366049e+002 -4.862563e-001 4.830406e+001
2138750000 -2.290069e+001 -1.227124e+002 -2.307623e+001 -1.400774e+002 -2.277740e+001 -1.375763e+002 -4.277202e-001 4.929767e+001
2140000000 -2.301409e+001 -1.232478e+002 -2.317108e+001 -1.429261e+002 -2.270434e+001 -1.360419e+002 -4.682769e-001 4.895593e+001
2141250000 -2.320646e+001 -1.241273e+002 -2.316520e+001 -1.429997e+002 -2.259346e+001 -1.355140e+002 -4.181360e-001 4.896366e+001
2142500000 -2.317211e+001 -1.249922e+002 -2.308571e+001 -1.444849e+002 -2.263726e+001 -1.374003e+002 -3.931321e-001 4.921978e+001
2143750000 -2.332585e+001 -1.266406e+002 -2.327195e+001 -1.436841e+002 -2.269179e+001 -1.385781e+002 -5.038905e-001 4.871537e+001
2145000000 -2.329357e+001 -1.264564e+002 -2.304631e+001 -1.397714e+002 -2.237490e+001 -1.380056e+002 -4.821711e-001 4.911938e+001
2146250000 -2.347663e+001 -1.270288e+002 -2.334942e+001 -1.414683e+002 -2.249624e+001 -1.389350e+002 -4.235480e-001 4.849258e+001
2147500000 -2.371561e+001 -1.273044e+002 -2.328277e+001 -1.427540e+002 -2.247624e+001 -1.410518e+002 -3.396630e-001 4.835528e+001
2148750000 -2.375710e+001 -1.297859e+002 -2.328825e+001 -1.437919e+002 -2.209643e+001 -1.425366e+002 -3.083466e-001 4.791990e+001
2150000000 -2.391934e+001 -1.307390e+002 -2.320414e+001 -1.453388e+002 -2.232425e+001 -1.432978e+002 -2.895380e-001 4.829839e+001
2151250000 -2.390595e+001 -1.316926e+002 -2.336634e+001 -1.465365e+002 -2.273784e+001 -1.424134e+002 -3.405208e-001 4.739668e+001
2152500000 -2.404631e+001 -1.326632e+002 -2.319739e+001 -1.452400e+002 -2.235458e+001 -1.437513e+002 -3.871680e-001 4.720284e+001
2153750000 -2.396499e+001 -1.332239e+002 -2.338173e+001 -1.460557e+002 -2.234200e+001 -1.429069e+002 -5.089350e-001 4.759617e+001
2155000000 -2.413791e+001 -1.344237e+002 -2.325528e+001 -1.478842e+002 -2.248486e+001 -1.446781e+002 -4.810678e-001 4.696914e+001
2156250000 -2.419102e+001 -1.346471e+002 -2.332512e+001 -1.458432e+002 -2.246446e+001 -1.440747e+002 -4.013969e-001 4.677815e+001
2157500000 -2.433895e+001 -1.361730e+002 -2.302515e+001 -1.475167e+002 -2.241826e+001 -1.443439e+002 -4.428686e-001 4.725454e+001
2158750000 -2.454988e+001 -1.371674e+002 -2.314949e+001 -1.478911e+002 -2.239467e+001 -1.437833e+002 -5.095186e-001 4.609325e+001
2160000000 -2.457020e+001 -1.381914e+002 -2.338688e+001 -1.483022e+002 -2.281554e+001 -1.454259e+002 -4.749581e-001 4.619364e+001
2161250000 -2.463641e+001 -1.390132e+002 -2.298559e+001 -1.482187e+002 -2.276441e+001 -1.466704e+002 -3.543051e-001 4.612677e+001
2162500000 -2.487375e+001 -1.406860e+002 -2.307998e+001 -1.495231e+002 -2.245109e+001 -1.487222e+002 -3.664214e-001 4.619405e+001
2163750000 -2.497034e+001 -1.420699e+002 -2.266488e+001 -1.511681e+002 -2.233047e+001 -1.476104e+002 -4.048128e-001 4.611246e+001
2165000000 -2.510663e+001 -1.426317e+002 -2.289365e+001 -1.507545e+002 -2.253545e+001 -1.486266e+002 -2.695850e-001 4.568517e+001
2166250000 -2.521637e+001 -1.438974e+002 -2.300236e+001 -1.520319e+002 -2.245103e+001 -1.478899e+002 -1.164913e-001 4.579587e+001
2167500000 -2.544098e+001 -1.454885e+002 -2.331371e+001 -1.522467e+002 -2.248644e+001 -1.490300e+002 -4.372687e-001 4.510279e+001
2168750000 -2.544229e+001 -1.461462e+002 -2.308824e+001 -1.508153e+002 -2.195759e+001 -1.506715e+002 -3.218814e-001 4.465204e+001
2170000000 -2.569796e+001 -1.475058e+002 -2.299263e+001 -1.532412e+002 -2.202964e+001 -1.493811e+002 -3.365934e-001 4.477323e+001
2171250000 -2.581235e+001 -1.494767e+002 -2.315022e+001 -1.523597e+002 -2.251643e+001 -1.492234e+002 -3.476012e-001 4.496753e+001
2172500000 -2.592317e+001 -1.499023e+002 -2.307835e+001 -1.523569e+002 -2.218216e+001 -1.510971e+002 -3.510318e-001 4.430551e+001
2173750000 -2.598369e+001 -1.513333e+002 -2.285365e+001 -1.551081e+002 -2.271145e+001 -1.536503e+002 -4.866179e-001 4.397529e+001
2175000000 -2.615893e+001 -1.529923e+002 -2.294703e+001 -1.549412e+002 -2.255783e+001 -1.554227e+002 -4.453803e-001 4.385751e+001
2176250000 -2.625433e+001 -1.542066e+002 -2.289648e+001 -1.586307e+002 -2.252540e+001 -1.540206e+002 -3.862287e-001 4.426616e+001
2177500000 -2.633868e+001 -1.546974e+002 -2.292180e+001 -1.565464e+002 -2.235381e+001 -1.556914e+002 -3.813634e-001 4.392184e+001
2178750000 -2.649856e+001 -1.571956e+002 -2.319411e+001 -1.565558e+002 -2.238927e+001 -1.542716e+002 -4.263460e-001 4.332453e+001
2180000000 -2.656289e+001 -1.582054e+002 -2.306507e+001 -1.581896e+002 -2.235905e+001 -1.559792e+002 -3.148074e-001 4.340015e+001
2181250000 -2.664131e+001 -1.584342e+002 -2.326494e+001 -1.593551e+002 -2.244555e+001 -1.554763e+002 -2.789557e-001 4.368361e+001
2182500000 -2.674634e+001 -1.612749e+002 -2.334425e+001 -1.593314e+002 -2.242926e+001 -1.546713e+002 -2.430574e-001 4.323339e+001
2183750000 -2.678373e+001 -1.614572e+002 -2.315718e+001 -1.589190e+002 -2.212363e+001 -1.567930e+002 -1.928810e-001 4.333315e+001
2185000000 -2.701893e+001 -1.630453e+002 -2.311744e+001 -1.596740e+002 -2.220572e+001 -1.574168e+002 -2.017652e-001 4.345082e+001
2186250000 -2.722430e+001 -1.641999e+002 -2.343079e+001 -1.606772e+002 -2.202537e+001 -1.593529e+002 -2.404959e-001 4.285489e+001
