!Agilent Technologies,E8364A,US41440144,A.06.04.32
!Agilent E8364A: A.06.04.32
!Date: Friday, February 02, 2018 16:01:35
!Correction: S11(Full 2 Port(1,2)) S21(Full 2 Port(1,2)) S12(Full 2 Port(1,2)) S22(Full 2 Port(1,2)) 
!S2P File: Measurements: S11, S21, S12, S22:
# Hz S  dB   R 50
2000000000 -1.946793e+001 2.680708e+001 -2.031676e+001 -1.230970e+002 -1.993937e+001 -1.215893e+002 -1.866486e+001 1.475591e+001
2001250000 -1.947076e+001 2.663637e+001 -2.032468e+001 -1.223942e+002 -2.010937e+001 -1.228833e+002 -1.869613e+001 6.118679e+000
2002500000 -1.947292e+001 2.655857e+001 -2.039655e+001 -1.226729e+002 -1.986769e+001 -1.232072e+002 -1.857506e+001 3.685289e+000
2003750000 -1.945024e+001 2.628970e+001 -2.040468e+001 -1.227605e+002 -1.990852e+001 -1.216421e+002 -1.797267e+001 8.938319e+000
2005000000 -1.950244e+001 2.605241e+001 -2.039105e+001 -1.228660e+002 -2.012342e+001 -1.227963e+002 -1.838032e+001 8.982227e+000
2006250000 -1.942280e+001 2.660766e+001 -2.023773e+001 -1.225724e+002 -2.026780e+001 -1.246581e+002 -1.827335e+001 6.762310e+000
2007500000 -1.940177e+001 2.617225e+001 -2.039244e+001 -1.234581e+002 -2.012776e+001 -1.240243e+002 -1.826760e+001 8.400034e+000
2008750000 -1.944195e+001 2.539938e+001 -2.039602e+001 -1.242604e+002 -2.006861e+001 -1.227171e+002 -1.820106e+001 8.469752e+000
2010000000 -1.937410e+001 2.546605e+001 -2.035505e+001 -1.235880e+002 -2.006460e+001 -1.233390e+002 -1.830264e+001 6.952832e+000
2011250000 -1.940071e+001 2.579125e+001 -2.041228e+001 -1.249272e+002 -2.009547e+001 -1.224176e+002 -1.880053e+001 4.134428e+000
2012500000 -1.940409e+001 2.487383e+001 -2.026680e+001 -1.248328e+002 -2.004193e+001 -1.223149e+002 -1.865208e+001 7.869670e+000
2013750000 -1.935528e+001 2.479000e+001 -2.055641e+001 -1.242688e+002 -2.027742e+001 -1.232291e+002 -1.813087e+001 7.116063e+000
2015000000 -1.933895e+001 2.470896e+001 -2.037792e+001 -1.246087e+002 -2.011506e+001 -1.251649e+002 -1.810217e+001 6.020462e+000
2016250000 -1.934574e+001 2.466176e+001 -2.032127e+001 -1.258578e+002 -2.025124e+001 -1.255884e+002 -1.789606e+001 4.519989e+000
2017500000 -1.926794e+001 2.460370e+001 -2.034525e+001 -1.249541e+002 -2.036386e+001 -1.252584e+002 -1.762691e+001 8.404873e+000
2018750000 -1.923228e+001 2.398719e+001 -2.040089e+001 -1.265384e+002 -2.031664e+001 -1.266140e+002 -1.766869e+001 7.420205e+000
2020000000 -1.924585e+001 2.399336e+001 -2.000023e+001 -1.239756e+002 -2.029399e+001 -1.254898e+002 -1.784906e+001 1.013979e+001
2021250000 -1.927158e+001 2.365222e+001 -2.012685e+001 -1.253906e+002 -2.034101e+001 -1.257103e+002 -1.801705e+001 6.478476e+000
2022500000 -1.922525e+001 2.297376e+001 -1.994057e+001 -1.243508e+002 -2.011530e+001 -1.245285e+002 -1.850537e+001 8.184398e+000
2023750000 -1.917086e+001 2.313447e+001 -2.016991e+001 -1.247611e+002 -2.019068e+001 -1.255641e+002 -1.792018e+001 7.953794e+000
2025000000 -1.921119e+001 2.393767e+001 -2.030625e+001 -1.243433e+002 -2.024035e+001 -1.266131e+002 -1.795572e+001 3.825542e+000
2026250000 -1.921061e+001 2.296173e+001 -2.016261e+001 -1.259673e+002 -2.006769e+001 -1.263940e+002 -1.773526e+001 2.870020e+000
2027500000 -1.922713e+001 2.265298e+001 -2.042767e+001 -1.264987e+002 -2.017575e+001 -1.263699e+002 -1.802201e+001 5.476401e+000
2028750000 -1.911998e+001 2.214308e+001 -2.013605e+001 -1.261385e+002 -1.995526e+001 -1.265633e+002 -1.807292e+001 7.342436e+000
2030000000 -1.915113e+001 2.216139e+001 -2.009444e+001 -1.268345e+002 -2.005439e+001 -1.260825e+002 -1.792706e+001 1.056386e+000
2031250000 -1.907827e+001 2.216706e+001 -2.015471e+001 -1.268593e+002 -2.027631e+001 -1.266670e+002 -1.793255e+001 6.601093e+000
2032500000 -1.904855e+001 2.128391e+001 -1.993310e+001 -1.261093e+002 -2.002786e+001 -1.256722e+002 -1.776261e+001 4.747307e+000
2033750000 -1.899561e+001 2.054009e+001 -2.013441e+001 -1.264385e+002 -2.004909e+001 -1.268755e+002 -1.783176e+001 1.681423e+000
2035000000 -1.906030e+001 2.047533e+001 -2.022543e+001 -1.270642e+002 -2.004257e+001 -1.289789e+002 -1.727486e+001 6.854407e-001
2036250000 -1.908928e+001 2.049141e+001 -2.011311e+001 -1.253703e+002 -2.021889e+001 -1.287340e+002 -1.799867e+001 2.320135e+000
2037500000 -1.897757e+001 2.055276e+001 -1.985773e+001 -1.267074e+002 -1.993524e+001 -1.269458e+002 -1.803725e+001 2.520846e+000
2038750000 -1.900488e+001 2.014806e+001 -2.002203e+001 -1.261557e+002 -2.004289e+001 -1.279812e+002 -1.793973e+001 2.274647e+000
2040000000 -1.897625e+001 1.991958e+001 -1.992860e+001 -1.269051e+002 -2.019119e+001 -1.275021e+002 -1.769374e+001 5.320043e-001
2041250000 -1.900240e+001 1.980232e+001 -1.992319e+001 -1.272147e+002 -2.021592e+001 -1.271280e+002 -1.770334e+001 1.378789e+000
2042500000 -1.898312e+001 1.938922e+001 -1.990885e+001 -1.265633e+002 -1.987208e+001 -1.271754e+002 -1.819470e+001 3.695296e+000
2043750000 -1.895208e+001 1.891838e+001 -2.001251e+001 -1.287341e+002 -2.002175e+001 -1.281371e+002 -1.752943e+001 5.143928e+000
2045000000 -1.895945e+001 1.910685e+001 -2.026125e+001 -1.287602e+002 -2.007395e+001 -1.286367e+002 -1.777880e+001 3.379892e+000
2046250000 -1.896662e+001 1.828209e+001 -2.005267e+001 -1.286476e+002 -2.015125e+001 -1.280368e+002 -1.781360e+001 1.628074e+000
2047500000 -1.889554e+001 1.831704e+001 -2.031410e+001 -1.278823e+002 -2.010245e+001 -1.277389e+002 -1.758451e+001 1.891126e+000
2048750000 -1.890414e+001 1.802361e+001 -2.031489e+001 -1.277332e+002 -2.016035e+001 -1.283261e+002 -1.786502e+001 1.035759e+000
2050000000 -1.891260e+001 1.731010e+001 -2.033293e+001 -1.284585e+002 -2.022118e+001 -1.284908e+002 -1.781079e+001 4.104331e+000
2051250000 -1.898606e+001 1.701419e+001 -2.037107e+001 -1.284760e+002 -2.020469e+001 -1.267011e+002 -1.719047e+001 1.730580e+000
2052500000 -1.889668e+001 1.647398e+001 -2.018560e+001 -1.278063e+002 -2.022419e+001 -1.282685e+002 -1.694476e+001 4.148097e+000
2053750000 -1.886556e+001 1.588869e+001 -2.021780e+001 -1.286680e+002 -1.994833e+001 -1.290759e+002 -1.735199e+001 -2.320747e+000
2055000000 -1.888842e+001 1.619609e+001 -2.039232e+001 -1.286119e+002 -2.017954e+001 -1.282558e+002 -1.748550e+001 -2.926532e+000
2056250000 -1.895112e+001 1.539539e+001 -2.021356e+001 -1.290892e+002 -2.029916e+001 -1.291411e+002 -1.737278e+001 9.627063e-001
2057500000 -1.883596e+001 1.523818e+001 -2.034762e+001 -1.290233e+002 -2.006345e+001 -1.279805e+002 -1.692678e+001 -4.132022e+000
2058750000 -1.885469e+001 1.455766e+001 -1.987377e+001 -1.299351e+002 -2.007177e+001 -1.284372e+002 -1.748935e+001 -3.852381e+000
2060000000 -1.892454e+001 1.454786e+001 -2.015807e+001 -1.305043e+002 -2.010678e+001 -1.302752e+002 -1.725964e+001 -6.093237e-001
2061250000 -1.888267e+001 1.379100e+001 -2.014564e+001 -1.295362e+002 -2.010058e+001 -1.290495e+002 -1.750595e+001 2.132936e+000
2062500000 -1.896012e+001 1.398021e+001 -2.038001e+001 -1.282967e+002 -2.015102e+001 -1.290781e+002 -1.736981e+001 2.075485e+000
2063750000 -1.893198e+001 1.343118e+001 -2.011379e+001 -1.284275e+002 -2.014290e+001 -1.295897e+002 -1.725772e+001 -2.928240e+000
2065000000 -1.898967e+001 1.357298e+001 -2.034522e+001 -1.279636e+002 -1.993492e+001 -1.292123e+002 -1.754412e+001 -2.435843e+000
2066250000 -1.904677e+001 1.299307e+001 -2.037592e+001 -1.277739e+002 -2.000692e+001 -1.284764e+002 -1.767755e+001 -1.046357e+000
2067500000 -1.902070e+001 1.315294e+001 -2.024408e+001 -1.285471e+002 -2.011728e+001 -1.287739e+002 -1.755228e+001 -3.281457e+000
2068750000 -1.897104e+001 1.255622e+001 -2.019359e+001 -1.286561e+002 -1.989623e+001 -1.282792e+002 -1.736658e+001 -3.215494e+000
2070000000 -1.904802e+001 1.253544e+001 -2.026690e+001 -1.295162e+002 -2.011109e+001 -1.287588e+002 -1.783848e+001 2.379999e-001
2071250000 -1.906237e+001 1.180293e+001 -2.017522e+001 -1.294935e+002 -1.991576e+001 -1.294679e+002 -1.758903e+001 -1.936268e+000
2072500000 -1.918917e+001 1.198131e+001 -2.024853e+001 -1.306438e+002 -2.020714e+001 -1.285461e+002 -1.748203e+001 -2.237549e-001
2073750000 -1.902974e+001 1.164712e+001 -2.021763e+001 -1.315989e+002 -1.992396e+001 -1.288832e+002 -1.756408e+001 -2.142876e+000
2075000000 -1.908518e+001 1.158626e+001 -2.034147e+001 -1.304482e+002 -1.978921e+001 -1.297860e+002 -1.751236e+001 -4.207396e+000
2076250000 -1.909895e+001 1.148742e+001 -2.059055e+001 -1.289545e+002 -1.987651e+001 -1.295353e+002 -1.764049e+001 -4.191775e+000
2077500000 -1.915927e+001 1.181210e+001 -2.049661e+001 -1.291225e+002 -1.998344e+001 -1.292377e+002 -1.737758e+001 -1.404986e+000
2078750000 -1.913972e+001 1.112826e+001 -2.029419e+001 -1.302604e+002 -2.001695e+001 -1.301364e+002 -1.788132e+001 -5.005119e+000
2080000000 -1.914411e+001 1.144049e+001 -2.039178e+001 -1.298297e+002 -1.998887e+001 -1.322719e+002 -1.775037e+001 -4.247972e+000
2081250000 -1.917035e+001 1.171877e+001 -2.042012e+001 -1.312396e+002 -2.013342e+001 -1.320261e+002 -1.742783e+001 -4.930076e+000
2082500000 -1.919321e+001 1.102960e+001 -2.036098e+001 -1.305068e+002 -1.987937e+001 -1.325232e+002 -1.796996e+001 -5.936727e+000
2083750000 -1.922475e+001 1.172147e+001 -2.023337e+001 -1.305676e+002 -1.990794e+001 -1.314649e+002 -1.786944e+001 -6.606781e+000
2085000000 -1.926158e+001 1.118471e+001 -2.012628e+001 -1.311206e+002 -1.979275e+001 -1.305545e+002 -1.805146e+001 -5.204986e+000
2086250000 -1.928732e+001 1.096351e+001 -2.018888e+001 -1.320532e+002 -2.000182e+001 -1.309402e+002 -1.801486e+001 -4.314380e+000
2087500000 -1.927502e+001 1.106990e+001 -2.032049e+001 -1.321833e+002 -1.998078e+001 -1.294924e+002 -1.793026e+001 -2.984245e+000
2088750000 -1.926922e+001 1.155729e+001 -2.002423e+001 -1.308572e+002 -1.996927e+001 -1.312792e+002 -1.694341e+001 -4.543693e+000
2090000000 -1.930350e+001 1.117413e+001 -2.021031e+001 -1.307987e+002 -1.999263e+001 -1.313672e+002 -1.709411e+001 -5.364096e+000
2091250000 -1.929192e+001 1.070293e+001 -2.015963e+001 -1.323036e+002 -1.994230e+001 -1.318291e+002 -1.718674e+001 -5.745654e+000
2092500000 -1.927600e+001 1.061844e+001 -2.008476e+001 -1.317594e+002 -2.013108e+001 -1.314019e+002 -1.711005e+001 -5.238339e+000
2093750000 -1.923254e+001 1.094779e+001 -1.993361e+001 -1.313395e+002 -1.990921e+001 -1.319505e+002 -1.673418e+001 -5.707786e+000
2095000000 -1.923772e+001 1.019196e+001 -1.994414e+001 -1.314631e+002 -1.970914e+001 -1.327129e+002 -1.687058e+001 -5.043347e+000
2096250000 -1.927458e+001 9.945271e+000 -1.996854e+001 -1.317929e+002 -1.990641e+001 -1.314562e+002 -1.671416e+001 -5.470836e+000
2097500000 -1.921638e+001 1.008338e+001 -1.976747e+001 -1.325903e+002 -1.970281e+001 -1.307542e+002 -1.722901e+001 -7.717325e+000
2098750000 -1.916671e+001 1.024987e+001 -1.988973e+001 -1.331438e+002 -1.970268e+001 -1.316406e+002 -1.701736e+001 -1.042983e+001
2100000000 -1.922048e+001 1.046050e+001 -1.997500e+001 -1.332592e+002 -1.998327e+001 -1.318295e+002 -1.722491e+001 -1.054446e+001
2101250000 -1.921147e+001 9.840567e+000 -1.987221e+001 -1.334907e+002 -2.016049e+001 -1.340047e+002 -1.724313e+001 -1.092636e+001
2102500000 -1.915052e+001 1.020280e+001 -1.981535e+001 -1.339935e+002 -2.021920e+001 -1.321422e+002 -1.725507e+001 -9.410206e+000
2103750000 -1.913720e+001 1.002637e+001 -1.991972e+001 -1.337296e+002 -2.011463e+001 -1.331707e+002 -1.708674e+001 -9.421124e+000
2105000000 -1.915869e+001 9.860266e+000 -1.973524e+001 -1.337176e+002 -2.012869e+001 -1.335900e+002 -1.716882e+001 -1.224205e+001
2106250000 -1.918469e+001 9.712061e+000 -1.984017e+001 -1.339980e+002 -1.996538e+001 -1.323521e+002 -1.757559e+001 -9.980291e+000
2107500000 -1.920049e+001 9.687815e+000 -1.982962e+001 -1.340325e+002 -2.007233e+001 -1.343529e+002 -1.699068e+001 -1.021898e+001
2108750000 -1.918354e+001 9.344362e+000 -1.997852e+001 -1.333788e+002 -1.976271e+001 -1.353480e+002 -1.692747e+001 -1.189032e+001
2110000000 -1.910509e+001 8.898914e+000 -1.978221e+001 -1.316693e+002 -1.958835e+001 -1.344826e+002 -1.702892e+001 -8.834672e+000
2111250000 -1.912804e+001 9.283048e+000 -1.990074e+001 -1.305620e+002 -1.968482e+001 -1.348676e+002 -1.711091e+001 -9.414717e+000
2112500000 -1.910101e+001 9.399364e+000 -2.006836e+001 -1.320930e+002 -2.000797e+001 -1.341333e+002 -1.701086e+001 -9.464119e+000
2113750000 -1.914532e+001 9.366340e+000 -2.003446e+001 -1.343888e+002 -1.974211e+001 -1.352358e+002 -1.668219e+001 -1.109559e+001
2115000000 -1.903998e+001 9.333021e+000 -1.989460e+001 -1.343859e+002 -1.989567e+001 -1.331636e+002 -1.663028e+001 -1.268924e+001
2116250000 -1.910340e+001 9.130566e+000 -1.997590e+001 -1.332314e+002 -2.011690e+001 -1.343924e+002 -1.689816e+001 -1.225555e+001
2117500000 -1.897515e+001 9.376076e+000 -1.985592e+001 -1.340086e+002 -2.012867e+001 -1.340235e+002 -1.719823e+001 -6.133356e+000
2118750000 -1.899405e+001 8.156091e+000 -1.999574e+001 -1.338136e+002 -2.019802e+001 -1.353476e+002 -1.720658e+001 -1.195412e+001
2120000000 -1.898430e+001 8.885906e+000 -1.977252e+001 -1.353947e+002 -1.994673e+001 -1.356219e+002 -1.694253e+001 -1.248188e+001
2121250000 -1.897433e+001 8.272210e+000 -2.006901e+001 -1.346902e+002 -1.993897e+001 -1.353655e+002 -1.699620e+001 -1.088883e+001
2122500000 -1.902909e+001 8.020136e+000 -2.008011e+001 -1.341823e+002 -2.002234e+001 -1.357181e+002 -1.681799e+001 -8.474710e+000
2123750000 -1.906101e+001 8.339974e+000 -1.989540e+001 -1.339525e+002 -1.980303e+001 -1.360157e+002 -1.664664e+001 -1.035432e+001
2125000000 -1.900925e+001 8.444694e+000 -1.984611e+001 -1.349380e+002 -2.001406e+001 -1.365003e+002 -1.639388e+001 -1.107282e+001
2126250000 -1.899562e+001 8.388113e+000 -1.987554e+001 -1.358552e+002 -1.998989e+001 -1.377487e+002 -1.699994e+001 -1.163794e+001
2127500000 -1.892060e+001 8.358013e+000 -1.992240e+001 -1.363393e+002 -1.962487e+001 -1.372657e+002 -1.707121e+001 -1.509677e+001
2128750000 -1.889059e+001 8.121607e+000 -1.977718e+001 -1.359652e+002 -1.983389e+001 -1.373398e+002 -1.681454e+001 -1.571443e+001
2130000000 -1.895323e+001 8.095868e+000 -2.004413e+001 -1.361098e+002 -1.982036e+001 -1.353548e+002 -1.610371e+001 -1.134232e+001
2131250000 -1.890194e+001 7.624880e+000 -2.005109e+001 -1.366992e+002 -1.975705e+001 -1.365050e+002 -1.636947e+001 -1.267012e+001
2132500000 -1.885446e+001 7.433434e+000 -1.998860e+001 -1.358276e+002 -1.973296e+001 -1.361080e+002 -1.661527e+001 -1.312354e+001
2133750000 -1.888659e+001 7.553615e+000 -1.985004e+001 -1.355727e+002 -1.972438e+001 -1.381275e+002 -1.658652e+001 -1.439051e+001
2135000000 -1.884273e+001 7.464838e+000 -1.994270e+001 -1.352619e+002 -1.987203e+001 -1.363854e+002 -1.627492e+001 -1.462006e+001
2136250000 -1.890310e+001 6.915375e+000 -2.000220e+001 -1.360035e+002 -1.990688e+001 -1.375324e+002 -1.593765e+001 -1.453608e+001
2137500000 -1.884918e+001 6.990159e+000 -1.989315e+001 -1.369948e+002 -2.019439e+001 -1.376942e+002 -1.623551e+001 -1.416194e+001
2138750000 -1.885475e+001 6.741385e+000 -2.001395e+001 -1.368619e+002 -1.995839e+001 -1.362576e+002 -1.660021e+001 -1.290637e+001
2140000000 -1.889000e+001 6.469960e+000 -1.986115e+001 -1.373250e+002 -1.999381e+001 -1.360597e+002 -1.641573e+001 -1.251974e+001
2141250000 -1.880757e+001 5.842126e+000 -1.993696e+001 -1.391122e+002 -1.995307e+001 -1.363229e+002 -1.646467e+001 -1.512313e+001
2142500000 -1.883596e+001 6.280624e+000 -1.980027e+001 -1.380065e+002 -1.988504e+001 -1.371610e+002 -1.709679e+001 -1.466208e+001
2143750000 -1.878564e+001 5.853476e+000 -1.969748e+001 -1.381577e+002 -1.985285e+001 -1.370859e+002 -1.665995e+001 -1.495375e+001
2145000000 -1.877944e+001 5.910268e+000 -1.991109e+001 -1.354093e+002 -1.963482e+001 -1.361751e+002 -1.676595e+001 -1.248832e+001
2146250000 -1.875310e+001 5.646361e+000 -1.990671e+001 -1.377477e+002 -1.972159e+001 -1.381688e+002 -1.627615e+001 -1.602324e+001
2147500000 -1.876296e+001 5.788710e+000 -1.998807e+001 -1.366335e+002 -1.957413e+001 -1.372655e+002 -1.639217e+001 -1.591106e+001
2148750000 -1.875695e+001 5.766832e+000 -2.010006e+001 -1.380617e+002 -1.968315e+001 -1.369640e+002 -1.588606e+001 -1.245502e+001
2150000000 -1.872588e+001 6.084922e+000 -2.030477e+001 -1.369962e+002 -1.981363e+001 -1.381926e+002 -1.642688e+001 -1.725762e+001
2151250000 -1.869734e+001 5.715502e+000 -2.007681e+001 -1.377272e+002 -1.976830e+001 -1.379092e+002 -1.653135e+001 -1.490935e+001
2152500000 -1.866442e+001 4.882648e+000 -1.979147e+001 -1.368082e+002 -1.959274e+001 -1.386645e+002 -1.649612e+001 -1.552158e+001
2153750000 -1.867017e+001 4.601230e+000 -1.987553e+001 -1.380495e+002 -1.989503e+001 -1.390105e+002 -1.626951e+001 -1.282306e+001
2155000000 -1.864548e+001 4.821351e+000 -1.995430e+001 -1.377110e+002 -1.976956e+001 -1.377367e+002 -1.644343e+001 -1.467135e+001
2156250000 -1.863276e+001 4.333916e+000 -1.984872e+001 -1.382354e+002 -1.964790e+001 -1.375094e+002 -1.622968e+001 -1.441092e+001
2157500000 -1.861518e+001 4.554832e+000 -2.001147e+001 -1.375761e+002 -1.975097e+001 -1.377751e+002 -1.623089e+001 -1.830679e+001
2158750000 -1.859841e+001 4.385049e+000 -2.019317e+001 -1.373767e+002 -1.960044e+001 -1.390500e+002 -1.614169e+001 -1.640309e+001
2160000000 -1.858064e+001 4.411015e+000 -1.975882e+001 -1.368993e+002 -1.961265e+001 -1.368154e+002 -1.590375e+001 -1.708117e+001
2161250000 -1.858039e+001 3.933959e+000 -1.982780e+001 -1.375407e+002 -1.982436e+001 -1.375695e+002 -1.614900e+001 -1.434356e+001
2162500000 -1.855980e+001 3.781472e+000 -1.977866e+001 -1.372577e+002 -1.957272e+001 -1.396252e+002 -1.607890e+001 -1.571311e+001
2163750000 -1.851884e+001 3.879625e+000 -1.985155e+001 -1.371650e+002 -1.980438e+001 -1.392120e+002 -1.601398e+001 -1.470550e+001
2165000000 -1.853245e+001 3.870780e+000 -1.984965e+001 -1.385070e+002 -1.955307e+001 -1.381813e+002 -1.587214e+001 -1.337037e+001
2166250000 -1.850163e+001 3.429343e+000 -1.954980e+001 -1.374825e+002 -1.952093e+001 -1.390443e+002 -1.589491e+001 -1.645246e+001
2167500000 -1.856856e+001 3.315753e+000 -1.997901e+001 -1.390220e+002 -1.932401e+001 -1.406624e+002 -1.593801e+001 -1.620439e+001
2168750000 -1.854651e+001 3.166425e+000 -1.977755e+001 -1.391056e+002 -1.939950e+001 -1.395252e+002 -1.578901e+001 -1.854581e+001
2170000000 -1.855155e+001 3.301272e+000 -1.967572e+001 -1.393667e+002 -1.940917e+001 -1.405589e+002 -1.593803e+001 -1.633924e+001
2171250000 -1.848616e+001 3.216831e+000 -1.978631e+001 -1.387501e+002 -1.960485e+001 -1.399953e+002 -1.567860e+001 -1.770161e+001
2172500000 -1.843303e+001 2.765718e+000 -1.970792e+001 -1.406038e+002 -1.933331e+001 -1.404142e+002 -1.576889e+001 -1.840518e+001
2173750000 -1.855035e+001 2.608145e+000 -1.970383e+001 -1.404005e+002 -1.956300e+001 -1.404990e+002 -1.571402e+001 -1.968997e+001
2175000000 -1.848994e+001 2.275632e+000 -1.964502e+001 -1.410246e+002 -1.972106e+001 -1.401365e+002 -1.619613e+001 -1.937753e+001
2176250000 -1.846856e+001 2.316645e+000 -1.983904e+001 -1.399530e+002 -1.953039e+001 -1.414075e+002 -1.599819e+001 -2.179522e+001
2177500000 -1.850844e+001 2.209066e+000 -1.989464e+001 -1.399216e+002 -1.950825e+001 -1.418190e+002 -1.570471e+001 -1.842914e+001
2178750000 -1.848338e+001 2.295238e+000 -1.984574e+001 -1.409362e+002 -1.976900e+001 -1.393741e+002 -1.592368e+001 -2.043468e+001
2180000000 -1.847425e+001 1.700769e+000 -1.967094e+001 -1.403890e+002 -1.951688e+001 -1.404102e+002 -1.594291e+001 -1.872541e+001
2181250000 -1.851517e+001 1.880340e+000 -1.988373e+001 -1.405205e+002 -1.950744e+001 -1.422365e+002 -1.573100e+001 -1.879294e+001
2182500000 -1.843642e+001 1.190078e+000 -1.984887e+001 -1.405127e+002 -1.929406e+001 -1.425708e+002 -1.558772e+001 -1.941669e+001
2183750000 -1.846516e+001 1.108204e+000 -1.969828e+001 -1.408017e+002 -1.940165e+001 -1.415872e+002 -1.510757e+001 -1.942743e+001
2185000000 -1.843640e+001 8.932196e-001 -2.005712e+001 -1.410065e+002 -1.941364e+001 -1.422032e+002 -1.587701e+001 -1.704921e+001
2186250000 -1.844208e+001 9.584984e-001 -1.988733e+001 -1.409407e+002 -1.917414e+001 -1.430354e+002 -1.581492e+001 -1.888033e+001
