!Agilent Technologies,E8364A,US41440144,A.06.04.32
!Agilent E8364A: A.06.04.32
!Date: Friday, February 02, 2018 16:02:46
!Correction: S11(Full 2 Port(1,2)) S21(Full 2 Port(1,2)) S12(Full 2 Port(1,2)) S22(Full 2 Port(1,2)) 
!S2P File: Measurements: S11, S21, S12, S22:
# Hz S  dB   R 50
2000000000 -2.071117e+001 1.556658e+001 -8.231080e-001 -1.493381e+002 -7.602333e-001 -1.485211e+002 -1.697890e+001 7.572418e+001
2001250000 -2.076316e+001 1.534776e+001 -8.531405e-001 -1.495920e+002 -7.697219e-001 -1.489242e+002 -1.701813e+001 7.309861e+001
2002500000 -2.078246e+001 1.498613e+001 -8.422571e-001 -1.494749e+002 -7.258543e-001 -1.492071e+002 -1.694495e+001 7.520387e+001
2003750000 -2.074661e+001 1.507674e+001 -8.376159e-001 -1.498638e+002 -7.212717e-001 -1.494072e+002 -1.657846e+001 7.657402e+001
2005000000 -2.069134e+001 1.572956e+001 -8.482590e-001 -1.497335e+002 -7.461326e-001 -1.495216e+002 -1.661106e+001 7.608871e+001
2006250000 -2.071486e+001 1.525711e+001 -8.586146e-001 -1.498758e+002 -7.496623e-001 -1.493661e+002 -1.665981e+001 7.510441e+001
2007500000 -2.072994e+001 1.570083e+001 -9.293680e-001 -1.502861e+002 -7.736512e-001 -1.493200e+002 -1.672490e+001 7.537791e+001
2008750000 -2.065313e+001 1.512321e+001 -8.695096e-001 -1.503308e+002 -7.450431e-001 -1.493148e+002 -1.658561e+001 7.490596e+001
2010000000 -2.059390e+001 1.523762e+001 -8.768527e-001 -1.502234e+002 -7.813312e-001 -1.492500e+002 -1.748211e+001 7.901067e+001
2011250000 -2.056430e+001 1.475504e+001 -8.763889e-001 -1.501289e+002 -7.543023e-001 -1.494324e+002 -1.705167e+001 7.403477e+001
2012500000 -2.059478e+001 1.475384e+001 -8.811989e-001 -1.503058e+002 -8.069419e-001 -1.493822e+002 -1.740198e+001 7.468819e+001
2013750000 -2.063527e+001 1.443655e+001 -9.019665e-001 -1.506106e+002 -7.659903e-001 -1.497118e+002 -1.724559e+001 7.500668e+001
2015000000 -2.068014e+001 1.458580e+001 -8.466609e-001 -1.503863e+002 -7.950629e-001 -1.500336e+002 -1.666581e+001 7.518959e+001
2016250000 -2.061681e+001 1.341156e+001 -8.863977e-001 -1.507599e+002 -8.161153e-001 -1.500721e+002 -1.647248e+001 7.021862e+001
2017500000 -2.056887e+001 1.303186e+001 -8.253121e-001 -1.508468e+002 -8.269711e-001 -1.501836e+002 -1.655764e+001 7.379968e+001
2018750000 -2.067622e+001 1.314267e+001 -8.739230e-001 -1.505600e+002 -7.868128e-001 -1.505036e+002 -1.657100e+001 7.172194e+001
2020000000 -2.059061e+001 1.313306e+001 -8.031448e-001 -1.504085e+002 -8.311129e-001 -1.505042e+002 -1.646185e+001 7.493614e+001
2021250000 -2.066764e+001 1.203978e+001 -8.568059e-001 -1.507066e+002 -7.923684e-001 -1.502920e+002 -1.667711e+001 7.277062e+001
2022500000 -2.062158e+001 1.189823e+001 -8.977056e-001 -1.506370e+002 -7.431389e-001 -1.505149e+002 -1.692972e+001 7.446032e+001
2023750000 -2.063316e+001 1.301994e+001 -9.350832e-001 -1.506899e+002 -7.809951e-001 -1.508138e+002 -1.661658e+001 7.510429e+001
2025000000 -2.051854e+001 1.268276e+001 -8.940116e-001 -1.508374e+002 -7.435513e-001 -1.505852e+002 -1.636920e+001 7.734623e+001
2026250000 -2.053674e+001 1.217922e+001 -9.415865e-001 -1.511958e+002 -7.440542e-001 -1.508823e+002 -1.652594e+001 7.342906e+001
2027500000 -2.049223e+001 1.230825e+001 -8.828734e-001 -1.512357e+002 -7.457739e-001 -1.506099e+002 -1.637563e+001 7.686755e+001
2028750000 -2.064757e+001 1.177081e+001 -8.982967e-001 -1.513154e+002 -7.659846e-001 -1.511166e+002 -1.654910e+001 7.745536e+001
2030000000 -2.056691e+001 1.158253e+001 -8.326793e-001 -1.512079e+002 -7.878703e-001 -1.509999e+002 -1.612158e+001 7.206808e+001
2031250000 -2.058829e+001 1.141173e+001 -8.553257e-001 -1.515056e+002 -8.057671e-001 -1.514459e+002 -1.655892e+001 7.345268e+001
2032500000 -2.057166e+001 1.022036e+001 -8.707894e-001 -1.519745e+002 -7.996416e-001 -1.510614e+002 -1.617744e+001 7.196666e+001
2033750000 -2.062915e+001 9.834559e+000 -8.834895e-001 -1.517126e+002 -7.732887e-001 -1.514680e+002 -1.640986e+001 7.110469e+001
2035000000 -2.050838e+001 1.024293e+001 -9.036725e-001 -1.516195e+002 -8.368888e-001 -1.513479e+002 -1.668067e+001 7.514512e+001
2036250000 -2.055243e+001 9.952800e+000 -8.384933e-001 -1.516271e+002 -8.238601e-001 -1.512454e+002 -1.653455e+001 7.355805e+001
2037500000 -2.054284e+001 9.682647e+000 -8.472378e-001 -1.518822e+002 -8.887459e-001 -1.512467e+002 -1.659550e+001 7.480277e+001
2038750000 -2.066626e+001 9.586520e+000 -8.700117e-001 -1.519334e+002 -8.604034e-001 -1.515852e+002 -1.689149e+001 7.363093e+001
2040000000 -2.054951e+001 9.654242e+000 -8.648403e-001 -1.518801e+002 -8.641137e-001 -1.512946e+002 -1.713004e+001 7.365475e+001
2041250000 -2.061231e+001 9.434033e+000 -8.461752e-001 -1.519229e+002 -8.116016e-001 -1.517679e+002 -1.657717e+001 7.472961e+001
2042500000 -2.051266e+001 9.577441e+000 -8.301787e-001 -1.520311e+002 -8.071993e-001 -1.515323e+002 -1.676121e+001 7.516389e+001
2043750000 -2.059125e+001 9.789950e+000 -8.622883e-001 -1.521570e+002 -8.439323e-001 -1.517475e+002 -1.679061e+001 7.295243e+001
2045000000 -2.060707e+001 9.180487e+000 -9.025790e-001 -1.523846e+002 -7.928032e-001 -1.516855e+002 -1.686452e+001 7.306276e+001
2046250000 -2.053882e+001 9.675881e+000 -8.748776e-001 -1.524716e+002 -8.324398e-001 -1.521346e+002 -1.675449e+001 7.538260e+001
2047500000 -2.055826e+001 9.376266e+000 -9.487966e-001 -1.528363e+002 -8.431028e-001 -1.519273e+002 -1.646128e+001 7.275415e+001
2048750000 -2.061403e+001 9.058337e+000 -9.446350e-001 -1.530217e+002 -8.610076e-001 -1.522513e+002 -1.683516e+001 7.293421e+001
2050000000 -2.057797e+001 9.157435e+000 -9.180839e-001 -1.530347e+002 -8.513691e-001 -1.521390e+002 -1.601755e+001 7.324626e+001
2051250000 -2.061353e+001 8.900548e+000 -9.011075e-001 -1.530524e+002 -8.083339e-001 -1.524187e+002 -1.651589e+001 7.170348e+001
2052500000 -2.063186e+001 8.068573e+000 -9.081427e-001 -1.533791e+002 -7.756372e-001 -1.522190e+002 -1.675999e+001 7.061172e+001
2053750000 -2.064755e+001 7.655186e+000 -9.207608e-001 -1.531583e+002 -7.497612e-001 -1.521371e+002 -1.731641e+001 7.316602e+001
2055000000 -2.062148e+001 8.794756e+000 -8.865067e-001 -1.531150e+002 -7.707622e-001 -1.524314e+002 -1.737407e+001 7.019241e+001
2056250000 -2.050107e+001 8.223661e+000 -8.597314e-001 -1.531273e+002 -8.010913e-001 -1.525650e+002 -1.676155e+001 7.265518e+001
2057500000 -2.064400e+001 7.591972e+000 -8.638183e-001 -1.534186e+002 -8.023604e-001 -1.525707e+002 -1.719926e+001 7.393147e+001
2058750000 -2.068506e+001 7.705409e+000 -8.817002e-001 -1.533180e+002 -7.594280e-001 -1.527110e+002 -1.663995e+001 7.100784e+001
2060000000 -2.064761e+001 7.304520e+000 -8.440839e-001 -1.534970e+002 -7.860072e-001 -1.527987e+002 -1.693104e+001 7.334456e+001
2061250000 -2.060948e+001 7.548859e+000 -8.974624e-001 -1.537022e+002 -7.832318e-001 -1.528428e+002 -1.679779e+001 6.973505e+001
2062500000 -2.052551e+001 7.849494e+000 -8.949134e-001 -1.538075e+002 -8.068349e-001 -1.530384e+002 -1.647575e+001 7.370901e+001
2063750000 -2.058578e+001 7.058543e+000 -9.005823e-001 -1.536109e+002 -7.679391e-001 -1.532990e+002 -1.713718e+001 7.504845e+001
2065000000 -2.048889e+001 6.340443e+000 -8.689951e-001 -1.537548e+002 -7.528127e-001 -1.531473e+002 -1.695874e+001 7.245421e+001
2066250000 -2.045433e+001 6.540094e+000 -9.166262e-001 -1.538775e+002 -7.889400e-001 -1.532287e+002 -1.652141e+001 7.298143e+001
2067500000 -2.046208e+001 5.924553e+000 -9.373080e-001 -1.541023e+002 -7.409159e-001 -1.531372e+002 -1.643398e+001 6.772895e+001
2068750000 -2.053492e+001 5.830687e+000 -9.119746e-001 -1.540106e+002 -7.029215e-001 -1.534038e+002 -1.665107e+001 6.642940e+001
2070000000 -2.047809e+001 6.299870e+000 -9.102426e-001 -1.544368e+002 -7.320629e-001 -1.536250e+002 -1.598310e+001 6.985587e+001
2071250000 -2.050342e+001 6.505800e+000 -8.858113e-001 -1.545371e+002 -7.420722e-001 -1.536799e+002 -1.603314e+001 7.037362e+001
2072500000 -2.054080e+001 5.866015e+000 -9.282913e-001 -1.546891e+002 -7.000785e-001 -1.536771e+002 -1.639928e+001 6.885442e+001
2073750000 -2.056315e+001 5.426270e+000 -9.135579e-001 -1.549596e+002 -7.009951e-001 -1.536800e+002 -1.693269e+001 6.861074e+001
2075000000 -2.064482e+001 5.698302e+000 -9.399340e-001 -1.547845e+002 -6.917168e-001 -1.538703e+002 -1.688458e+001 6.793764e+001
2076250000 -2.052519e+001 5.879105e+000 -9.054886e-001 -1.548900e+002 -7.286106e-001 -1.538455e+002 -1.721853e+001 7.265149e+001
2077500000 -2.056829e+001 5.795930e+000 -9.490268e-001 -1.550927e+002 -7.667073e-001 -1.542131e+002 -1.671600e+001 7.259441e+001
2078750000 -2.052184e+001 5.325155e+000 -9.805705e-001 -1.550282e+002 -7.381514e-001 -1.543661e+002 -1.755438e+001 7.112157e+001
2080000000 -2.044966e+001 5.281037e+000 -9.213102e-001 -1.552605e+002 -7.218683e-001 -1.548044e+002 -1.756161e+001 7.538107e+001
2081250000 -2.038371e+001 4.760045e+000 -8.883604e-001 -1.553202e+002 -7.371341e-001 -1.547134e+002 -1.684101e+001 7.563408e+001
2082500000 -2.031563e+001 4.762809e+000 -8.763900e-001 -1.551891e+002 -7.289296e-001 -1.546468e+002 -1.654152e+001 7.367596e+001
2083750000 -2.042188e+001 4.195549e+000 -9.010703e-001 -1.553718e+002 -6.762556e-001 -1.550249e+002 -1.655980e+001 7.468836e+001
2085000000 -2.046807e+001 4.348849e+000 -9.009538e-001 -1.552968e+002 -7.233612e-001 -1.549115e+002 -1.622053e+001 7.454340e+001
2086250000 -2.042144e+001 4.708620e+000 -8.990523e-001 -1.555882e+002 -7.469985e-001 -1.552656e+002 -1.658647e+001 7.346588e+001
2087500000 -2.037075e+001 4.506086e+000 -9.013997e-001 -1.557502e+002 -7.346031e-001 -1.550685e+002 -1.689605e+001 7.323104e+001
2088750000 -2.042790e+001 4.031476e+000 -9.006834e-001 -1.557696e+002 -7.358426e-001 -1.554995e+002 -1.665047e+001 6.731281e+001
2090000000 -2.047476e+001 4.197158e+000 -9.539215e-001 -1.560023e+002 -7.466513e-001 -1.557599e+002 -1.700711e+001 7.123219e+001
2091250000 -2.049750e+001 4.424807e+000 -9.146629e-001 -1.559876e+002 -7.520376e-001 -1.559111e+002 -1.683739e+001 7.010942e+001
2092500000 -2.043199e+001 3.729132e+000 -9.067815e-001 -1.564213e+002 -7.494398e-001 -1.558068e+002 -1.713535e+001 6.802103e+001
2093750000 -2.050509e+001 3.389259e+000 -9.119545e-001 -1.562607e+002 -7.477741e-001 -1.557190e+002 -1.689729e+001 6.849659e+001
2095000000 -2.049078e+001 2.764181e+000 -8.557966e-001 -1.560826e+002 -6.997009e-001 -1.556565e+002 -1.691759e+001 6.814645e+001
2096250000 -2.043448e+001 3.028211e+000 -8.895371e-001 -1.562742e+002 -7.089593e-001 -1.559037e+002 -1.704505e+001 7.101989e+001
2097500000 -2.038596e+001 2.790987e+000 -8.586797e-001 -1.562867e+002 -7.079398e-001 -1.559420e+002 -1.692517e+001 7.205262e+001
2098750000 -2.045737e+001 2.828594e+000 -9.050682e-001 -1.567149e+002 -7.231929e-001 -1.563053e+002 -1.688138e+001 6.916483e+001
2100000000 -2.040914e+001 2.893560e+000 -8.722190e-001 -1.568592e+002 -6.986269e-001 -1.560313e+002 -1.689675e+001 7.259200e+001
2101250000 -2.053218e+001 2.625910e+000 -8.644789e-001 -1.565129e+002 -8.044585e-001 -1.566327e+002 -1.736593e+001 7.376221e+001
2102500000 -2.046821e+001 2.831890e+000 -8.437970e-001 -1.567698e+002 -8.271021e-001 -1.567973e+002 -1.726059e+001 7.469248e+001
2103750000 -2.041961e+001 1.775766e+000 -8.262360e-001 -1.567794e+002 -8.169785e-001 -1.567615e+002 -1.713306e+001 7.243169e+001
2105000000 -2.044600e+001 2.631437e+000 -8.148331e-001 -1.566764e+002 -8.187889e-001 -1.571846e+002 -1.739051e+001 7.313988e+001
2106250000 -2.037500e+001 2.389319e+000 -8.043389e-001 -1.569522e+002 -8.151907e-001 -1.571040e+002 -1.743301e+001 7.274510e+001
2107500000 -2.044540e+001 2.098781e+000 -8.262175e-001 -1.567691e+002 -8.050954e-001 -1.573177e+002 -1.750957e+001 6.949837e+001
2108750000 -2.043106e+001 1.348300e+000 -9.040271e-001 -1.568359e+002 -7.681999e-001 -1.571693e+002 -1.694270e+001 6.880442e+001
2110000000 -2.042191e+001 1.442009e+000 -9.092602e-001 -1.570377e+002 -7.412996e-001 -1.576080e+002 -1.721169e+001 6.869599e+001
2111250000 -2.034601e+001 2.194405e+000 -9.158886e-001 -1.573394e+002 -7.951674e-001 -1.578448e+002 -1.704994e+001 7.080575e+001
2112500000 -2.039972e+001 1.725013e+000 -9.120395e-001 -1.574323e+002 -8.066558e-001 -1.576692e+002 -1.707991e+001 7.227410e+001
2113750000 -2.034376e+001 1.064605e+000 -8.880951e-001 -1.573806e+002 -8.172513e-001 -1.577885e+002 -1.721237e+001 6.971377e+001
2115000000 -2.020081e+001 2.260459e+000 -9.205783e-001 -1.574530e+002 -8.393807e-001 -1.573372e+002 -1.681885e+001 7.100983e+001
2116250000 -2.033847e+001 1.502150e+000 -9.675526e-001 -1.577696e+002 -8.494188e-001 -1.576482e+002 -1.654877e+001 7.115562e+001
2117500000 -2.027440e+001 1.330833e+000 -9.121221e-001 -1.577289e+002 -9.037757e-001 -1.578240e+002 -1.674096e+001 7.048061e+001
2118750000 -2.028120e+001 6.966825e-001 -9.425606e-001 -1.579071e+002 -8.966622e-001 -1.578326e+002 -1.703676e+001 7.197652e+001
2120000000 -2.025468e+001 8.391566e-001 -9.228566e-001 -1.580911e+002 -8.752030e-001 -1.579923e+002 -1.687399e+001 7.071645e+001
2121250000 -2.034545e+001 8.625463e-001 -9.609073e-001 -1.581175e+002 -8.282079e-001 -1.581418e+002 -1.700208e+001 7.074266e+001
2122500000 -2.026489e+001 3.627045e-001 -8.888898e-001 -1.581730e+002 -8.178792e-001 -1.583416e+002 -1.697829e+001 6.920060e+001
2123750000 -2.032900e+001 4.273910e-001 -8.710119e-001 -1.582694e+002 -7.462202e-001 -1.580830e+002 -1.688354e+001 6.808479e+001
2125000000 -2.039680e+001 -2.005461e-001 -9.133970e-001 -1.584631e+002 -7.833561e-001 -1.585417e+002 -1.681712e+001 6.743766e+001
2126250000 -2.020470e+001 4.300817e-001 -8.921531e-001 -1.585115e+002 -8.133320e-001 -1.586207e+002 -1.695446e+001 6.934437e+001
2127500000 -2.029206e+001 3.007146e-001 -9.199409e-001 -1.584707e+002 -8.220868e-001 -1.583895e+002 -1.666300e+001 6.833559e+001
2128750000 -2.019495e+001 3.216407e-001 -9.152470e-001 -1.587896e+002 -8.960852e-001 -1.583537e+002 -1.667651e+001 6.975578e+001
2130000000 -2.025065e+001 -3.341306e-001 -9.216491e-001 -1.588985e+002 -8.571737e-001 -1.581585e+002 -1.679168e+001 7.138153e+001
2131250000 -2.021395e+001 -7.436357e-001 -9.065068e-001 -1.587847e+002 -8.050197e-001 -1.583799e+002 -1.666038e+001 6.891662e+001
2132500000 -2.035114e+001 -7.195666e-001 -9.282491e-001 -1.589910e+002 -8.003109e-001 -1.588722e+002 -1.650502e+001 6.807963e+001
2133750000 -2.017743e+001 -3.290997e-001 -9.178425e-001 -1.589880e+002 -8.491970e-001 -1.584092e+002 -1.642433e+001 6.669557e+001
2135000000 -2.022680e+001 -3.256737e-001 -9.517142e-001 -1.592965e+002 -8.240286e-001 -1.587111e+002 -1.637817e+001 6.656275e+001
2136250000 -2.033401e+001 -1.704882e-001 -9.394193e-001 -1.592637e+002 -8.823433e-001 -1.590653e+002 -1.671108e+001 6.861940e+001
2137500000 -2.019825e+001 -1.088977e+000 -9.166417e-001 -1.595516e+002 -8.822484e-001 -1.588599e+002 -1.682942e+001 7.068095e+001
2138750000 -2.025397e+001 -1.207208e+000 -9.080052e-001 -1.594934e+002 -8.406667e-001 -1.589622e+002 -1.627781e+001 6.336856e+001
2140000000 -2.015183e+001 -1.362845e+000 -9.212903e-001 -1.598250e+002 -8.929826e-001 -1.590782e+002 -1.613473e+001 6.599886e+001
2141250000 -2.024128e+001 -1.217466e+000 -9.221764e-001 -1.597313e+002 -8.738524e-001 -1.591344e+002 -1.701534e+001 6.534551e+001
2142500000 -2.016796e+001 -1.728742e+000 -9.387518e-001 -1.600633e+002 -8.910716e-001 -1.590646e+002 -1.647533e+001 6.744106e+001
2143750000 -2.015768e+001 -1.699467e+000 -8.672611e-001 -1.597369e+002 -8.731461e-001 -1.589991e+002 -1.595014e+001 6.613097e+001
2145000000 -2.008190e+001 -1.523696e+000 -9.529779e-001 -1.593399e+002 -8.776554e-001 -1.592245e+002 -1.640818e+001 6.724419e+001
2146250000 -2.005599e+001 -1.733764e+000 -9.345602e-001 -1.599923e+002 -8.922403e-001 -1.590560e+002 -1.637803e+001 6.638298e+001
2147500000 -2.001941e+001 -1.325965e+000 -9.628835e-001 -1.599978e+002 -8.658744e-001 -1.593925e+002 -1.693631e+001 6.501162e+001
2148750000 -2.003951e+001 -1.619228e+000 -9.676929e-001 -1.608461e+002 -8.631667e-001 -1.592034e+002 -1.664159e+001 6.271627e+001
2150000000 -2.000851e+001 -3.244010e+000 -9.357160e-001 -1.607689e+002 -8.497514e-001 -1.592888e+002 -1.667002e+001 6.424429e+001
2151250000 -2.007782e+001 -2.235622e+000 -9.867855e-001 -1.605504e+002 -8.191767e-001 -1.596395e+002 -1.699375e+001 6.105168e+001
2152500000 -2.004896e+001 -2.057005e+000 -9.427585e-001 -1.604733e+002 -8.637866e-001 -1.595238e+002 -1.699903e+001 6.615698e+001
2153750000 -2.006207e+001 -3.106066e+000 -9.520863e-001 -1.605763e+002 -7.909812e-001 -1.595635e+002 -1.650685e+001 6.185287e+001
2155000000 -2.008166e+001 -3.230047e+000 -9.611711e-001 -1.605087e+002 -8.194540e-001 -1.596363e+002 -1.690227e+001 6.293002e+001
2156250000 -1.996683e+001 -3.823301e+000 -9.901561e-001 -1.606518e+002 -8.454189e-001 -1.597210e+002 -1.676405e+001 6.592587e+001
2157500000 -1.996487e+001 -3.709980e+000 -9.701253e-001 -1.605213e+002 -8.421344e-001 -1.597910e+002 -1.699858e+001 6.384211e+001
2158750000 -1.994206e+001 -3.703293e+000 -9.969495e-001 -1.608476e+002 -8.782887e-001 -1.597869e+002 -1.656056e+001 6.570133e+001
2160000000 -2.000940e+001 -4.790894e+000 -9.802268e-001 -1.606951e+002 -7.848266e-001 -1.596798e+002 -1.620256e+001 6.570547e+001
2161250000 -2.000309e+001 -4.958171e+000 -9.743277e-001 -1.609276e+002 -8.260474e-001 -1.599878e+002 -1.665878e+001 6.375243e+001
2162500000 -2.004153e+001 -4.353720e+000 -9.841597e-001 -1.610803e+002 -8.661064e-001 -1.601237e+002 -1.647646e+001 6.194545e+001
2163750000 -2.012263e+001 -4.413967e+000 -1.016591e+000 -1.609970e+002 -8.271919e-001 -1.602185e+002 -1.626820e+001 6.190665e+001
2165000000 -1.997102e+001 -4.905563e+000 -9.267383e-001 -1.615650e+002 -7.896075e-001 -1.603562e+002 -1.638439e+001 6.097501e+001
2166250000 -1.997560e+001 -4.894242e+000 -9.654309e-001 -1.611092e+002 -7.779099e-001 -1.604859e+002 -1.622182e+001 6.424329e+001
2167500000 -2.001081e+001 -5.195711e+000 -9.479874e-001 -1.615045e+002 -7.191283e-001 -1.606863e+002 -1.663433e+001 6.213646e+001
2168750000 -1.991787e+001 -4.691163e+000 -9.310884e-001 -1.612466e+002 -7.862555e-001 -1.610545e+002 -1.677330e+001 6.198571e+001
2170000000 -2.007543e+001 -5.403290e+000 -9.493529e-001 -1.615769e+002 -7.493958e-001 -1.610635e+002 -1.659623e+001 6.104289e+001
2171250000 -2.001844e+001 -5.318523e+000 -9.566225e-001 -1.617585e+002 -7.890717e-001 -1.612451e+002 -1.731972e+001 6.182723e+001
2172500000 -2.000090e+001 -5.284080e+000 -9.167458e-001 -1.619364e+002 -8.132312e-001 -1.610383e+002 -1.704644e+001 6.694818e+001
2173750000 -2.007350e+001 -5.928490e+000 -9.473243e-001 -1.620858e+002 -7.751716e-001 -1.611926e+002 -1.672738e+001 6.667228e+001
2175000000 -2.000324e+001 -5.859813e+000 -9.417255e-001 -1.620943e+002 -7.819552e-001 -1.617824e+002 -1.677106e+001 6.439754e+001
2176250000 -2.004516e+001 -5.774296e+000 -9.219964e-001 -1.619821e+002 -7.893437e-001 -1.616048e+002 -1.719845e+001 6.431933e+001
2177500000 -2.011711e+001 -6.225983e+000 -9.225900e-001 -1.623932e+002 -7.432688e-001 -1.620759e+002 -1.735508e+001 6.219773e+001
2178750000 -2.000007e+001 -6.130691e+000 -9.847017e-001 -1.625063e+002 -7.817526e-001 -1.618142e+002 -1.700966e+001 6.015528e+001
2180000000 -2.005574e+001 -6.376960e+000 -9.673820e-001 -1.626171e+002 -7.588270e-001 -1.620334e+002 -1.641661e+001 6.344789e+001
2181250000 -2.005853e+001 -6.860683e+000 -1.007608e+000 -1.627108e+002 -7.403860e-001 -1.620711e+002 -1.633711e+001 6.077645e+001
2182500000 -2.003936e+001 -6.932744e+000 -9.793285e-001 -1.626052e+002 -7.375770e-001 -1.623301e+002 -1.659140e+001 5.927731e+001
2183750000 -1.993637e+001 -6.770459e+000 -9.736187e-001 -1.624940e+002 -7.401310e-001 -1.624863e+002 -1.683462e+001 5.977258e+001
2185000000 -1.998429e+001 -7.096402e+000 -1.025322e+000 -1.626697e+002 -6.876140e-001 -1.625642e+002 -1.651450e+001 6.255321e+001
2186250000 -1.993159e+001 -7.473965e+000 -1.001164e+000 -1.625990e+002 -7.079070e-001 -1.624870e+002 -1.620291e+001 5.816542e+001
2187500000 -2.002986e+001 -7.249011e+000 -9.989743e-001 -1.630680e+002 -7.477053e-001 -1.627162e+002 -1.692938e+001 6.104491e+001
