!Agilent Technologies,E8364A,US41440144,A.06.04.32
!Agilent E8364A: A.06.04.32
!Date: Friday, February 02, 2018 16:05:02
!Correction: S11(Full 2 Port(1,2)) S21(Full 2 Port(1,2)) S12(Full 2 Port(1,2)) S22(Full 2 Port(1,2)) 
!S2P File: Measurements: S11, S21, S12, S22:
# Hz S  dB   R 50
2000000000 -1.421074e+000 -9.373037e+001 -6.185531e+000 -1.029651e+002 -5.861167e+000 -1.031057e+002 -1.051037e+000 -3.560639e+001
2001250000 -1.398716e+000 -9.357935e+001 -6.149603e+000 -1.028352e+002 -5.868330e+000 -1.032218e+002 -9.990407e-001 -3.523785e+001
2002500000 -1.398242e+000 -9.383726e+001 -6.127883e+000 -1.031018e+002 -5.878985e+000 -1.033766e+002 -9.806632e-001 -3.598180e+001
2003750000 -1.428692e+000 -9.387271e+001 -6.162457e+000 -1.031610e+002 -5.870058e+000 -1.035364e+002 -9.744502e-001 -3.595538e+001
2005000000 -1.436753e+000 -9.408084e+001 -6.154869e+000 -1.034859e+002 -5.917338e+000 -1.041413e+002 -9.915878e-001 -3.624367e+001
2006250000 -1.430939e+000 -9.400887e+001 -6.185045e+000 -1.034610e+002 -5.861364e+000 -1.038426e+002 -9.629137e-001 -3.698903e+001
2007500000 -1.412230e+000 -9.437881e+001 -6.227180e+000 -1.038823e+002 -5.826978e+000 -1.039902e+002 -1.039327e+000 -3.702835e+001
2008750000 -1.385490e+000 -9.420956e+001 -6.248272e+000 -1.038325e+002 -5.843747e+000 -1.038009e+002 -1.045313e+000 -3.713742e+001
2010000000 -1.412945e+000 -9.418127e+001 -6.203644e+000 -1.041888e+002 -5.878923e+000 -1.026379e+002 -9.177722e-001 -3.685888e+001
2011250000 -1.404085e+000 -9.429865e+001 -6.196820e+000 -1.041390e+002 -5.889410e+000 -1.035862e+002 -9.980841e-001 -3.743571e+001
2012500000 -1.381661e+000 -9.420824e+001 -6.133569e+000 -1.041210e+002 -5.855082e+000 -1.035658e+002 -1.033306e+000 -3.798662e+001
2013750000 -1.385944e+000 -9.437875e+001 -6.086663e+000 -1.041872e+002 -5.868312e+000 -1.035860e+002 -1.008904e+000 -3.818916e+001
2015000000 -1.404298e+000 -9.424818e+001 -6.114777e+000 -1.041886e+002 -5.896885e+000 -1.043197e+002 -1.027202e+000 -3.823430e+001
2016250000 -1.366409e+000 -9.440593e+001 -6.094767e+000 -1.043789e+002 -5.860062e+000 -1.043302e+002 -9.095961e-001 -3.850733e+001
2017500000 -1.425904e+000 -9.439641e+001 -6.087565e+000 -1.044572e+002 -5.885727e+000 -1.044345e+002 -9.479606e-001 -3.848049e+001
2018750000 -1.425208e+000 -9.451325e+001 -6.103016e+000 -1.045727e+002 -5.875677e+000 -1.045030e+002 -9.245096e-001 -3.840356e+001
2020000000 -1.391966e+000 -9.454443e+001 -6.043909e+000 -1.047871e+002 -5.863538e+000 -1.047624e+002 -9.892210e-001 -3.846808e+001
2021250000 -1.438656e+000 -9.460433e+001 -6.108984e+000 -1.047396e+002 -5.763302e+000 -1.046016e+002 -9.178101e-001 -3.872221e+001
2022500000 -1.401272e+000 -9.471832e+001 -6.036145e+000 -1.048983e+002 -5.791345e+000 -1.044060e+002 -1.003543e+000 -3.883041e+001
2023750000 -1.417602e+000 -9.483688e+001 -6.053128e+000 -1.052468e+002 -5.728323e+000 -1.043805e+002 -9.992437e-001 -3.903945e+001
2025000000 -1.413212e+000 -9.485212e+001 -6.104375e+000 -1.052255e+002 -5.701817e+000 -1.046846e+002 -9.080018e-001 -3.998243e+001
2026250000 -1.457379e+000 -9.483236e+001 -6.101331e+000 -1.050403e+002 -5.695074e+000 -1.048923e+002 -9.540384e-001 -3.980019e+001
2027500000 -1.440890e+000 -9.483469e+001 -6.075541e+000 -1.053141e+002 -5.670322e+000 -1.049333e+002 -1.024205e+000 -3.956512e+001
2028750000 -1.436404e+000 -9.489040e+001 -6.052695e+000 -1.054999e+002 -5.671631e+000 -1.046640e+002 -1.057381e+000 -3.977028e+001
2030000000 -1.468658e+000 -9.502894e+001 -6.090154e+000 -1.056394e+002 -5.693873e+000 -1.054514e+002 -9.846311e-001 -3.974776e+001
2031250000 -1.434998e+000 -9.500420e+001 -6.062884e+000 -1.061183e+002 -5.678204e+000 -1.056782e+002 -1.094160e+000 -4.036065e+001
2032500000 -1.427996e+000 -9.501499e+001 -6.053823e+000 -1.055867e+002 -5.644179e+000 -1.060468e+002 -9.030340e-001 -4.140795e+001
2033750000 -1.423205e+000 -9.511102e+001 -6.050822e+000 -1.060412e+002 -5.634981e+000 -1.059284e+002 -9.409501e-001 -4.151627e+001
2035000000 -1.411354e+000 -9.524347e+001 -6.004307e+000 -1.061224e+002 -5.600085e+000 -1.064165e+002 -9.262977e-001 -4.213800e+001
2036250000 -1.424966e+000 -9.548370e+001 -6.045880e+000 -1.062103e+002 -5.568382e+000 -1.065062e+002 -8.334542e-001 -4.210940e+001
2037500000 -1.438389e+000 -9.542899e+001 -6.030697e+000 -1.065125e+002 -5.595320e+000 -1.064042e+002 -1.030169e+000 -4.223013e+001
2038750000 -1.436481e+000 -9.530805e+001 -6.017696e+000 -1.064159e+002 -5.624149e+000 -1.063162e+002 -9.874139e-001 -4.212923e+001
2040000000 -1.441494e+000 -9.560130e+001 -5.995256e+000 -1.068411e+002 -5.514219e+000 -1.060792e+002 -9.312890e-001 -4.188792e+001
2041250000 -1.449798e+000 -9.549055e+001 -5.990407e+000 -1.067936e+002 -5.490057e+000 -1.065469e+002 -9.664152e-001 -4.260838e+001
2042500000 -1.432268e+000 -9.555540e+001 -6.000533e+000 -1.069615e+002 -5.475633e+000 -1.066632e+002 -9.754533e-001 -4.238739e+001
2043750000 -1.435681e+000 -9.577229e+001 -6.016371e+000 -1.072549e+002 -5.393322e+000 -1.067623e+002 -9.338999e-001 -4.282138e+001
2045000000 -1.421634e+000 -9.570779e+001 -6.070296e+000 -1.069992e+002 -5.429206e+000 -1.075452e+002 -9.634584e-001 -4.367352e+001
2046250000 -1.425539e+000 -9.581218e+001 -6.021502e+000 -1.074046e+002 -5.379507e+000 -1.075236e+002 -8.670583e-001 -4.361781e+001
2047500000 -1.440527e+000 -9.599684e+001 -6.097861e+000 -1.075394e+002 -5.381230e+000 -1.081300e+002 -9.288939e-001 -4.384723e+001
2048750000 -1.397644e+000 -9.604831e+001 -6.056493e+000 -1.074774e+002 -5.362144e+000 -1.082396e+002 -9.165140e-001 -4.363595e+001
2050000000 -1.424834e+000 -9.581284e+001 -6.082107e+000 -1.075988e+002 -5.373075e+000 -1.084935e+002 -9.536597e-001 -4.395996e+001
2051250000 -1.385809e+000 -9.618797e+001 -6.032120e+000 -1.080529e+002 -5.379900e+000 -1.084349e+002 -9.112120e-001 -4.387857e+001
2052500000 -1.397917e+000 -9.605673e+001 -6.009759e+000 -1.077840e+002 -5.367284e+000 -1.087286e+002 -9.216062e-001 -4.415895e+001
2053750000 -1.421293e+000 -9.599051e+001 -6.017223e+000 -1.077819e+002 -5.344496e+000 -1.086565e+002 -8.550233e-001 -4.473949e+001
2055000000 -1.427465e+000 -9.613188e+001 -6.042203e+000 -1.079422e+002 -5.361353e+000 -1.092674e+002 -8.764195e-001 -4.485339e+001
2056250000 -1.426607e+000 -9.625109e+001 -6.014886e+000 -1.078606e+002 -5.402073e+000 -1.097123e+002 -9.924192e-001 -4.548792e+001
2057500000 -1.420598e+000 -9.641576e+001 -5.995714e+000 -1.084952e+002 -5.395020e+000 -1.103804e+002 -9.679579e-001 -4.587875e+001
2058750000 -1.412114e+000 -9.616209e+001 -5.946088e+000 -1.082300e+002 -5.450642e+000 -1.103228e+002 -9.769469e-001 -4.542281e+001
2060000000 -1.422218e+000 -9.645776e+001 -5.991589e+000 -1.086449e+002 -5.368433e+000 -1.108875e+002 -9.004085e-001 -4.582333e+001
2061250000 -1.408732e+000 -9.638729e+001 -6.004755e+000 -1.084641e+002 -5.378030e+000 -1.112600e+002 -9.483173e-001 -4.578671e+001
2062500000 -1.416054e+000 -9.649291e+001 -6.017842e+000 -1.089138e+002 -5.407201e+000 -1.118387e+002 -8.793357e-001 -4.610064e+001
2063750000 -1.440534e+000 -9.661480e+001 -6.063148e+000 -1.085431e+002 -5.478795e+000 -1.122806e+002 -9.476926e-001 -4.695202e+001
2065000000 -1.451888e+000 -9.672243e+001 -6.010287e+000 -1.085050e+002 -5.399688e+000 -1.120339e+002 -9.431298e-001 -4.705120e+001
2066250000 -1.434298e+000 -9.662402e+001 -6.043680e+000 -1.088085e+002 -5.454686e+000 -1.126423e+002 -9.061313e-001 -4.650980e+001
2067500000 -1.435741e+000 -9.691897e+001 -6.082508e+000 -1.087690e+002 -5.480961e+000 -1.129982e+002 -8.628568e-001 -4.656483e+001
2068750000 -1.416429e+000 -9.696524e+001 -6.023396e+000 -1.087987e+002 -5.531236e+000 -1.134406e+002 -9.509311e-001 -4.743639e+001
2070000000 -1.441276e+000 -9.679995e+001 -5.995697e+000 -1.094120e+002 -5.543719e+000 -1.135090e+002 -9.859670e-001 -4.639277e+001
2071250000 -1.384457e+000 -9.682952e+001 -5.944199e+000 -1.090356e+002 -5.560103e+000 -1.138745e+002 -1.029456e+000 -4.704945e+001
2072500000 -1.394439e+000 -9.698122e+001 -5.956632e+000 -1.092940e+002 -5.539486e+000 -1.144486e+002 -8.953258e-001 -4.784286e+001
2073750000 -1.445483e+000 -9.704707e+001 -6.013320e+000 -1.094165e+002 -5.601725e+000 -1.143324e+002 -1.022355e+000 -4.824457e+001
2075000000 -1.427000e+000 -9.707619e+001 -6.027171e+000 -1.093933e+002 -5.736749e+000 -1.144093e+002 -1.075098e+000 -4.858459e+001
2076250000 -1.437818e+000 -9.693147e+001 -6.013087e+000 -1.090880e+002 -5.774344e+000 -1.142113e+002 -1.015906e+000 -4.888509e+001
2077500000 -1.395291e+000 -9.738049e+001 -5.966331e+000 -1.098164e+002 -5.796893e+000 -1.145871e+002 -9.235704e-001 -4.907784e+001
2078750000 -1.425973e+000 -9.736528e+001 -6.021387e+000 -1.097460e+002 -5.785885e+000 -1.146384e+002 -9.614926e-001 -4.928601e+001
2080000000 -1.452969e+000 -9.733730e+001 -6.001379e+000 -1.097297e+002 -5.850034e+000 -1.151261e+002 -9.485577e-001 -4.961208e+001
2081250000 -1.446008e+000 -9.761733e+001 -5.982673e+000 -1.102161e+002 -5.802279e+000 -1.152464e+002 -9.284074e-001 -4.943041e+001
2082500000 -1.481840e+000 -9.727231e+001 -5.975593e+000 -1.099713e+002 -5.882813e+000 -1.156993e+002 -1.064597e+000 -5.026385e+001
2083750000 -1.499850e+000 -9.746450e+001 -5.974727e+000 -1.101513e+002 -5.914118e+000 -1.160118e+002 -1.052891e+000 -5.010842e+001
2085000000 -1.483608e+000 -9.750360e+001 -5.960858e+000 -1.101296e+002 -5.915941e+000 -1.153589e+002 -1.044035e+000 -4.980685e+001
2086250000 -1.474887e+000 -9.754263e+001 -5.960506e+000 -1.104149e+002 -5.981922e+000 -1.155017e+002 -9.311602e-001 -5.042270e+001
2087500000 -1.475295e+000 -9.723750e+001 -5.960452e+000 -1.101894e+002 -5.977427e+000 -1.156692e+002 -9.237788e-001 -5.062627e+001
2088750000 -1.459273e+000 -9.733135e+001 -5.966647e+000 -1.103726e+002 -6.056330e+000 -1.152352e+002 -8.682829e-001 -5.015288e+001
2090000000 -1.435401e+000 -9.735625e+001 -5.921235e+000 -1.104576e+002 -6.168930e+000 -1.152389e+002 -9.594662e-001 -5.133892e+001
2091250000 -1.435189e+000 -9.769997e+001 -5.919250e+000 -1.110238e+002 -6.168875e+000 -1.153356e+002 -9.179130e-001 -5.122609e+001
2092500000 -1.453065e+000 -9.765178e+001 -5.903241e+000 -1.109908e+002 -6.201631e+000 -1.148677e+002 -1.063561e+000 -5.131015e+001
2093750000 -1.418868e+000 -9.768214e+001 -5.863121e+000 -1.109244e+002 -6.266736e+000 -1.147896e+002 -1.021047e+000 -5.146161e+001
2095000000 -1.461426e+000 -9.792989e+001 -5.863010e+000 -1.111345e+002 -6.220160e+000 -1.150471e+002 -1.060864e+000 -5.218843e+001
2096250000 -1.479129e+000 -9.776127e+001 -5.855293e+000 -1.112339e+002 -6.227108e+000 -1.147104e+002 -1.019132e+000 -5.223668e+001
2097500000 -1.464280e+000 -9.788768e+001 -5.834674e+000 -1.112749e+002 -6.270202e+000 -1.150405e+002 -1.028837e+000 -5.317332e+001
2098750000 -1.467829e+000 -9.770551e+001 -5.776914e+000 -1.113706e+002 -6.258925e+000 -1.145836e+002 -1.046706e+000 -5.377118e+001
2100000000 -1.444995e+000 -9.783050e+001 -5.729945e+000 -1.115025e+002 -6.304337e+000 -1.139493e+002 -9.772288e-001 -5.322515e+001
2101250000 -1.460351e+000 -9.808594e+001 -5.740851e+000 -1.117018e+002 -6.280121e+000 -1.136214e+002 -9.570532e-001 -5.304594e+001
2102500000 -1.463893e+000 -9.816643e+001 -5.727285e+000 -1.119655e+002 -6.305363e+000 -1.133485e+002 -9.121581e-001 -5.343478e+001
2103750000 -1.493119e+000 -9.806287e+001 -5.759622e+000 -1.120913e+002 -6.351244e+000 -1.132666e+002 -8.279989e-001 -5.337475e+001
2105000000 -1.456917e+000 -9.829811e+001 -5.700962e+000 -1.121734e+002 -6.317170e+000 -1.133615e+002 -8.394067e-001 -5.375759e+001
2106250000 -1.487387e+000 -9.823216e+001 -5.759714e+000 -1.120042e+002 -6.367653e+000 -1.135667e+002 -9.276406e-001 -5.416338e+001
2107500000 -1.465864e+000 -9.827182e+001 -5.734938e+000 -1.125823e+002 -6.327595e+000 -1.134578e+002 -9.146376e-001 -5.422435e+001
2108750000 -1.490615e+000 -9.837035e+001 -5.771372e+000 -1.125075e+002 -6.312531e+000 -1.135526e+002 -9.286923e-001 -5.469981e+001
2110000000 -1.470417e+000 -9.851154e+001 -5.781729e+000 -1.122672e+002 -6.325198e+000 -1.135905e+002 -8.539647e-001 -5.463997e+001
2111250000 -1.505724e+000 -9.853116e+001 -5.771753e+000 -1.126321e+002 -6.273077e+000 -1.129292e+002 -9.514222e-001 -5.420651e+001
2112500000 -1.488744e+000 -9.858209e+001 -5.769770e+000 -1.129045e+002 -6.273580e+000 -1.128260e+002 -9.619554e-001 -5.461591e+001
2113750000 -1.462148e+000 -9.841296e+001 -5.812576e+000 -1.127082e+002 -6.210132e+000 -1.127471e+002 -8.850806e-001 -5.517010e+001
2115000000 -1.484539e+000 -9.858401e+001 -5.767579e+000 -1.132418e+002 -6.238872e+000 -1.121491e+002 -9.857050e-001 -5.477559e+001
2116250000 -1.480288e+000 -9.864484e+001 -5.771367e+000 -1.133034e+002 -6.179795e+000 -1.118030e+002 -9.606251e-001 -5.521560e+001
2117500000 -1.475754e+000 -9.858353e+001 -5.792994e+000 -1.132543e+002 -6.180549e+000 -1.116967e+002 -9.359393e-001 -5.585358e+001
2118750000 -1.454895e+000 -9.867983e+001 -5.741064e+000 -1.135733e+002 -6.193147e+000 -1.119328e+002 -9.743505e-001 -5.608306e+001
2120000000 -1.467483e+000 -9.871748e+001 -5.761656e+000 -1.134403e+002 -6.136332e+000 -1.115895e+002 -9.317740e-001 -5.603297e+001
2121250000 -1.460088e+000 -9.868442e+001 -5.677134e+000 -1.135864e+002 -6.072314e+000 -1.116416e+002 -9.496010e-001 -5.620410e+001
2122500000 -1.439390e+000 -9.891283e+001 -5.726678e+000 -1.137137e+002 -5.983349e+000 -1.122510e+002 -9.262392e-001 -5.676033e+001
2123750000 -1.446444e+000 -9.896861e+001 -5.699688e+000 -1.139615e+002 -5.928737e+000 -1.120702e+002 -1.073253e+000 -5.645085e+001
2125000000 -1.491826e+000 -9.916651e+001 -5.704993e+000 -1.143574e+002 -5.844049e+000 -1.120606e+002 -9.890096e-001 -5.707280e+001
2126250000 -1.486758e+000 -9.900926e+001 -5.705685e+000 -1.144849e+002 -5.880564e+000 -1.119716e+002 -1.085473e+000 -5.739888e+001
2127500000 -1.490959e+000 -9.892146e+001 -5.670921e+000 -1.143968e+002 -5.808145e+000 -1.117396e+002 -9.416696e-001 -5.711706e+001
2128750000 -1.499829e+000 -9.913090e+001 -5.723700e+000 -1.148844e+002 -5.764627e+000 -1.119445e+002 -9.591612e-001 -5.743334e+001
2130000000 -1.526678e+000 -9.907946e+001 -5.820098e+000 -1.148168e+002 -5.711646e+000 -1.116693e+002 -9.912122e-001 -5.763131e+001
2131250000 -1.476597e+000 -9.899294e+001 -5.764510e+000 -1.145742e+002 -5.664164e+000 -1.116218e+002 -1.008029e+000 -5.754262e+001
2132500000 -1.466087e+000 -9.921505e+001 -5.759760e+000 -1.149461e+002 -5.514347e+000 -1.119084e+002 -9.614342e-001 -5.802607e+001
2133750000 -1.454287e+000 -9.932201e+001 -5.718042e+000 -1.151225e+002 -5.480144e+000 -1.121726e+002 -9.343942e-001 -5.794988e+001
2135000000 -1.463293e+000 -9.914042e+001 -5.729301e+000 -1.148647e+002 -5.439970e+000 -1.124303e+002 -9.006276e-001 -5.819403e+001
2136250000 -1.434735e+000 -9.940701e+001 -5.768399e+000 -1.153397e+002 -5.444837e+000 -1.126609e+002 -9.854033e-001 -5.846889e+001
2137500000 -1.456817e+000 -9.944441e+001 -5.752562e+000 -1.152773e+002 -5.415624e+000 -1.124818e+002 -9.482262e-001 -5.858358e+001
2138750000 -1.434212e+000 -9.967307e+001 -5.725220e+000 -1.154529e+002 -5.434186e+000 -1.131755e+002 -8.929598e-001 -5.895382e+001
2140000000 -1.465071e+000 -9.962314e+001 -5.746095e+000 -1.160404e+002 -5.305016e+000 -1.136199e+002 -9.627502e-001 -5.928219e+001
2141250000 -1.489886e+000 -9.966454e+001 -5.762354e+000 -1.159876e+002 -5.255239e+000 -1.140164e+002 -9.986071e-001 -5.999400e+001
2142500000 -1.485612e+000 -9.973425e+001 -5.727296e+000 -1.159356e+002 -5.176772e+000 -1.145976e+002 -8.798598e-001 -5.998149e+001
2143750000 -1.451923e+000 -9.993926e+001 -5.710134e+000 -1.160902e+002 -5.117025e+000 -1.148334e+002 -8.714775e-001 -5.972764e+001
2145000000 -1.494962e+000 -9.998370e+001 -5.669463e+000 -1.157695e+002 -5.070140e+000 -1.147728e+002 -9.392721e-001 -5.984389e+001
2146250000 -1.468615e+000 -9.991333e+001 -5.734630e+000 -1.161965e+002 -5.123544e+000 -1.150744e+002 -9.478589e-001 -6.013881e+001
2147500000 -1.448389e+000 -9.984705e+001 -5.745901e+000 -1.162090e+002 -5.088481e+000 -1.156045e+002 -8.787102e-001 -5.991277e+001
2148750000 -1.468679e+000 -1.001297e+002 -5.753775e+000 -1.162478e+002 -5.125289e+000 -1.158175e+002 -8.714561e-001 -6.051308e+001
2150000000 -1.507272e+000 -1.000818e+002 -5.778567e+000 -1.164285e+002 -5.045029e+000 -1.161710e+002 -8.934405e-001 -6.046616e+001
2151250000 -1.451182e+000 -9.985139e+001 -5.710133e+000 -1.162867e+002 -5.080519e+000 -1.164647e+002 -1.008505e+000 -6.069351e+001
2152500000 -1.453120e+000 -1.001772e+002 -5.738291e+000 -1.164074e+002 -5.041009e+000 -1.170712e+002 -8.931364e-001 -6.036359e+001
2153750000 -1.467799e+000 -1.003703e+002 -5.718692e+000 -1.166443e+002 -5.057983e+000 -1.174566e+002 -9.955144e-001 -6.109570e+001
2155000000 -1.454504e+000 -1.002843e+002 -5.693141e+000 -1.167988e+002 -5.013864e+000 -1.182225e+002 -9.152554e-001 -6.160922e+001
2156250000 -1.453761e+000 -1.003593e+002 -5.683194e+000 -1.163982e+002 -5.001572e+000 -1.184550e+002 -9.444463e-001 -6.161398e+001
2157500000 -1.441165e+000 -1.005363e+002 -5.679756e+000 -1.167001e+002 -4.973269e+000 -1.190905e+002 -1.048555e+000 -6.187042e+001
2158750000 -1.467014e+000 -1.002902e+002 -5.772748e+000 -1.163064e+002 -4.994039e+000 -1.192753e+002 -9.618661e-001 -6.183563e+001
2160000000 -1.481411e+000 -1.005445e+002 -5.769122e+000 -1.167756e+002 -5.041698e+000 -1.197593e+002 -9.280084e-001 -6.226873e+001
2161250000 -1.499158e+000 -1.006096e+002 -5.738336e+000 -1.171018e+002 -5.101298e+000 -1.203844e+002 -9.793670e-001 -6.274940e+001
2162500000 -1.491967e+000 -1.006432e+002 -5.693696e+000 -1.169754e+002 -5.108067e+000 -1.208733e+002 -9.320358e-001 -6.273982e+001
2163750000 -1.457319e+000 -1.006209e+002 -5.621337e+000 -1.171226e+002 -5.128642e+000 -1.210906e+002 -9.862197e-001 -6.253188e+001
2165000000 -1.457529e+000 -1.008816e+002 -5.616105e+000 -1.171984e+002 -5.184656e+000 -1.217841e+002 -8.436192e-001 -6.352105e+001
2166250000 -1.482785e+000 -1.007339e+002 -5.626448e+000 -1.171340e+002 -5.182310e+000 -1.216816e+002 -9.012026e-001 -6.338458e+001
2167500000 -1.469229e+000 -1.009173e+002 -5.631620e+000 -1.173549e+002 -5.237227e+000 -1.220534e+002 -8.983578e-001 -6.321718e+001
2168750000 -1.484412e+000 -1.009621e+002 -5.638375e+000 -1.172191e+002 -5.239416e+000 -1.221469e+002 -9.714371e-001 -6.358960e+001
2170000000 -1.468359e+000 -1.011620e+002 -5.603398e+000 -1.179421e+002 -5.214609e+000 -1.222623e+002 -9.180666e-001 -6.428867e+001
2171250000 -1.504188e+000 -1.010808e+002 -5.609081e+000 -1.179147e+002 -5.307055e+000 -1.224937e+002 -9.387808e-001 -6.393254e+001
2172500000 -1.482904e+000 -1.011540e+002 -5.593907e+000 -1.181288e+002 -5.333427e+000 -1.231224e+002 -9.578322e-001 -6.406554e+001
2173750000 -1.491379e+000 -1.013371e+002 -5.606838e+000 -1.183474e+002 -5.392948e+000 -1.230023e+002 -1.039647e+000 -6.438656e+001
2175000000 -1.479136e+000 -1.014631e+002 -5.575987e+000 -1.182854e+002 -5.376695e+000 -1.233560e+002 -1.010679e+000 -6.428460e+001
2176250000 -1.498226e+000 -1.012223e+002 -5.585320e+000 -1.181820e+002 -5.468238e+000 -1.230374e+002 -9.777080e-001 -6.454512e+001
2177500000 -1.500510e+000 -1.014802e+002 -5.595931e+000 -1.186879e+002 -5.598025e+000 -1.231270e+002 -1.080004e+000 -6.482086e+001
2178750000 -1.509266e+000 -1.014953e+002 -5.592251e+000 -1.186648e+002 -5.550071e+000 -1.231142e+002 -1.023439e+000 -6.483496e+001
2180000000 -1.471916e+000 -1.017034e+002 -5.570385e+000 -1.191913e+002 -5.616769e+000 -1.237601e+002 -1.028151e+000 -6.548129e+001
2181250000 -1.522742e+000 -1.016136e+002 -5.642909e+000 -1.190265e+002 -5.653598e+000 -1.236751e+002 -1.032207e+000 -6.561346e+001
2182500000 -1.490921e+000 -1.018226e+002 -5.605666e+000 -1.194105e+002 -5.610319e+000 -1.237040e+002 -9.638097e-001 -6.533348e+001
2183750000 -1.486712e+000 -1.017510e+002 -5.594928e+000 -1.189793e+002 -5.633733e+000 -1.238919e+002 -9.675316e-001 -6.523186e+001
2185000000 -1.495952e+000 -1.017947e+002 -5.584481e+000 -1.190704e+002 -5.689641e+000 -1.243301e+002 -9.981980e-001 -6.541500e+001
