!Agilent Technologies,E8364A,US41440144,A.06.04.32
!Agilent E8364A: A.06.04.32
!Date: Wednesday, January 31, 2018 11:54:19
!Correction: S11(Full 2 Port(1,2)) S21(Full 2 Port(1,2)) S12(Full 2 Port(1,2)) S22(Full 2 Port(1,2)) 
!S2P File: Measurements: S11, S21, S12, S22:
# Hz S  dB   R 50
2000000000 -7.308858e+000 1.254836e+002 2.308319e+001 -1.147763e+001 -4.432695e+001 -1.211676e+002 -1.579691e+000 9.771932e+001
2001250000 -7.348852e+000 1.250842e+002 2.314283e+001 -1.175017e+001 -4.349288e+001 -1.410818e+002 -1.477836e+000 9.821778e+001
2002500000 -7.383058e+000 1.247690e+002 2.313436e+001 -1.222004e+001 -4.387352e+001 -1.538629e+002 -1.595408e+000 9.696252e+001
2003750000 -7.344748e+000 1.242635e+002 2.315245e+001 -1.282561e+001 -4.385630e+001 -1.262883e+002 -1.621046e+000 9.668740e+001
2005000000 -7.455260e+000 1.242322e+002 2.316944e+001 -1.294999e+001 -4.293930e+001 -1.616300e+002 -1.656148e+000 9.717556e+001
2006250000 -7.424681e+000 1.230769e+002 2.315443e+001 -1.352681e+001 -3.988906e+001 -1.434097e+002 -1.587278e+000 9.681516e+001
2007500000 -7.500746e+000 1.234598e+002 2.317694e+001 -1.392333e+001 -4.206076e+001 -1.644204e+002 -1.648280e+000 9.625000e+001
2008750000 -7.487248e+000 1.232897e+002 2.322767e+001 -1.450814e+001 -4.549458e+001 -1.653932e+002 -1.670748e+000 9.543833e+001
2010000000 -7.455670e+000 1.231795e+002 2.325779e+001 -1.454298e+001 -4.839275e+001 -1.405392e+002 -1.607235e+000 9.557682e+001
2011250000 -7.510249e+000 1.224892e+002 2.324286e+001 -1.516354e+001 -4.428292e+001 -1.603156e+002 -1.478067e+000 9.481030e+001
2012500000 -7.515155e+000 1.222351e+002 2.324933e+001 -1.553851e+001 -4.242645e+001 -1.580552e+002 -1.567062e+000 9.471439e+001
2013750000 -7.558796e+000 1.222204e+002 2.322219e+001 -1.613529e+001 -4.441146e+001 -1.554238e+002 -1.630065e+000 9.417432e+001
2015000000 -7.532764e+000 1.214362e+002 2.329331e+001 -1.678197e+001 -4.590352e+001 -1.569718e+002 -1.655665e+000 9.396335e+001
2016250000 -7.614168e+000 1.215696e+002 2.327942e+001 -1.648745e+001 -4.483254e+001 1.787656e+002 -1.602767e+000 9.309180e+001
2017500000 -7.547299e+000 1.208776e+002 2.338886e+001 -1.738149e+001 -4.374566e+001 -1.469904e+002 -1.503985e+000 9.297729e+001
2018750000 -7.653334e+000 1.205629e+002 2.332866e+001 -1.790384e+001 -4.359538e+001 -1.720093e+002 -1.591336e+000 9.208645e+001
2020000000 -7.493362e+000 1.204116e+002 2.340911e+001 -1.797351e+001 -4.594985e+001 -1.221577e+002 -1.675444e+000 9.213763e+001
2021250000 -7.591888e+000 1.200934e+002 2.344453e+001 -1.812345e+001 -4.440663e+001 -1.391908e+002 -1.675431e+000 9.237911e+001
2022500000 -7.593891e+000 1.197334e+002 2.342867e+001 -1.858496e+001 -4.541303e+001 -1.461547e+002 -1.698005e+000 9.128079e+001
2023750000 -7.584061e+000 1.194564e+002 2.341467e+001 -1.920345e+001 -4.675043e+001 -1.208180e+002 -1.581065e+000 9.075314e+001
2025000000 -7.598308e+000 1.193094e+002 2.345162e+001 -1.990356e+001 -4.811592e+001 -1.449262e+002 -1.630094e+000 9.124879e+001
2026250000 -7.664707e+000 1.184966e+002 2.351196e+001 -2.020241e+001 -4.206070e+001 -1.450291e+002 -1.490873e+000 9.071827e+001
2027500000 -7.712067e+000 1.179009e+002 2.350120e+001 -2.090805e+001 -4.288048e+001 -1.592325e+002 -1.576961e+000 9.112579e+001
2028750000 -7.734245e+000 1.178288e+002 2.352662e+001 -2.100181e+001 -4.178730e+001 -1.479039e+002 -1.667738e+000 9.043699e+001
2030000000 -7.689615e+000 1.173456e+002 2.353305e+001 -2.145437e+001 -4.297319e+001 -1.385881e+002 -1.581706e+000 8.936499e+001
2031250000 -7.746143e+000 1.177409e+002 2.359248e+001 -2.216497e+001 -4.864977e+001 1.778988e+002 -1.586619e+000 8.866054e+001
2032500000 -7.767187e+000 1.169961e+002 2.357359e+001 -2.223058e+001 -4.428036e+001 -1.529457e+002 -1.748227e+000 8.910805e+001
2033750000 -7.757818e+000 1.167844e+002 2.359617e+001 -2.288996e+001 -4.616930e+001 -1.210413e+002 -1.669710e+000 8.878791e+001
2035000000 -7.753846e+000 1.164029e+002 2.357203e+001 -2.336341e+001 -4.574598e+001 -1.283151e+002 -1.647044e+000 8.797565e+001
2036250000 -7.805744e+000 1.159714e+002 2.369662e+001 -2.346134e+001 -4.442959e+001 -1.642636e+002 -1.701984e+000 8.793888e+001
2037500000 -7.842717e+000 1.158250e+002 2.361390e+001 -2.365965e+001 -4.639061e+001 -1.393952e+002 -1.756600e+000 8.661420e+001
2038750000 -7.856282e+000 1.148297e+002 2.370193e+001 -2.470963e+001 -4.093819e+001 -1.435898e+002 -1.592330e+000 8.675415e+001
2040000000 -7.849966e+000 1.150072e+002 2.372477e+001 -2.500027e+001 -4.598349e+001 -1.445804e+002 -1.614177e+000 8.666298e+001
2041250000 -7.914009e+000 1.152259e+002 2.376477e+001 -2.536153e+001 -4.607106e+001 -1.669106e+002 -1.683928e+000 8.544003e+001
2042500000 -7.879759e+000 1.138152e+002 2.374777e+001 -2.592922e+001 -4.083360e+001 -1.385150e+002 -1.693078e+000 8.547159e+001
2043750000 -7.911262e+000 1.137140e+002 2.379418e+001 -2.643824e+001 -4.280905e+001 -1.428347e+002 -1.667745e+000 8.546496e+001
2045000000 -7.981591e+000 1.134379e+002 2.384149e+001 -2.662501e+001 -4.193237e+001 -1.570914e+002 -1.565946e+000 8.464124e+001
2046250000 -7.961302e+000 1.129832e+002 2.389183e+001 -2.746876e+001 -4.334974e+001 -1.583568e+002 -1.707177e+000 8.523734e+001
2047500000 -7.966958e+000 1.130691e+002 2.384695e+001 -2.752696e+001 -4.567803e+001 -1.437172e+002 -1.669967e+000 8.375880e+001
2048750000 -7.995952e+000 1.130691e+002 2.385519e+001 -2.793327e+001 -4.655229e+001 -1.422756e+002 -1.603567e+000 8.310339e+001
2050000000 -7.992992e+000 1.122747e+002 2.390292e+001 -2.859603e+001 -4.447976e+001 -1.457776e+002 -1.535066e+000 8.327123e+001
2051250000 -8.069358e+000 1.123601e+002 2.390228e+001 -2.876791e+001 -4.656366e+001 -1.645859e+002 -1.629497e+000 8.273597e+001
2052500000 -8.072539e+000 1.120941e+002 2.392823e+001 -2.939450e+001 -4.492352e+001 -1.787870e+002 -1.772871e+000 8.232469e+001
2053750000 -8.064317e+000 1.115061e+002 2.399499e+001 -3.008509e+001 -4.843863e+001 -1.735271e+002 -1.680480e+000 8.223088e+001
2055000000 -8.130750e+000 1.108387e+002 2.400379e+001 -3.055349e+001 -4.323796e+001 -1.464881e+002 -1.676847e+000 8.195673e+001
2056250000 -8.089647e+000 1.106145e+002 2.400197e+001 -3.061241e+001 -4.419710e+001 -1.364477e+002 -1.485152e+000 8.170245e+001
2057500000 -8.110716e+000 1.102897e+002 2.406565e+001 -3.151907e+001 -4.616676e+001 -1.411476e+002 -1.669401e+000 8.067932e+001
2058750000 -8.078891e+000 1.100874e+002 2.405792e+001 -3.178796e+001 -4.527517e+001 -1.356786e+002 -1.600906e+000 7.913097e+001
2060000000 -8.155067e+000 1.094067e+002 2.406541e+001 -3.212220e+001 -4.244118e+001 -1.429147e+002 -1.646337e+000 8.027938e+001
2061250000 -8.260875e+000 1.087759e+002 2.411421e+001 -3.228653e+001 -3.896312e+001 -1.668213e+002 -1.744886e+000 7.948265e+001
2062500000 -8.194113e+000 1.087401e+002 2.412991e+001 -3.298885e+001 -4.111286e+001 -1.342675e+002 -1.669587e+000 7.951971e+001
2063750000 -8.168600e+000 1.087103e+002 2.415008e+001 -3.356387e+001 -4.579256e+001 -1.299411e+002 -1.647750e+000 7.866741e+001
2065000000 -8.231917e+000 1.087246e+002 2.414216e+001 -3.414006e+001 -4.684866e+001 -1.599201e+002 -1.534291e+000 7.883728e+001
2066250000 -8.269856e+000 1.083198e+002 2.424252e+001 -3.459504e+001 -4.503460e+001 -1.695195e+002 -1.587790e+000 7.773880e+001
2067500000 -8.258560e+000 1.078496e+002 2.420027e+001 -3.475284e+001 -4.877868e+001 -1.340561e+002 -1.562967e+000 7.686627e+001
2068750000 -8.325564e+000 1.073335e+002 2.424387e+001 -3.557265e+001 -4.416874e+001 -1.491091e+002 -1.628689e+000 7.666512e+001
2070000000 -8.339178e+000 1.070632e+002 2.426973e+001 -3.573372e+001 -4.276188e+001 -1.424818e+002 -1.691498e+000 7.775249e+001
2071250000 -8.461999e+000 1.065840e+002 2.425051e+001 -3.626971e+001 -4.109219e+001 -1.687700e+002 -1.717223e+000 7.658546e+001
2072500000 -8.556081e+000 1.057831e+002 2.424306e+001 -3.680473e+001 -3.891831e+001 -1.710225e+002 -1.726997e+000 7.613698e+001
2073750000 -8.504594e+000 1.061199e+002 2.428728e+001 -3.686428e+001 -4.289080e+001 -1.746922e+002 -1.792233e+000 7.480944e+001
2075000000 -8.555132e+000 1.060084e+002 2.431602e+001 -3.763224e+001 -4.253003e+001 1.710747e+002 -1.669327e+000 7.516395e+001
2076250000 -8.450637e+000 1.054588e+002 2.433496e+001 -3.806960e+001 -4.409087e+001 -1.492231e+002 -1.583844e+000 7.429245e+001
2077500000 -8.549185e+000 1.044638e+002 2.435882e+001 -3.865428e+001 -4.038566e+001 -1.555806e+002 -1.640910e+000 7.432864e+001
2078750000 -8.562936e+000 1.045041e+002 2.439074e+001 -3.907851e+001 -4.286045e+001 -1.616900e+002 -1.712507e+000 7.383095e+001
2080000000 -8.599047e+000 1.041868e+002 2.441089e+001 -3.975873e+001 -4.179850e+001 -1.649270e+002 -1.691914e+000 7.387300e+001
2081250000 -8.503521e+000 1.041710e+002 2.440854e+001 -4.010658e+001 -4.671687e+001 -1.446182e+002 -1.661313e+000 7.315126e+001
2082500000 -8.607727e+000 1.036389e+002 2.436756e+001 -4.068227e+001 -4.466280e+001 -1.638605e+002 -1.773281e+000 7.109555e+001
2083750000 -8.615553e+000 1.032120e+002 2.444724e+001 -4.062722e+001 -4.481973e+001 -1.531985e+002 -1.691066e+000 7.173429e+001
2085000000 -8.586686e+000 1.030861e+002 2.449173e+001 -4.132127e+001 -4.627625e+001 -1.602725e+002 -1.728625e+000 7.189411e+001
2086250000 -8.619563e+000 1.023324e+002 2.446140e+001 -4.162544e+001 -4.250953e+001 -1.410944e+002 -1.761791e+000 7.235486e+001
2087500000 -8.586267e+000 1.022542e+002 2.448954e+001 -4.211840e+001 -4.644292e+001 -1.291893e+002 -1.863400e+000 7.084045e+001
2088750000 -8.709989e+000 1.022073e+002 2.453261e+001 -4.259271e+001 -4.626472e+001 -1.774922e+002 -1.822871e+000 6.969237e+001
2090000000 -8.869524e+000 1.017508e+002 2.454686e+001 -4.333597e+001 -4.010329e+001 1.667537e+002 -1.764172e+000 7.033232e+001
2091250000 -8.846897e+000 1.011413e+002 2.454218e+001 -4.363393e+001 -4.181239e+001 -1.747764e+002 -1.739550e+000 6.915062e+001
2092500000 -8.826185e+000 1.001689e+002 2.458027e+001 -4.390193e+001 -4.050582e+001 -1.493808e+002 -1.577722e+000 6.951902e+001
2093750000 -8.818224e+000 1.001751e+002 2.460039e+001 -4.456496e+001 -4.465129e+001 -1.537884e+002 -1.633679e+000 6.897712e+001
2095000000 -8.990916e+000 1.004243e+002 2.463097e+001 -4.471671e+001 -4.076273e+001 1.773985e+002 -1.759512e+000 6.769182e+001
2096250000 -8.988617e+000 1.004042e+002 2.468678e+001 -4.553880e+001 -4.146865e+001 1.699825e+002 -1.650914e+000 6.728371e+001
2097500000 -8.919111e+000 9.923225e+001 2.460713e+001 -4.570547e+001 -4.174374e+001 -1.428356e+002 -1.726766e+000 6.652787e+001
2098750000 -9.000046e+000 9.836262e+001 2.462146e+001 -4.627508e+001 -4.053423e+001 -1.506231e+002 -1.764592e+000 6.654459e+001
2100000000 -8.990398e+000 9.914740e+001 2.470980e+001 -4.682878e+001 -4.441146e+001 -1.799054e+002 -1.721592e+000 6.529522e+001
2101250000 -9.125142e+000 9.832668e+001 2.472228e+001 -4.742550e+001 -4.046206e+001 -1.782118e+002 -1.744464e+000 6.572918e+001
2102500000 -9.009166e+000 9.837054e+001 2.472555e+001 -4.747012e+001 -4.588922e+001 -1.516927e+002 -1.904118e+000 6.592696e+001
2103750000 -9.144443e+000 9.825914e+001 2.474012e+001 -4.826390e+001 -4.319364e+001 1.643351e+002 -1.623757e+000 6.434346e+001
2105000000 -9.127829e+000 9.719329e+001 2.482550e+001 -4.858512e+001 -4.160666e+001 -1.632351e+002 -1.838599e+000 6.520531e+001
2106250000 -9.181849e+000 9.714851e+001 2.483738e+001 -4.887088e+001 -4.183407e+001 -1.748690e+002 -1.690110e+000 6.487237e+001
2107500000 -9.288130e+000 9.641939e+001 2.482039e+001 -4.931768e+001 -4.006516e+001 -1.717420e+002 -1.783153e+000 6.404344e+001
2108750000 -9.240905e+000 9.603397e+001 2.487893e+001 -5.007636e+001 -4.151764e+001 -1.667192e+002 -1.724913e+000 6.411545e+001
2110000000 -9.295566e+000 9.629341e+001 2.487395e+001 -5.002504e+001 -4.259480e+001 -1.724104e+002 -1.815742e+000 6.325773e+001
2111250000 -9.370762e+000 9.496754e+001 2.492086e+001 -5.074697e+001 -3.848591e+001 -1.660526e+002 -1.726897e+000 6.212181e+001
2112500000 -9.434819e+000 9.569951e+001 2.490926e+001 -5.137547e+001 -4.103089e+001 1.689990e+002 -1.762010e+000 6.171899e+001
2113750000 -9.426007e+000 9.510992e+001 2.491418e+001 -5.141902e+001 -4.164484e+001 -1.793130e+002 -1.714220e+000 6.114579e+001
2115000000 -9.521037e+000 9.527605e+001 2.498036e+001 -5.202097e+001 -4.017500e+001 1.656317e+002 -1.888304e+000 6.003376e+001
2116250000 -9.537779e+000 9.388804e+001 2.501189e+001 -5.256252e+001 -3.883022e+001 -1.724570e+002 -1.817749e+000 6.085845e+001
2117500000 -9.470754e+000 9.350585e+001 2.503604e+001 -5.298191e+001 -4.122020e+001 -1.708319e+002 -1.653105e+000 5.964447e+001
2118750000 -9.414617e+000 9.307654e+001 2.503752e+001 -5.371252e+001 -4.297808e+001 -1.596547e+002 -1.970175e+000 5.858892e+001
2120000000 -9.558114e+000 9.302364e+001 2.504037e+001 -5.394461e+001 -4.285016e+001 -1.697526e+002 -1.831431e+000 5.785729e+001
2121250000 -9.452939e+000 9.250502e+001 2.510653e+001 -5.440446e+001 -4.320512e+001 -1.461414e+002 -1.826975e+000 5.887272e+001
2122500000 -9.581236e+000 9.212106e+001 2.510752e+001 -5.505293e+001 -4.219638e+001 -1.734688e+002 -1.878458e+000 5.818229e+001
2123750000 -9.717403e+000 9.274916e+001 2.515928e+001 -5.577985e+001 -4.080376e+001 1.572076e+002 -1.691624e+000 5.696711e+001
2125000000 -9.820712e+000 9.152489e+001 2.518413e+001 -5.632844e+001 -3.891435e+001 -1.788027e+002 -1.760782e+000 5.771876e+001
2126250000 -9.829969e+000 9.179996e+001 2.516776e+001 -5.651082e+001 -3.957895e+001 1.725720e+002 -1.713853e+000 5.553152e+001
2127500000 -9.810423e+000 9.129089e+001 2.526547e+001 -5.721569e+001 -4.181929e+001 -1.740856e+002 -1.913616e+000 5.529459e+001
2128750000 -9.766665e+000 9.078348e+001 2.523926e+001 -5.745008e+001 -4.283574e+001 -1.666017e+002 -1.957890e+000 5.469026e+001
2130000000 -9.799798e+000 9.016889e+001 2.523088e+001 -5.816574e+001 -4.295187e+001 -1.665403e+002 -1.867402e+000 5.439753e+001
2131250000 -1.002915e+001 9.002908e+001 2.530927e+001 -5.866193e+001 -3.959557e+001 1.715541e+002 -1.860201e+000 5.444515e+001
2132500000 -1.004551e+001 9.061481e+001 2.530829e+001 -5.895120e+001 -4.109884e+001 1.593866e+002 -1.979936e+000 5.429937e+001
2133750000 -9.914220e+000 8.959173e+001 2.539501e+001 -5.954525e+001 -4.413754e+001 -1.738612e+002 -2.077387e+000 5.361125e+001
2135000000 -9.995172e+000 8.912132e+001 2.537253e+001 -5.965795e+001 -4.374404e+001 -1.693164e+002 -1.911050e+000 5.389702e+001
2136250000 -1.016524e+001 8.789765e+001 2.536505e+001 -6.064734e+001 -3.891647e+001 -1.710207e+002 -1.837812e+000 5.210825e+001
2137500000 -1.004739e+001 8.795284e+001 2.541259e+001 -6.115948e+001 -4.099962e+001 -1.644468e+002 -1.705096e+000 5.166461e+001
2138750000 -1.007331e+001 8.778331e+001 2.543842e+001 -6.168833e+001 -4.314474e+001 -1.607273e+002 -2.052598e+000 5.213935e+001
2140000000 -1.014035e+001 8.775868e+001 2.546766e+001 -6.248886e+001 -4.297741e+001 -1.743334e+002 -1.884084e+000 5.115404e+001
2141250000 -1.018657e+001 8.790166e+001 2.549400e+001 -6.278236e+001 -4.240667e+001 1.774095e+002 -1.820692e+000 5.106482e+001
2142500000 -1.036186e+001 8.732728e+001 2.547701e+001 -6.317552e+001 -4.063259e+001 1.707638e+002 -1.955776e+000 4.822697e+001
2143750000 -1.038452e+001 8.638829e+001 2.551156e+001 -6.372147e+001 -3.991331e+001 -1.742845e+002 -1.945287e+000 4.956378e+001
2145000000 -1.020652e+001 8.670702e+001 2.550086e+001 -6.462012e+001 -4.718767e+001 -1.770674e+002 -1.792502e+000 4.935393e+001
2146250000 -1.038710e+001 8.498608e+001 2.552753e+001 -6.500886e+001 -3.916537e+001 -1.602031e+002 -1.923649e+000 4.679044e+001
2147500000 -1.066304e+001 8.557528e+001 2.556693e+001 -6.542550e+001 -3.790445e+001 1.743081e+002 -1.922200e+000 4.821707e+001
2148750000 -1.050242e+001 8.452053e+001 2.559495e+001 -6.600063e+001 -3.926258e+001 -1.661038e+002 -2.164555e+000 4.643378e+001
2150000000 -1.064489e+001 8.526675e+001 2.558777e+001 -6.653812e+001 -3.856488e+001 1.658241e+002 -2.041501e+000 4.878458e+001
2151250000 -1.067809e+001 8.497392e+001 2.561508e+001 -6.691105e+001 -4.003348e+001 1.742386e+002 -2.037625e+000 4.476060e+001
2152500000 -1.062073e+001 8.413560e+001 2.560284e+001 -6.718363e+001 -4.164728e+001 -1.754090e+002 -1.995628e+000 4.399658e+001
2153750000 -1.058475e+001 8.427624e+001 2.567548e+001 -6.809495e+001 -4.401705e+001 1.761309e+002 -1.938127e+000 4.383785e+001
2155000000 -1.081076e+001 8.488293e+001 2.566965e+001 -6.843227e+001 -3.951646e+001 1.539516e+002 -2.205557e+000 4.491268e+001
2156250000 -1.083928e+001 8.291988e+001 2.569988e+001 -6.928080e+001 -4.031158e+001 -1.789213e+002 -2.091450e+000 4.522573e+001
2157500000 -1.088807e+001 8.322023e+001 2.570401e+001 -6.944414e+001 -4.034974e+001 1.770847e+002 -2.057685e+000 4.309629e+001
2158750000 -1.077481e+001 8.283476e+001 2.574970e+001 -7.013788e+001 -4.331790e+001 -1.728173e+002 -1.999093e+000 4.328591e+001
2160000000 -1.084996e+001 8.248080e+001 2.571571e+001 -7.064451e+001 -4.435565e+001 -1.773552e+002 -2.032443e+000 4.280580e+001
2161250000 -1.089928e+001 8.286954e+001 2.578431e+001 -7.096780e+001 -4.521789e+001 1.618004e+002 -2.188111e+000 4.311057e+001
2162500000 -1.110716e+001 8.169617e+001 2.576198e+001 -7.151963e+001 -3.937389e+001 1.780350e+002 -2.192368e+000 4.133208e+001
2163750000 -1.116735e+001 8.185432e+001 2.576562e+001 -7.153028e+001 -3.891562e+001 1.684931e+002 -1.991513e+000 3.782639e+001
2165000000 -1.131483e+001 8.193661e+001 2.580780e+001 -7.259752e+001 -3.836633e+001 1.632971e+002 -1.947039e+000 3.971550e+001
2166250000 -1.109046e+001 8.146866e+001 2.583323e+001 -7.337681e+001 -4.520908e+001 1.571083e+002 -2.123481e+000 3.871914e+001
2167500000 -1.086937e+001 8.238690e+001 2.584750e+001 -7.355347e+001 -5.029075e+001 9.188708e+001 -1.990536e+000 3.990448e+001
2168750000 -1.129533e+001 7.906540e+001 2.581321e+001 -7.426761e+001 -3.921417e+001 -1.678315e+002 -2.067060e+000 3.748765e+001
2170000000 -1.142965e+001 8.013010e+001 2.581863e+001 -7.515134e+001 -4.006464e+001 1.733174e+002 -2.059575e+000 3.776865e+001
2171250000 -1.147813e+001 7.987659e+001 2.588726e+001 -7.500054e+001 -4.031661e+001 1.723642e+002 -2.176419e+000 3.701106e+001
2172500000 -1.136987e+001 7.883374e+001 2.588320e+001 -7.591867e+001 -4.265556e+001 -1.756342e+002 -2.257584e+000 3.750079e+001
2173750000 -1.151479e+001 7.893683e+001 2.591576e+001 -7.614234e+001 -4.121977e+001 1.733279e+002 -2.265951e+000 3.697403e+001
2175000000 -1.151908e+001 7.924484e+001 2.593291e+001 -7.629929e+001 -4.132351e+001 1.670696e+002 -2.230354e+000 3.493575e+001
2176250000 -1.156529e+001 7.934669e+001 2.596773e+001 -7.739257e+001 -4.116071e+001 1.572565e+002 -2.256268e+000 3.614495e+001
2177500000 -1.178867e+001 7.904034e+001 2.598067e+001 -7.776582e+001 -3.921469e+001 1.570590e+002 -2.273664e+000 3.443460e+001
2178750000 -1.188231e+001 7.685242e+001 2.599210e+001 -7.780395e+001 -3.864236e+001 -1.791510e+002 -2.351488e+000 3.485666e+001
2180000000 -1.181707e+001 7.736206e+001 2.603308e+001 -7.845556e+001 -4.023687e+001 1.731343e+002 -2.264823e+000 3.367394e+001
2181250000 -1.191746e+001 7.717477e+001 2.597628e+001 -7.919372e+001 -3.988544e+001 1.682809e+002 -2.290582e+000 3.357059e+001
2182500000 -1.205535e+001 7.783354e+001 2.608129e+001 -7.939195e+001 -3.912565e+001 1.555835e+002 -2.270072e+000 3.277779e+001
2183750000 -1.200035e+001 7.572977e+001 2.610426e+001 -8.008703e+001 -3.948570e+001 -1.766311e+002 -2.301647e+000 3.242722e+001
2185000000 -1.194639e+001 7.666576e+001 2.602943e+001 -8.030376e+001 -4.311552e+001 1.622741e+002 -2.266025e+000 3.047864e+001
2186250000 -1.215906e+001 7.585440e+001 2.605332e+001 -8.081403e+001 -4.013260e+001 1.676352e+002 -2.263375e+000 3.061815e+001
2187500000 -1.212408e+001 7.561504e+001 2.616607e+001 -8.140977e+001 -4.167994e+001 1.648445e+002 -2.400651e+000 3.043974e+001
2188750000 -1.237872e+001 7.609763e+001 2.614940e+001 -8.178950e+001 -3.828455e+001 1.563852e+002 -2.293752e+000 2.932041e+001
2190000000 -1.242280e+001 7.458768e+001 2.617614e+001 -8.248145e+001 -3.904159e+001 1.743747e+002 -2.331814e+000 2.784223e+001
