!Agilent Technologies,E8364A,US41440144,A.06.04.32
!Agilent E8364A: A.06.04.32
!Date: Thursday, February 01, 2018 11:40:27
!Correction: S11(Full 2 Port(1,2)) S21(Full 2 Port(1,2)) S12(Full 2 Port(1,2)) S22(Full 2 Port(1,2)) 
!S2P File: Measurements: S11, S21, S12, S22:
# Hz S  dB   R 50
2000000000 -3.909460e+000 -1.259792e+001 2.688518e+001 -6.988087e+001 -4.030569e+001 -1.783032e+002 -1.633712e+000 9.016772e+001
2005000000 -3.997617e+000 -1.382435e+001 2.694767e+001 -7.175241e+001 -4.298788e+001 1.717851e+002 -1.659476e+000 8.813971e+001
2010000000 -3.998966e+000 -1.511626e+001 2.697987e+001 -7.369379e+001 -4.249175e+001 -1.776982e+002 -1.572695e+000 8.645080e+001
2015000000 -4.065192e+000 -1.707102e+001 2.705272e+001 -7.537102e+001 -3.959489e+001 1.555661e+002 -1.602148e+000 8.466474e+001
2020000000 -4.129618e+000 -1.815045e+001 2.714774e+001 -7.719769e+001 -4.381522e+001 1.487336e+002 -1.526421e+000 8.286981e+001
2025000000 -4.088560e+000 -1.943731e+001 2.719378e+001 -7.876958e+001 -4.188846e+001 1.624879e+002 -1.586213e+000 8.078432e+001
2030000000 -4.068333e+000 -2.103283e+001 2.728985e+001 -8.099229e+001 -3.981277e+001 1.796672e+002 -1.604431e+000 7.911166e+001
2035000000 -4.177837e+000 -2.268680e+001 2.731790e+001 -8.265304e+001 -3.966448e+001 1.527184e+002 -1.665255e+000 7.622491e+001
2040000000 -4.186216e+000 -2.381969e+001 2.744885e+001 -8.455780e+001 -4.000446e+001 1.606121e+002 -1.681597e+000 7.500600e+001
2045000000 -4.158320e+000 -2.539542e+001 2.751277e+001 -8.678532e+001 -3.925444e+001 1.687587e+002 -1.614082e+000 7.267439e+001
2050000000 -4.268388e+000 -2.687956e+001 2.751444e+001 -8.898746e+001 -4.108002e+001 1.613503e+002 -1.575557e+000 7.084149e+001
2055000000 -4.310067e+000 -2.847894e+001 2.762669e+001 -9.075107e+001 -4.012238e+001 1.561471e+002 -1.701426e+000 6.785932e+001
2060000000 -4.355069e+000 -2.988795e+001 2.771204e+001 -9.293271e+001 -4.234587e+001 1.519950e+002 -1.667358e+000 6.608646e+001
2065000000 -4.395923e+000 -3.150990e+001 2.772259e+001 -9.502602e+001 -4.093373e+001 1.556350e+002 -1.647505e+000 6.370028e+001
2070000000 -4.462242e+000 -3.299211e+001 2.778395e+001 -9.709566e+001 -4.205775e+001 1.493923e+002 -1.766715e+000 6.229837e+001
2075000000 -4.431100e+000 -3.531761e+001 2.781643e+001 -9.911494e+001 -3.754711e+001 1.543105e+002 -1.847905e+000 5.940223e+001
2080000000 -4.569030e+000 -3.669133e+001 2.785825e+001 -1.012041e+002 -3.886957e+001 1.337144e+002 -1.856359e+000 5.732917e+001
2085000000 -4.630661e+000 -3.854621e+001 2.793651e+001 -1.034446e+002 -3.933282e+001 1.402743e+002 -1.919986e+000 5.609094e+001
2090000000 -4.720600e+000 -3.941793e+001 2.793706e+001 -1.054808e+002 -4.039642e+001 1.365891e+002 -1.989012e+000 5.244468e+001
2095000000 -4.720789e+000 -4.161524e+001 2.799646e+001 -1.073757e+002 -3.847757e+001 1.402899e+002 -1.754405e+000 4.903404e+001
2100000000 -4.793921e+000 -4.304790e+001 2.809382e+001 -1.093026e+002 -3.900002e+001 1.388329e+002 -2.193640e+000 4.618738e+001
2105000000 -4.923532e+000 -4.473407e+001 2.818481e+001 -1.112794e+002 -3.978610e+001 1.243032e+002 -2.196820e+000 4.627294e+001
2110000000 -4.951446e+000 -4.732470e+001 2.811478e+001 -1.134485e+002 -3.638914e+001 1.395927e+002 -2.177733e+000 4.205443e+001
2115000000 -5.032720e+000 -4.842321e+001 2.823362e+001 -1.155510e+002 -3.909918e+001 1.254227e+002 -2.206351e+000 3.969777e+001
2120000000 -5.100688e+000 -4.996731e+001 2.824732e+001 -1.179052e+002 -3.997379e+001 1.347121e+002 -2.319433e+000 3.817782e+001
2125000000 -5.250039e+000 -5.267724e+001 2.834154e+001 -1.201055e+002 -3.644779e+001 1.276246e+002 -2.444411e+000 3.435173e+001
2130000000 -5.223895e+000 -5.429066e+001 2.834842e+001 -1.228085e+002 -3.745942e+001 1.458601e+002 -2.326741e+000 3.122313e+001
2135000000 -5.403084e+000 -5.580667e+001 2.835452e+001 -1.249284e+002 -3.825201e+001 1.299614e+002 -2.500098e+000 2.947415e+001
2140000000 -5.490567e+000 -5.741033e+001 2.840135e+001 -1.273386e+002 -3.838075e+001 1.274823e+002 -2.536793e+000 2.642514e+001
2145000000 -5.665910e+000 -5.891260e+001 2.837766e+001 -1.297342e+002 -3.965633e+001 1.133730e+002 -1.929325e+000 2.356686e+001
2150000000 -5.789824e+000 -6.061368e+001 2.830450e+001 -1.325767e+002 -3.933664e+001 1.089957e+002 -1.156130e+000 1.791145e+001
2155000000 -5.944492e+000 -6.329360e+001 2.839283e+001 -1.342958e+002 -3.727683e+001 1.201112e+002 -3.190233e+000 1.465679e+001
2160000000 -6.095292e+000 -6.400505e+001 2.832338e+001 -1.368552e+002 -4.006565e+001 1.007112e+002 -2.789929e+000 1.478643e+001
2165000000 -6.338298e+000 -6.759737e+001 2.835690e+001 -1.386525e+002 -3.566227e+001 1.150936e+002 -4.182841e+000 3.271987e+000
2170000000 -6.350295e+000 -6.906551e+001 2.830603e+001 -1.416515e+002 -3.764754e+001 1.234648e+002 -2.735464e+000 8.217734e+000
2175000000 -6.738089e+000 -6.983534e+001 2.831315e+001 -1.438159e+002 -3.710382e+001 9.352098e+001 -3.887830e+000 2.614023e+000
2180000000 -6.883327e+000 -7.183108e+001 2.825437e+001 -1.462045e+002 -3.718031e+001 9.940566e+001 -4.118135e+000 -4.485822e-001
2185000000 -7.011265e+000 -7.392893e+001 2.816261e+001 -1.483455e+002 -3.696061e+001 1.104952e+002 -4.378238e+000 -4.188902e+000
2190000000 -7.267910e+000 -7.490304e+001 2.810551e+001 -1.509664e+002 -3.771310e+001 1.015955e+002 -4.917748e+000 -8.386689e+000
2195000000 -7.517689e+000 -7.600519e+001 2.805972e+001 -1.525871e+002 -3.755249e+001 9.625990e+001 -5.346365e+000 -1.243472e+001
2200000000 -7.680395e+000 -7.665475e+001 2.792881e+001 -1.550853e+002 -3.867900e+001 8.805890e+001 -5.769417e+000 -1.466799e+001
2205000000 -7.762594e+000 -7.721355e+001 2.782160e+001 -1.568149e+002 -4.072641e+001 9.521019e+001 -6.224427e+000 -1.869791e+001
2210000000 -8.100183e+000 -7.837487e+001 2.776434e+001 -1.582431e+002 -3.732437e+001 9.104124e+001 -7.260786e+000 -2.143936e+001
2215000000 -8.176933e+000 -7.950887e+001 2.763332e+001 -1.596918e+002 -3.861107e+001 9.562451e+001 -7.654552e+000 -2.179416e+001
2220000000 -8.216019e+000 -8.106113e+001 2.754461e+001 -1.607118e+002 -3.836797e+001 1.045370e+002 -7.845182e+000 -2.502646e+001
2225000000 -8.277927e+000 -8.132025e+001 2.757311e+001 -1.622952e+002 -3.962954e+001 8.937626e+001 -8.141349e+000 -2.514771e+001
2230000000 -8.220506e+000 -8.223203e+001 2.763688e+001 -1.637641e+002 -4.211715e+001 8.541698e+001 -8.454396e+000 -2.698040e+001
2235000000 -8.394090e+000 -8.451996e+001 2.763619e+001 -1.656218e+002 -3.933303e+001 9.728021e+001 -8.864017e+000 -2.801814e+001
2240000000 -8.720802e+000 -8.597805e+001 2.765426e+001 -1.675603e+002 -3.656346e+001 8.944038e+001 -9.072615e+000 -3.033300e+001
2245000000 -8.824114e+000 -8.748878e+001 2.763443e+001 -1.693791e+002 -3.744619e+001 9.032201e+001 -9.664029e+000 -3.336317e+001
2250000000 -8.899135e+000 -8.858084e+001 2.758436e+001 -1.712192e+002 -3.801040e+001 8.305470e+001 -9.724001e+000 -3.870091e+001
2255000000 -9.005810e+000 -8.951432e+001 2.762725e+001 -1.728629e+002 -3.839659e+001 8.252406e+001 -1.026474e+001 -3.939428e+001
2260000000 -9.001769e+000 -9.017097e+001 2.770230e+001 -1.744864e+002 -3.973233e+001 6.586292e+001 -1.050381e+001 -3.987954e+001
2265000000 -9.126615e+000 -9.174000e+001 2.769255e+001 -1.760331e+002 -3.917084e+001 7.306380e+001 -1.089843e+001 -4.293641e+001
2270000000 -9.056930e+000 -9.292916e+001 2.775612e+001 -1.781478e+002 -4.096161e+001 5.991176e+001 -1.111887e+001 -4.586872e+001
2275000000 -9.207242e+000 -9.561465e+001 2.777971e+001 1.799486e+002 -4.092358e+001 8.236500e+001 -1.101598e+001 -4.962075e+001
2280000000 -9.346650e+000 -9.720200e+001 2.784523e+001 1.780056e+002 -3.978829e+001 7.536854e+001 -1.170589e+001 -5.324083e+001
2285000000 -9.532392e+000 -9.887628e+001 2.782108e+001 1.754643e+002 -3.924418e+001 6.958614e+001 -1.203590e+001 -5.557922e+001
2290000000 -9.731319e+000 -1.001073e+002 2.790613e+001 1.730116e+002 -3.722951e+001 6.338605e+001 -1.222944e+001 -6.104275e+001
2295000000 -9.818364e+000 -1.031094e+002 2.786367e+001 1.702889e+002 -3.888776e+001 7.388593e+001 -1.211228e+001 -6.541749e+001
2300000000 -9.966805e+000 -1.046697e+002 2.780059e+001 1.681316e+002 -4.024220e+001 6.985452e+001 -1.223196e+001 -6.963443e+001
2305000000 -1.003374e+001 -1.051295e+002 2.781660e+001 1.658582e+002 -4.046356e+001 5.126268e+001 -1.247546e+001 -7.608636e+001
2310000000 -1.027626e+001 -1.073279e+002 2.769428e+001 1.638863e+002 -3.993843e+001 6.242224e+001 -1.258339e+001 -7.995888e+001
2315000000 -1.058670e+001 -1.095450e+002 2.763942e+001 1.613065e+002 -3.920626e+001 7.466780e+001 -1.277502e+001 -8.828176e+001
2320000000 -1.062193e+001 -1.101720e+002 2.759369e+001 1.595015e+002 -4.024727e+001 6.451495e+001 -1.319003e+001 -9.376897e+001
2325000000 -1.097351e+001 -1.120917e+002 2.761535e+001 1.576598e+002 -3.765804e+001 7.240142e+001 -1.395245e+001 -1.010033e+002
2330000000 -1.100175e+001 -1.128787e+002 2.755850e+001 1.557637e+002 -3.811499e+001 6.099735e+001 -1.377378e+001 -1.029378e+002
2335000000 -1.107813e+001 -1.147127e+002 2.758104e+001 1.535843e+002 -3.855070e+001 5.797368e+001 -1.400155e+001 -1.050237e+002
2340000000 -1.118738e+001 -1.161873e+002 2.758003e+001 1.507351e+002 -3.928344e+001 5.635339e+001 -1.340911e+001 -1.112472e+002
2345000000 -1.153558e+001 -1.197360e+002 2.752488e+001 1.480299e+002 -3.862579e+001 7.696838e+001 -1.371153e+001 -1.198050e+002
2350000000 -1.146121e+001 -1.208467e+002 2.744270e+001 1.457685e+002 -4.152588e+001 5.056554e+001 -1.391173e+001 -1.238661e+002
2355000000 -1.187355e+001 -1.227395e+002 2.740483e+001 1.434602e+002 -3.952760e+001 5.917072e+001 -1.306276e+001 -1.297160e+002
2360000000 -1.193337e+001 -1.241417e+002 2.729706e+001 1.406933e+002 -4.122453e+001 4.293930e+001 -1.309386e+001 -1.309900e+002
2365000000 -1.231163e+001 -1.257397e+002 2.717829e+001 1.382086e+002 -3.941839e+001 5.647131e+001 -1.223076e+001 -1.374253e+002
2370000000 -1.265930e+001 -1.269372e+002 2.703660e+001 1.357208e+002 -3.856339e+001 5.323207e+001 -1.253857e+001 -1.445434e+002
2375000000 -1.284771e+001 -1.281948e+002 2.694633e+001 1.332622e+002 -3.897865e+001 4.193660e+001 -1.179368e+001 -1.490960e+002
2380000000 -1.343003e+001 -1.299869e+002 2.678033e+001 1.309783e+002 -3.730405e+001 6.164650e+001 -1.159667e+001 -1.565572e+002
2385000000 -1.345879e+001 -1.310677e+002 2.667281e+001 1.290554e+002 -4.005133e+001 4.855220e+001 -1.131238e+001 -1.609140e+002
2390000000 -1.382098e+001 -1.313074e+002 2.646619e+001 1.265464e+002 -3.775660e+001 3.914584e+001 -1.082423e+001 -1.628548e+002
2395000000 -1.383638e+001 -1.334945e+002 2.629424e+001 1.240285e+002 -4.089626e+001 2.201323e+001 -1.034914e+001 -1.667657e+002
2400000000 -1.447273e+001 -1.343575e+002 2.607218e+001 1.217978e+002 -3.947160e+001 4.152469e+001 -1.036353e+001 -1.722509e+002
2405000000 -1.482468e+001 -1.352014e+002 2.585749e+001 1.196337e+002 -4.006299e+001 4.644947e+001 -9.762047e+000 -1.760450e+002
2410000000 -1.491487e+001 -1.359145e+002 2.571311e+001 1.177133e+002 -4.165622e+001 2.373207e+001 -9.854568e+000 1.796186e+002
2415000000 -1.540756e+001 -1.343025e+002 2.547995e+001 1.157274e+002 -3.796234e+001 3.165964e+001 -9.140059e+000 1.775255e+002
2420000000 -1.573035e+001 -1.334648e+002 2.524247e+001 1.135971e+002 -3.679892e+001 3.310423e+001 -8.752723e+000 1.714207e+002
2425000000 -1.592581e+001 -1.352442e+002 2.492878e+001 1.120626e+002 -3.997508e+001 2.188456e+001 -8.480013e+000 1.682210e+002
2430000000 -1.655987e+001 -1.343491e+002 2.465082e+001 1.102402e+002 -3.949979e+001 3.700126e+001 -7.755732e+000 1.655441e+002
2435000000 -1.703055e+001 -1.325822e+002 2.437939e+001 1.086069e+002 -3.814365e+001 3.876682e+001 -7.673543e+000 1.617012e+002
2440000000 -1.698496e+001 -1.319903e+002 2.411754e+001 1.073312e+002 -3.900443e+001 2.832229e+001 -7.167191e+000 1.589520e+002
2445000000 -1.699887e+001 -1.301499e+002 2.378541e+001 1.059273e+002 -3.849374e+001 1.137486e+001 -7.006071e+000 1.548674e+002
2450000000 -1.756179e+001 -1.274075e+002 2.343577e+001 1.058192e+002 -3.776396e+001 3.511364e+001 -7.002810e+000 1.511939e+002
2455000000 -1.773255e+001 -1.268536e+002 2.307190e+001 1.048940e+002 -3.961129e+001 2.630126e+001 -6.625136e+000 1.501806e+002
2460000000 -1.760684e+001 -1.239739e+002 2.281233e+001 1.048493e+002 -3.996773e+001 1.384263e+001 -6.505373e+000 1.471190e+002
2465000000 -1.744596e+001 -1.217931e+002 2.255457e+001 1.050480e+002 -3.899181e+001 1.670801e+000 -6.025720e+000 1.437008e+002
2470000000 -1.749576e+001 -1.183239e+002 2.221808e+001 1.057275e+002 -3.868498e+001 1.739035e+001 -5.714026e+000 1.404187e+002
2475000000 -1.736057e+001 -1.170359e+002 2.192316e+001 1.062322e+002 -4.086257e+001 8.101098e+000 -5.455678e+000 1.384136e+002
2480000000 -1.692855e+001 -1.130720e+002 2.175193e+001 1.075631e+002 -3.741478e+001 3.404682e+000 -5.385245e+000 1.351046e+002
2485000000 -1.665836e+001 -1.116954e+002 2.159994e+001 1.083607e+002 -3.898435e+001 1.253242e+001 -4.989057e+000 1.309856e+002
2490000000 -1.647412e+001 -1.099494e+002 2.148564e+001 1.100017e+002 -3.947480e+001 2.388968e+001 -4.680346e+000 1.292739e+002
2495000000 -1.587086e+001 -1.093358e+002 2.149055e+001 1.115515e+002 -3.926851e+001 7.844641e+000 -4.422108e+000 1.257108e+002
2500000000 -1.536673e+001 -1.097765e+002 2.150035e+001 1.129966e+002 -4.035458e+001 -1.985333e+000 -4.371689e+000 1.239815e+002
2505000000 -1.495766e+001 -1.080474e+002 2.159510e+001 1.152756e+002 -3.924656e+001 1.503992e+001 -4.173074e+000 1.205568e+002
2510000000 -1.437984e+001 -1.089191e+002 2.189007e+001 1.167785e+002 -4.033489e+001 -2.032584e+000 -3.827090e+000 1.178537e+002
2515000000 -1.376487e+001 -1.088812e+002 2.211292e+001 1.182698e+002 -3.892411e+001 5.415307e-001 -3.645521e+000 1.146886e+002
2520000000 -1.334199e+001 -1.105518e+002 2.254161e+001 1.187946e+002 -4.114911e+001 -5.282366e+000 -3.499081e+000 1.117044e+002
2525000000 -1.290373e+001 -1.124600e+002 2.288585e+001 1.190830e+002 -4.152119e+001 -1.825601e+000 -3.408727e+000 1.091821e+002
2530000000 -1.245022e+001 -1.137349e+002 2.334253e+001 1.192203e+002 -4.126006e+001 1.032575e+001 -3.375576e+000 1.062834e+002
2535000000 -1.189629e+001 -1.164899e+002 2.378801e+001 1.187210e+002 -4.155596e+001 -1.319767e+001 -3.191340e+000 1.020836e+002
2540000000 -1.147647e+001 -1.181782e+002 2.420611e+001 1.175475e+002 -3.968588e+001 -2.488451e+000 -3.221875e+000 1.004658e+002
2545000000 -1.118221e+001 -1.212606e+002 2.464061e+001 1.158847e+002 -4.047178e+001 -7.625484e+000 -3.112600e+000 9.755353e+001
2550000000 -1.088658e+001 -1.242253e+002 2.501327e+001 1.139804e+002 -4.154728e+001 -1.312926e+001 -3.115360e+000 9.446030e+001
2555000000 -1.047123e+001 -1.272539e+002 2.536110e+001 1.120334e+002 -3.954266e+001 -2.692200e+001 -3.068549e+000 9.121760e+001
2560000000 -1.037301e+001 -1.298977e+002 2.562090e+001 1.093027e+002 -4.082371e+001 -1.644692e+001 -3.075848e+000 8.980370e+001
2565000000 -1.019536e+001 -1.338723e+002 2.592374e+001 1.068463e+002 -4.418129e+001 -2.573642e+001 -3.097547e+000 8.771796e+001
2570000000 -9.993234e+000 -1.366810e+002 2.619790e+001 1.045069e+002 -4.303833e+001 -3.816361e+001 -3.002099e+000 8.518394e+001
2575000000 -9.784061e+000 -1.383992e+002 2.640736e+001 1.014227e+002 -4.074920e+001 -7.230335e+000 -3.065399e+000 8.191976e+001
2580000000 -9.443377e+000 -1.419294e+002 2.661885e+001 9.917663e+001 -3.874148e+001 -3.187686e+001 -3.217856e+000 8.020221e+001
2585000000 -9.544535e+000 -1.463789e+002 2.682757e+001 9.621487e+001 -4.520578e+001 -6.515673e+001 -3.175075e+000 7.873552e+001
2590000000 -9.435263e+000 -1.481669e+002 2.688844e+001 9.344779e+001 -4.468147e+001 -3.333913e+001 -3.215315e+000 7.709482e+001
2595000000 -9.155031e+000 -1.514989e+002 2.706651e+001 9.077111e+001 -4.007752e+001 -4.812501e+001 -3.333737e+000 7.450447e+001
2600000000 -9.079885e+000 -1.534356e+002 2.719810e+001 8.793060e+001 -4.066409e+001 -3.000649e+001 -3.386461e+000 7.161685e+001
2605000000 -9.073461e+000 -1.572932e+002 2.727599e+001 8.503462e+001 -4.182588e+001 -5.157680e+001 -3.451503e+000 7.084477e+001
2610000000 -9.227901e+000 -1.589699e+002 2.732724e+001 8.216161e+001 -4.693410e+001 -1.171029e+001 -3.357096e+000 6.867576e+001
2615000000 -9.032310e+000 -1.609020e+002 2.740503e+001 7.928412e+001 -4.101272e+001 -1.390850e+001 -3.607490e+000 6.736173e+001
2620000000 -9.093954e+000 -1.647211e+002 2.742011e+001 7.657990e+001 -4.382307e+001 -3.549112e+001 -3.651224e+000 6.495715e+001
2625000000 -9.035608e+000 -1.669467e+002 2.746299e+001 7.368318e+001 -4.344969e+001 -2.978278e+001 -3.752400e+000 6.390038e+001
2630000000 -8.938708e+000 -1.705026e+002 2.750174e+001 7.126302e+001 -4.085512e+001 -5.923272e+001 -3.936417e+000 6.414294e+001
2635000000 -9.176174e+000 -1.721417e+002 2.747365e+001 6.823723e+001 -4.689319e+001 -3.770760e+001 -3.992440e+000 6.121793e+001
2640000000 -9.173486e+000 -1.736698e+002 2.746981e+001 6.535722e+001 -4.365909e+001 -1.858679e+001 -3.955398e+000 6.036788e+001
2645000000 -9.267388e+000 -1.768862e+002 2.745549e+001 6.226605e+001 -4.645657e+001 -4.228677e+001 -4.001384e+000 6.000534e+001
2650000000 -9.174847e+000 -1.785555e+002 2.741017e+001 5.999407e+001 -4.416949e+001 -2.174556e+001 -4.133433e+000 5.751069e+001
2655000000 -9.374333e+000 1.789617e+002 2.735307e+001 5.702330e+001 -5.360221e+001 -3.753669e+001 -4.115603e+000 5.798410e+001
2660000000 -9.320095e+000 1.770262e+002 2.732891e+001 5.465752e+001 -4.861399e+001 -3.175768e+001 -4.270799e+000 5.673495e+001
2665000000 -9.277864e+000 1.755704e+002 2.723507e+001 5.232091e+001 -4.435204e+001 -3.009214e+001 -4.201735e+000 5.662304e+001
2670000000 -9.461051e+000 1.732752e+002 2.713176e+001 4.967042e+001 -4.942371e+001 -4.249622e+001 -4.382717e+000 5.487662e+001
2675000000 -9.493176e+000 1.717662e+002 2.707682e+001 4.734223e+001 -4.834461e+001 -3.781133e+001 -4.151604e+000 5.409372e+001
2680000000 -9.443397e+000 1.699001e+002 2.701541e+001 4.508951e+001 -4.662647e+001 -4.454476e+001 -4.492339e+000 5.403393e+001
2685000000 -9.481775e+000 1.692186e+002 2.690486e+001 4.314468e+001 -4.517012e+001 -2.338021e+001 -4.488149e+000 5.220354e+001
2690000000 -9.590837e+000 1.664298e+002 2.683930e+001 4.076362e+001 -4.961682e+001 -4.692836e+001 -4.537107e+000 5.244845e+001
2695000000 -9.636244e+000 1.650801e+002 2.674833e+001 3.849245e+001 -5.037770e+001 -5.415212e+001 -4.457462e+000 5.290869e+001
2700000000 -9.610303e+000 1.644240e+002 2.666868e+001 3.624078e+001 -4.670356e+001 -1.894076e+001 -4.577891e+000 4.967621e+001
2705000000 -9.624149e+000 1.627098e+002 2.660622e+001 3.418687e+001 -4.749853e+001 -1.582714e+001 -4.687271e+000 4.945927e+001
2710000000 -9.824566e+000 1.607299e+002 2.657192e+001 3.234946e+001 -5.233297e+001 -1.136585e+002 -4.442846e+000 5.093686e+001
2715000000 -9.545842e+000 1.595619e+002 2.644619e+001 2.980025e+001 -4.287017e+001 -2.929948e+001 -4.554966e+000 4.712818e+001
2720000000 -9.540668e+000 1.584325e+002 2.636034e+001 2.753757e+001 -4.282152e+001 -2.633122e+001 -4.594277e+000 4.771583e+001
2725000000 -9.696473e+000 1.585171e+002 2.632788e+001 2.560014e+001 -4.597189e+001 1.443001e+001 -4.542442e+000 4.678052e+001
2730000000 -9.665646e+000 1.562984e+002 2.621157e+001 2.345631e+001 -4.712686e+001 -2.189260e+001 -4.549207e+000 4.654864e+001
2735000000 -9.691850e+000 1.537662e+002 2.608828e+001 2.177201e+001 -4.489941e+001 -5.847292e+001 -4.706929e+000 4.492099e+001
2740000000 -9.719240e+000 1.520903e+002 2.602560e+001 1.950942e+001 -4.460392e+001 -7.916017e+001 -4.512495e+000 4.491931e+001
2745000000 -9.586066e+000 1.524819e+002 2.590643e+001 1.768258e+001 -4.424305e+001 -2.318339e+001 -4.709975e+000 4.387878e+001
2750000000 -9.764096e+000 1.502686e+002 2.583951e+001 1.584244e+001 -4.844807e+001 -7.604102e+001 -4.394007e+000 4.310937e+001
2755000000 -9.640402e+000 1.498547e+002 2.574408e+001 1.402794e+001 -4.490838e+001 -3.873782e+001 -4.724621e+000 4.244823e+001
