!Agilent Technologies,E8364A,US41440144,A.06.04.32
!Agilent E8364A: A.06.04.32
!Date: Thursday, November 08, 2018 15:57:16
!Correction: S11(Full 2 Port(1,2)) S21(Full 2 Port(1,2)) S12(Full 2 Port(1,2)) S22(Full 2 Port(1,2)) 
!S2P File: Measurements: S11, S21, S12, S22:
# Hz S  dB   R 50
45000000 -5.578004e-002 -1.953643e+001 -5.369286e+001 -1.670406e+002 -1.826787e+001 -2.431328e+001 -5.531085e-002 -1.651704e+001
45372187.5 -5.086659e-002 -1.973902e+001 -5.171112e+001 -1.685517e+002 -1.811275e+001 -2.454354e+001 -3.010673e-002 -1.673338e+001
45744375 -5.047238e-002 -1.990654e+001 -5.361840e+001 1.681523e+002 -1.800019e+001 -2.443247e+001 -1.944855e-002 -1.678283e+001
46116562.5 -4.345753e-002 -2.005555e+001 -5.326035e+001 -1.796281e+002 -1.781881e+001 -2.485386e+001 -3.957162e-002 -1.702734e+001
46488750 -3.429192e-002 -2.018841e+001 -5.293743e+001 -1.712950e+002 -1.770122e+001 -2.483335e+001 -3.419825e-002 -1.706039e+001
46860937.5 -4.131473e-002 -2.033913e+001 -5.222807e+001 1.748912e+002 -1.753681e+001 -2.491721e+001 -2.808001e-002 -1.717187e+001
47233125 -3.775422e-002 -2.053843e+001 -5.356939e+001 -1.735163e+002 -1.744159e+001 -2.519957e+001 -3.713121e-002 -1.740999e+001
47605312.5 -5.255580e-002 -2.062493e+001 -5.046295e+001 -1.721752e+002 -1.723185e+001 -2.527228e+001 -3.607533e-002 -1.760119e+001
47977500 -5.163276e-002 -2.083114e+001 -5.098721e+001 1.778707e+002 -1.709148e+001 -2.565495e+001 -3.715029e-002 -1.776160e+001
48349687.5 -6.179599e-002 -2.103648e+001 -5.189392e+001 -1.682000e+002 -1.702652e+001 -2.560446e+001 -2.892167e-002 -1.777733e+001
48721875 -4.127069e-002 -2.124403e+001 -5.261071e+001 -1.714300e+002 -1.690460e+001 -2.570914e+001 -2.638232e-002 -1.797650e+001
49094062.5 -4.775675e-002 -2.141394e+001 -5.282706e+001 -1.778790e+002 -1.675916e+001 -2.583241e+001 -3.739179e-002 -1.810958e+001
49466250 -4.394590e-002 -2.157917e+001 -5.011446e+001 -1.684976e+002 -1.663467e+001 -2.606772e+001 -2.443469e-002 -1.822931e+001
49838437.5 -5.090401e-002 -2.166810e+001 -5.064211e+001 -1.782995e+002 -1.665815e+001 -2.554160e+001 -1.791798e-002 -1.835386e+001
50210625 -4.937277e-002 -2.188771e+001 -5.042391e+001 -1.721693e+002 -1.638801e+001 -2.588994e+001 -3.241580e-002 -1.840729e+001
50582812.5 -5.873869e-002 -2.204735e+001 -4.987991e+001 -1.703261e+002 -1.625708e+001 -2.648416e+001 -3.780815e-002 -1.852657e+001
50955000 -5.169399e-002 -2.217306e+001 -5.177317e+001 1.650173e+002 -1.611410e+001 -2.660924e+001 -5.111336e-002 -1.879537e+001
51327187.5 -5.056065e-002 -2.237256e+001 -5.156431e+001 -1.707446e+002 -1.596474e+001 -2.675023e+001 -2.270034e-002 -1.898767e+001
51699375 -4.613585e-002 -2.243270e+001 -5.088340e+001 1.778321e+002 -1.590766e+001 -2.706675e+001 -5.016975e-002 -1.917678e+001
52071562.5 -3.928939e-002 -2.269925e+001 -5.074982e+001 -1.686068e+002 -1.579275e+001 -2.704637e+001 -5.155742e-002 -1.917027e+001
52443750 -5.942156e-002 -2.288639e+001 -5.007294e+001 -1.778914e+002 -1.566231e+001 -2.735036e+001 -4.559343e-002 -1.934691e+001
52815937.5 -5.733859e-002 -2.306049e+001 -4.960194e+001 1.778961e+002 -1.551645e+001 -2.757713e+001 -4.142754e-002 -1.948993e+001
53188125 -5.764108e-002 -2.320535e+001 -4.922526e+001 -1.798603e+002 -1.540445e+001 -2.753620e+001 -4.748150e-002 -1.960537e+001
53560312.5 -6.324316e-002 -2.344526e+001 -4.941375e+001 -1.712893e+002 -1.528821e+001 -2.778188e+001 -4.820673e-002 -1.972684e+001
53932500 -4.526629e-002 -2.357871e+001 -5.073433e+001 -1.680289e+002 -1.516012e+001 -2.780967e+001 -7.003587e-002 -1.991731e+001
54304687.5 -4.748695e-002 -2.370061e+001 -4.930620e+001 -1.785645e+002 -1.505723e+001 -2.830462e+001 -6.495275e-002 -2.005032e+001
54676875 -5.749997e-002 -2.382377e+001 -4.868830e+001 1.770910e+002 -1.492472e+001 -2.823348e+001 -5.677459e-002 -2.015931e+001
55049062.5 -7.433104e-002 -2.406787e+001 -4.913019e+001 1.744767e+002 -1.481790e+001 -2.829652e+001 -4.731030e-002 -2.035548e+001
55421250 -5.683740e-002 -2.422200e+001 -4.949639e+001 1.775999e+002 -1.469338e+001 -2.862941e+001 -4.991129e-002 -2.041727e+001
55793437.5 -6.445573e-002 -2.433452e+001 -4.881499e+001 1.701027e+002 -1.457495e+001 -2.856816e+001 -5.907550e-002 -2.065038e+001
56165625 -6.018848e-002 -2.456405e+001 -4.931656e+001 1.779726e+002 -1.444088e+001 -2.900599e+001 -5.533221e-002 -2.082371e+001
56537812.5 -6.586705e-002 -2.470464e+001 -4.915311e+001 -1.792905e+002 -1.433952e+001 -2.860857e+001 -5.787130e-002 -2.081442e+001
56910000 -6.467769e-002 -2.492428e+001 -5.072540e+001 1.729979e+002 -1.425554e+001 -2.893218e+001 -5.546772e-002 -2.096648e+001
57282187.5 -6.473163e-002 -2.502958e+001 -4.995361e+001 1.799904e+002 -1.415160e+001 -2.925009e+001 -6.679954e-002 -2.118538e+001
57654375 -5.656990e-002 -2.521650e+001 -4.942176e+001 -1.793711e+002 -1.404517e+001 -2.936547e+001 -5.823534e-002 -2.133181e+001
58026562.5 -7.276310e-002 -2.540313e+001 -4.755618e+001 1.742740e+002 -1.388211e+001 -2.967321e+001 -5.612956e-002 -2.145188e+001
58398750 -6.268711e-002 -2.555055e+001 -4.713318e+001 1.776115e+002 -1.377338e+001 -2.978038e+001 -5.344996e-002 -2.154724e+001
58770937.5 -7.445082e-002 -2.570893e+001 -4.818575e+001 1.780370e+002 -1.370754e+001 -3.001178e+001 -6.032830e-002 -2.163596e+001
59143125 -7.831512e-002 -2.585411e+001 -4.875732e+001 1.760095e+002 -1.358107e+001 -2.998005e+001 -6.352252e-002 -2.194117e+001
59515312.5 -7.670573e-002 -2.602304e+001 -4.692049e+001 1.737605e+002 -1.351516e+001 -3.004294e+001 -6.861357e-002 -2.195931e+001
59887500 -8.721129e-002 -2.618649e+001 -4.895982e+001 1.695125e+002 -1.337833e+001 -3.025677e+001 -6.114265e-002 -2.205075e+001
60259687.5 -8.106890e-002 -2.629978e+001 -4.675998e+001 1.685342e+002 -1.327816e+001 -3.060637e+001 -7.021335e-002 -2.228000e+001
60631875 -8.005332e-002 -2.650909e+001 -4.802948e+001 1.789531e+002 -1.313498e+001 -3.074699e+001 -6.594255e-002 -2.250327e+001
61004062.5 -7.571863e-002 -2.666444e+001 -4.744643e+001 1.768639e+002 -1.303508e+001 -3.091259e+001 -6.536937e-002 -2.255380e+001
61376250 -6.961577e-002 -2.690383e+001 -4.837914e+001 1.748518e+002 -1.296851e+001 -3.105867e+001 -5.633852e-002 -2.268251e+001
61748437.5 -9.168950e-002 -2.703958e+001 -4.763842e+001 1.740830e+002 -1.286852e+001 -3.132809e+001 -7.688285e-002 -2.290074e+001
62120625 -7.029150e-002 -2.727023e+001 -4.639965e+001 1.666591e+002 -1.277987e+001 -3.130046e+001 -7.127379e-002 -2.299340e+001
62492812.5 -9.276117e-002 -2.735492e+001 -4.783319e+001 1.673799e+002 -1.265005e+001 -3.139123e+001 -5.573502e-002 -2.306367e+001
62865000 -7.759583e-002 -2.750083e+001 -4.647849e+001 1.770466e+002 -1.253126e+001 -3.175199e+001 -5.826324e-002 -2.325796e+001
63237187.5 -9.036240e-002 -2.772634e+001 -4.687209e+001 1.655713e+002 -1.246654e+001 -3.176712e+001 -7.077864e-002 -2.344375e+001
63609375 -7.603607e-002 -2.784196e+001 -4.712944e+001 1.697710e+002 -1.233844e+001 -3.190270e+001 -7.594869e-002 -2.351442e+001
63981562.5 -8.587477e-002 -2.795536e+001 -4.637105e+001 1.651579e+002 -1.223357e+001 -3.217604e+001 -6.895086e-002 -2.360141e+001
64353750 -8.785174e-002 -2.814357e+001 -4.655552e+001 1.664880e+002 -1.216383e+001 -3.227514e+001 -8.323702e-002 -2.393180e+001
64725937.5 -9.496501e-002 -2.834389e+001 -4.609534e+001 1.716838e+002 -1.207208e+001 -3.248377e+001 -9.057610e-002 -2.396342e+001
65098125 -9.896880e-002 -2.850642e+001 -4.646372e+001 1.783655e+002 -1.194790e+001 -3.253581e+001 -7.389227e-002 -2.411874e+001
65470312.5 -9.201182e-002 -2.867068e+001 -4.675515e+001 1.662774e+002 -1.185825e+001 -3.280294e+001 -7.551271e-002 -2.416204e+001
65842500 -8.650720e-002 -2.894368e+001 -4.560257e+001 1.688238e+002 -1.176654e+001 -3.318308e+001 -8.242869e-002 -2.447974e+001
66214687.5 -9.347729e-002 -2.908441e+001 -4.581068e+001 1.719497e+002 -1.164978e+001 -3.311844e+001 -9.269138e-002 -2.449373e+001
66586875 -9.151215e-002 -2.919720e+001 -4.551012e+001 1.716745e+002 -1.159947e+001 -3.322528e+001 -9.260481e-002 -2.459851e+001
66959062.5 -9.253134e-002 -2.937874e+001 -4.658966e+001 1.735172e+002 -1.146162e+001 -3.349217e+001 -8.387118e-002 -2.487079e+001
67331250 -1.046135e-001 -2.950371e+001 -4.566281e+001 1.662998e+002 -1.139740e+001 -3.376163e+001 -1.102648e-001 -2.506667e+001
67703437.5 -1.030734e-001 -2.972189e+001 -4.575289e+001 1.763439e+002 -1.127876e+001 -3.376687e+001 -9.497023e-002 -2.508138e+001
68075625 -1.040891e-001 -2.985098e+001 -4.569492e+001 1.679030e+002 -1.122242e+001 -3.391787e+001 -1.068262e-001 -2.522248e+001
68447812.5 -1.020060e-001 -3.001288e+001 -4.507545e+001 1.743939e+002 -1.109730e+001 -3.403687e+001 -9.382923e-002 -2.531152e+001
68820000 -1.041893e-001 -3.018613e+001 -4.468055e+001 1.650019e+002 -1.101653e+001 -3.438517e+001 -1.019230e-001 -2.555687e+001
69192187.5 -1.065524e-001 -3.036857e+001 -4.484698e+001 1.679471e+002 -1.092552e+001 -3.439021e+001 -9.926301e-002 -2.568957e+001
69564375 -1.031209e-001 -3.051822e+001 -4.525952e+001 1.628455e+002 -1.083665e+001 -3.463704e+001 -1.079814e-001 -2.585320e+001
69936562.5 -1.026216e-001 -3.074240e+001 -4.405603e+001 1.643473e+002 -1.074597e+001 -3.469411e+001 -9.944036e-002 -2.593570e+001
70308750 -1.201583e-001 -3.088969e+001 -4.381829e+001 1.690142e+002 -1.066607e+001 -3.505095e+001 -1.091942e-001 -2.608259e+001
70680937.5 -1.125067e-001 -3.106352e+001 -4.452147e+001 1.693510e+002 -1.057571e+001 -3.515603e+001 -1.119733e-001 -2.622611e+001
71053125 -1.206095e-001 -3.113524e+001 -4.439580e+001 1.719192e+002 -1.047945e+001 -3.522375e+001 -9.554480e-002 -2.626678e+001
71425312.5 -1.051790e-001 -3.131616e+001 -4.461473e+001 1.642565e+002 -1.035503e+001 -3.539325e+001 -9.865621e-002 -2.647357e+001
71797500 -1.182326e-001 -3.162886e+001 -4.538677e+001 1.706651e+002 -1.029665e+001 -3.555378e+001 -1.179328e-001 -2.664523e+001
72169687.5 -1.233202e-001 -3.167591e+001 -4.416530e+001 1.695748e+002 -1.018222e+001 -3.558853e+001 -1.153935e-001 -2.679115e+001
72541875 -1.246082e-001 -3.179935e+001 -4.399588e+001 1.658861e+002 -1.013482e+001 -3.588881e+001 -1.168870e-001 -2.671556e+001
72914062.5 -1.390573e-001 -3.191116e+001 -4.402646e+001 1.682005e+002 -1.002807e+001 -3.591705e+001 -1.084900e-001 -2.698964e+001
73286250 -1.278219e-001 -3.225327e+001 -4.394532e+001 1.660242e+002 -9.957724e+000 -3.616558e+001 -1.111800e-001 -2.718775e+001
73658437.5 -1.133446e-001 -3.248143e+001 -4.451511e+001 1.659559e+002 -9.861871e+000 -3.645391e+001 -1.214487e-001 -2.729757e+001
74030625 -1.232937e-001 -3.243831e+001 -4.451851e+001 1.653994e+002 -9.759309e+000 -3.639306e+001 -1.083938e-001 -2.735540e+001
74402812.5 -1.119341e-001 -3.274162e+001 -4.406770e+001 1.612065e+002 -9.674006e+000 -3.653120e+001 -1.204382e-001 -2.766781e+001
74775000 -1.440315e-001 -3.300430e+001 -4.360534e+001 1.648791e+002 -9.595140e+000 -3.692059e+001 -1.196518e-001 -2.782247e+001
75147187.5 -1.013294e-001 -3.306537e+001 -4.337306e+001 1.652732e+002 -9.512820e+000 -3.693692e+001 -1.136768e-001 -2.797079e+001
75519375 -1.266817e-001 -3.325710e+001 -4.314112e+001 1.641421e+002 -9.439643e+000 -3.722025e+001 -1.191242e-001 -2.817851e+001
75891562.5 -1.823936e-001 -3.319405e+001 -4.350380e+001 1.613027e+002 -9.336349e+000 -3.739228e+001 -1.117026e-001 -2.818080e+001
76263750 -1.333250e-001 -3.340689e+001 -4.348772e+001 1.647172e+002 -9.287865e+000 -3.745774e+001 -1.447760e-001 -2.819341e+001
76635937.5 -1.251443e-001 -3.394427e+001 -4.337133e+001 1.623859e+002 -9.161647e+000 -3.734779e+001 -1.182148e-001 -2.839119e+001
77008125 -1.265554e-001 -3.385964e+001 -4.348970e+001 1.615781e+002 -9.104815e+000 -3.768495e+001 -1.300859e-001 -2.848786e+001
77380312.5 -1.385278e-001 -3.388856e+001 -4.334440e+001 1.630565e+002 -9.023989e+000 -3.818346e+001 -1.468556e-001 -2.878105e+001
77752500 -1.106826e-001 -3.422687e+001 -4.295716e+001 1.571920e+002 -8.949373e+000 -3.815177e+001 -1.262326e-001 -2.880548e+001
78124687.5 -1.686008e-001 -3.426039e+001 -4.277248e+001 1.623277e+002 -8.847375e+000 -3.814161e+001 -1.278594e-001 -2.907639e+001
78496875 -1.632047e-001 -3.464142e+001 -4.240652e+001 1.610731e+002 -8.783768e+000 -3.841031e+001 -1.382389e-001 -2.919272e+001
78869062.5 -1.502984e-001 -3.479619e+001 -4.189609e+001 1.633775e+002 -8.708158e+000 -3.861880e+001 -1.382181e-001 -2.939309e+001
79241250 -1.632693e-001 -3.478540e+001 -4.263394e+001 1.639392e+002 -8.605054e+000 -3.882848e+001 -1.445060e-001 -2.956794e+001
79613437.5 -1.366313e-001 -3.500096e+001 -4.234804e+001 1.618265e+002 -8.555275e+000 -3.906648e+001 -1.618291e-001 -2.957083e+001
79985625 -1.529669e-001 -3.501316e+001 -4.210081e+001 1.592261e+002 -8.463639e+000 -3.914185e+001 -1.336995e-001 -2.972617e+001
80357812.5 -1.530964e-001 -3.539614e+001 -4.239536e+001 1.605299e+002 -8.385449e+000 -3.930924e+001 -1.388895e-001 -2.996836e+001
80730000 -1.499244e-001 -3.548848e+001 -4.211787e+001 1.602183e+002 -8.297241e+000 -3.942120e+001 -1.232338e-001 -3.005704e+001
81102187.5 -1.703246e-001 -3.574077e+001 -4.190131e+001 1.606268e+002 -8.229060e+000 -3.954716e+001 -1.552779e-001 -3.013874e+001
81474375 -1.613140e-001 -3.584499e+001 -4.229330e+001 1.591160e+002 -8.147886e+000 -3.970152e+001 -1.525356e-001 -3.039963e+001
81846562.5 -1.627294e-001 -3.586668e+001 -4.172428e+001 1.618533e+002 -8.050257e+000 -4.005964e+001 -1.480689e-001 -3.033839e+001
82218750 -1.615678e-001 -3.617696e+001 -4.201223e+001 1.616468e+002 -7.966792e+000 -4.011576e+001 -1.146417e-001 -3.043142e+001
82590937.5 -1.775753e-001 -3.616365e+001 -4.141287e+001 1.593338e+002 -7.906195e+000 -4.013380e+001 -1.501017e-001 -3.078405e+001
82963125 -1.631112e-001 -3.646854e+001 -4.205134e+001 1.581529e+002 -7.805007e+000 -4.040412e+001 -1.256471e-001 -3.083959e+001
83335312.5 -1.594062e-001 -3.661334e+001 -4.139387e+001 1.594474e+002 -7.736657e+000 -4.067601e+001 -1.376806e-001 -3.098222e+001
83707500 -1.778723e-001 -3.687038e+001 -4.148972e+001 1.584461e+002 -7.664611e+000 -4.069238e+001 -1.330618e-001 -3.116790e+001
84079687.5 -1.778186e-001 -3.694019e+001 -4.144638e+001 1.583556e+002 -7.594864e+000 -4.112317e+001 -1.533061e-001 -3.130970e+001
84451875 -1.880041e-001 -3.706845e+001 -4.144148e+001 1.602077e+002 -7.521182e+000 -4.097968e+001 -1.464989e-001 -3.140264e+001
84824062.5 -1.874575e-001 -3.730215e+001 -4.161635e+001 1.597323e+002 -7.441243e+000 -4.121326e+001 -1.761070e-001 -3.158343e+001
85196250 -1.881357e-001 -3.742058e+001 -4.116671e+001 1.569098e+002 -7.384938e+000 -4.140583e+001 -1.680239e-001 -3.170028e+001
85568437.5 -1.821742e-001 -3.757049e+001 -4.099079e+001 1.594943e+002 -7.315773e+000 -4.153492e+001 -1.780974e-001 -3.180426e+001
85940625 -1.896276e-001 -3.788458e+001 -4.131439e+001 1.559568e+002 -7.225228e+000 -4.171872e+001 -1.861721e-001 -3.192367e+001
86312812.5 -1.917550e-001 -3.798620e+001 -4.091196e+001 1.565057e+002 -7.157531e+000 -4.187119e+001 -1.732038e-001 -3.214116e+001
86685000 -1.575617e-001 -3.814728e+001 -4.124854e+001 1.592571e+002 -7.065877e+000 -4.210273e+001 -1.941436e-001 -3.230584e+001
87057187.5 -2.086026e-001 -3.823573e+001 -4.087449e+001 1.569027e+002 -7.040886e+000 -4.223135e+001 -1.703865e-001 -3.239600e+001
87429375 -1.765890e-001 -3.835637e+001 -4.036582e+001 1.570086e+002 -6.936448e+000 -4.223828e+001 -1.747279e-001 -3.239758e+001
87801562.5 -1.794268e-001 -3.879458e+001 -4.085605e+001 1.542901e+002 -6.875385e+000 -4.264043e+001 -1.811436e-001 -3.263151e+001
88173750 -1.841752e-001 -3.876021e+001 -4.041969e+001 1.564150e+002 -6.804654e+000 -4.266459e+001 -1.782596e-001 -3.268416e+001
88545937.5 -2.028571e-001 -3.906732e+001 -4.043433e+001 1.566489e+002 -6.700171e+000 -4.297210e+001 -1.552004e-001 -3.306710e+001
88918125 -1.916581e-001 -3.903905e+001 -4.044621e+001 1.540776e+002 -6.654748e+000 -4.305732e+001 -1.919185e-001 -3.292260e+001
89290312.5 -1.948622e-001 -3.938525e+001 -4.035402e+001 1.530418e+002 -6.582057e+000 -4.316010e+001 -1.793927e-001 -3.329346e+001
89662500 -2.073515e-001 -3.959253e+001 -4.039171e+001 1.553967e+002 -6.527971e+000 -4.346179e+001 -2.115577e-001 -3.345255e+001
90034687.5 -1.981136e-001 -3.954808e+001 -4.022781e+001 1.540085e+002 -6.460757e+000 -4.334924e+001 -1.876885e-001 -3.349831e+001
90406875 -1.894785e-001 -3.987233e+001 -4.051363e+001 1.561144e+002 -6.370443e+000 -4.357032e+001 -1.664718e-001 -3.377219e+001
90779062.5 -2.057533e-001 -3.995512e+001 -4.033803e+001 1.528497e+002 -6.308966e+000 -4.382104e+001 -1.974157e-001 -3.382395e+001
91151250 -2.006415e-001 -4.013855e+001 -4.026403e+001 1.539255e+002 -6.252085e+000 -4.399033e+001 -2.337369e-001 -3.385136e+001
91523437.5 -2.033163e-001 -4.019638e+001 -4.008023e+001 1.522463e+002 -6.158301e+000 -4.427719e+001 -1.834358e-001 -3.407983e+001
91895625 -2.036611e-001 -4.061674e+001 -3.946442e+001 1.530214e+002 -6.091002e+000 -4.437103e+001 -1.771667e-001 -3.419476e+001
92267812.5 -2.112745e-001 -4.049618e+001 -3.967833e+001 1.524223e+002 -6.015893e+000 -4.441597e+001 -1.873261e-001 -3.425271e+001
92640000 -2.146395e-001 -4.080282e+001 -3.996115e+001 1.546373e+002 -5.941844e+000 -4.458636e+001 -2.062729e-001 -3.446796e+001
93012187.5 -2.004614e-001 -4.085852e+001 -3.969040e+001 1.509012e+002 -5.859122e+000 -4.485663e+001 -1.940700e-001 -3.477804e+001
93384375 -2.061788e-001 -4.105246e+001 -3.982278e+001 1.535005e+002 -5.813076e+000 -4.510192e+001 -1.942026e-001 -3.495345e+001
93756562.5 -1.879817e-001 -4.115715e+001 -3.971194e+001 1.554748e+002 -5.738676e+000 -4.517391e+001 -2.137996e-001 -3.499370e+001
94128750 -2.131581e-001 -4.137797e+001 -3.973745e+001 1.516258e+002 -5.682247e+000 -4.535913e+001 -2.244582e-001 -3.516219e+001
94500937.5 -2.341373e-001 -4.153196e+001 -3.951539e+001 1.516957e+002 -5.637053e+000 -4.542704e+001 -2.115711e-001 -3.512334e+001
94873125 -1.953035e-001 -4.174127e+001 -3.926464e+001 1.521529e+002 -5.552256e+000 -4.559703e+001 -2.076471e-001 -3.539238e+001
95245312.5 -2.044827e-001 -4.192803e+001 -3.938748e+001 1.527884e+002 -5.457657e+000 -4.598263e+001 -2.181039e-001 -3.553211e+001
95617500 -2.279247e-001 -4.223152e+001 -3.907306e+001 1.524242e+002 -5.416868e+000 -4.602924e+001 -2.302658e-001 -3.567186e+001
95989687.5 -2.139002e-001 -4.232380e+001 -3.923576e+001 1.514864e+002 -5.340267e+000 -4.611940e+001 -2.096503e-001 -3.589297e+001
96361875 -2.179678e-001 -4.244521e+001 -3.885220e+001 1.510415e+002 -5.298403e+000 -4.627268e+001 -2.313669e-001 -3.597988e+001
96734062.5 -2.350213e-001 -4.258306e+001 -3.883831e+001 1.510738e+002 -5.217552e+000 -4.630019e+001 -2.110841e-001 -3.597773e+001
97106250 -2.401056e-001 -4.273951e+001 -3.900514e+001 1.523968e+002 -5.139951e+000 -4.677479e+001 -1.997809e-001 -3.642979e+001
97478437.5 -2.189875e-001 -4.298090e+001 -3.904306e+001 1.498797e+002 -5.059195e+000 -4.683371e+001 -1.918771e-001 -3.654865e+001
97850625 -2.027209e-001 -4.313772e+001 -3.906292e+001 1.513025e+002 -5.006877e+000 -4.701980e+001 -2.218365e-001 -3.650614e+001
98222812.5 -2.415982e-001 -4.330437e+001 -3.876122e+001 1.534811e+002 -4.972092e+000 -4.710043e+001 -2.385840e-001 -3.655323e+001
98595000 -2.460818e-001 -4.356673e+001 -3.892363e+001 1.508919e+002 -4.866671e+000 -4.741526e+001 -2.141735e-001 -3.695959e+001
98967187.5 -2.362816e-001 -4.356564e+001 -3.871067e+001 1.493311e+002 -4.832813e+000 -4.765641e+001 -2.572600e-001 -3.680371e+001
99339375 -2.354440e-001 -4.396687e+001 -3.872425e+001 1.488629e+002 -4.760534e+000 -4.778391e+001 -2.387777e-001 -3.690217e+001
99711562.5 -2.345177e-001 -4.391645e+001 -3.864879e+001 1.490510e+002 -4.687257e+000 -4.777730e+001 -2.611521e-001 -3.730266e+001
100083750 -2.365841e-001 -4.424625e+001 -3.843122e+001 1.485834e+002 -4.636193e+000 -4.813548e+001 -2.442720e-001 -3.740282e+001
100455937.5 -2.462718e-001 -4.443000e+001 -3.852372e+001 1.486221e+002 -4.561679e+000 -4.807384e+001 -2.407853e-001 -3.744316e+001
100828125 -2.262293e-001 -4.467636e+001 -3.835485e+001 1.494653e+002 -4.490294e+000 -4.824980e+001 -2.270768e-001 -3.762680e+001
