!Agilent Technologies,E8364A,US41440144,A.06.04.32
!Agilent E8364A: A.06.04.32
!Date: Thursday, November 08, 2018 15:28:23
!Correction: S11(Full 2 Port(1,2)) S21(Full 2 Port(1,2)) S12(Full 2 Port(1,2)) S22(Full 2 Port(1,2)) 
!S2P File: Measurements: S11, S21, S12, S22:
# Hz S  dB   R 50
45000000 -8.928279e-002 -1.965842e+001 -5.033199e+001 1.473632e+002 -1.375142e+001 -5.154155e+001 -1.104507e-001 -1.933248e+001
45372187.5 -9.277844e-002 -1.981438e+001 -4.780385e+001 1.533245e+002 -1.360884e+001 -5.133475e+001 -8.430606e-002 -1.950450e+001
45744375 -9.449590e-002 -1.991604e+001 -4.795173e+001 1.523242e+002 -1.353313e+001 -5.153634e+001 -6.869045e-002 -1.962445e+001
46116562.5 -8.538929e-002 -2.012921e+001 -4.725768e+001 1.604632e+002 -1.336333e+001 -5.135051e+001 -1.192386e-001 -1.975995e+001
46488750 -8.692956e-002 -2.031821e+001 -4.854305e+001 1.625548e+002 -1.326044e+001 -5.145069e+001 -9.195786e-002 -1.995131e+001
46860937.5 -1.057727e-001 -2.041664e+001 -4.947337e+001 1.498122e+002 -1.309037e+001 -5.136541e+001 -8.517880e-002 -2.009433e+001
47233125 -8.193785e-002 -2.063409e+001 -4.812862e+001 1.637965e+002 -1.302109e+001 -5.141636e+001 -1.072168e-001 -2.025147e+001
47605312.5 -9.058546e-002 -2.078252e+001 -4.815978e+001 1.569668e+002 -1.290359e+001 -5.163320e+001 -1.026036e-001 -2.051351e+001
47977500 -8.799197e-002 -2.098975e+001 -4.756096e+001 1.562589e+002 -1.274801e+001 -5.157824e+001 -1.023876e-001 -2.066158e+001
48349687.5 -1.113952e-001 -2.115353e+001 -4.879945e+001 1.624434e+002 -1.265259e+001 -5.168095e+001 -1.052506e-001 -2.069204e+001
48721875 -9.182388e-002 -2.126151e+001 -4.831124e+001 1.691541e+002 -1.252531e+001 -5.168298e+001 -9.433977e-002 -2.095319e+001
49094062.5 -9.477855e-002 -2.151523e+001 -4.800243e+001 1.541299e+002 -1.243077e+001 -5.180989e+001 -1.110971e-001 -2.106947e+001
49466250 -9.305921e-002 -2.173533e+001 -4.651170e+001 1.461503e+002 -1.229921e+001 -5.171293e+001 -9.919188e-002 -2.126371e+001
49838437.5 -8.960200e-002 -2.183008e+001 -4.735991e+001 1.520583e+002 -1.207818e+001 -5.164217e+001 -9.817709e-002 -2.145554e+001
50210625 -1.014955e-001 -2.195998e+001 -4.658171e+001 1.587843e+002 -1.204426e+001 -5.157701e+001 -9.934620e-002 -2.147794e+001
50582812.5 -1.071425e-001 -2.216285e+001 -4.722647e+001 1.564694e+002 -1.193306e+001 -5.174361e+001 -1.150281e-001 -2.159343e+001
50955000 -1.040157e-001 -2.227328e+001 -4.529208e+001 1.532632e+002 -1.180215e+001 -5.168142e+001 -1.142000e-001 -2.186362e+001
51327187.5 -1.121125e-001 -2.247000e+001 -4.636652e+001 1.480240e+002 -1.168812e+001 -5.187070e+001 -1.063796e-001 -2.209947e+001
51699375 -1.057277e-001 -2.259259e+001 -4.545499e+001 1.581194e+002 -1.161705e+001 -5.226065e+001 -1.243296e-001 -2.235915e+001
52071562.5 -9.830257e-002 -2.284022e+001 -4.662114e+001 1.564408e+002 -1.149611e+001 -5.188318e+001 -1.284744e-001 -2.231222e+001
52443750 -1.085614e-001 -2.299161e+001 -4.655250e+001 1.534408e+002 -1.136735e+001 -5.218830e+001 -1.013646e-001 -2.259243e+001
52815937.5 -1.092813e-001 -2.318207e+001 -4.654179e+001 1.514542e+002 -1.123868e+001 -5.224021e+001 -1.232145e-001 -2.276708e+001
53188125 -1.156700e-001 -2.337290e+001 -4.476351e+001 1.582919e+002 -1.114409e+001 -5.228763e+001 -1.268495e-001 -2.300224e+001
53560312.5 -1.236624e-001 -2.357985e+001 -4.523381e+001 1.529895e+002 -1.103989e+001 -5.230230e+001 -1.356660e-001 -2.304154e+001
53932500 -1.193695e-001 -2.368600e+001 -4.674640e+001 1.553215e+002 -1.095139e+001 -5.238362e+001 -1.484819e-001 -2.329135e+001
54304687.5 -1.166648e-001 -2.384649e+001 -4.544123e+001 1.588685e+002 -1.084447e+001 -5.229646e+001 -1.485759e-001 -2.331622e+001
54676875 -1.263417e-001 -2.403602e+001 -4.504427e+001 1.549461e+002 -1.072762e+001 -5.238708e+001 -1.241363e-001 -2.351105e+001
55049062.5 -1.136822e-001 -2.415781e+001 -4.603157e+001 1.528764e+002 -1.060637e+001 -5.241052e+001 -1.369328e-001 -2.371836e+001
55421250 -1.283011e-001 -2.437458e+001 -4.431055e+001 1.549070e+002 -1.048093e+001 -5.257468e+001 -1.376221e-001 -2.380489e+001
55793437.5 -1.385419e-001 -2.446609e+001 -4.517035e+001 1.532258e+002 -1.038047e+001 -5.259038e+001 -1.399850e-001 -2.402735e+001
56165625 -1.305268e-001 -2.473296e+001 -4.540023e+001 1.559709e+002 -1.027269e+001 -5.282127e+001 -1.507326e-001 -2.423001e+001
56537812.5 -1.299528e-001 -2.489670e+001 -4.507625e+001 1.602972e+002 -1.017657e+001 -5.291106e+001 -1.350766e-001 -2.444730e+001
56910000 -1.241316e-001 -2.498787e+001 -4.495313e+001 1.498838e+002 -1.008722e+001 -5.282702e+001 -1.626112e-001 -2.452663e+001
57282187.5 -1.183592e-001 -2.519050e+001 -4.521283e+001 1.506339e+002 -9.968179e+000 -5.288280e+001 -1.513130e-001 -2.480313e+001
57654375 -1.188771e-001 -2.539357e+001 -4.415109e+001 1.582029e+002 -9.882855e+000 -5.296587e+001 -1.383065e-001 -2.489877e+001
58026562.5 -1.351900e-001 -2.551723e+001 -4.378400e+001 1.550948e+002 -9.744008e+000 -5.297718e+001 -1.363376e-001 -2.501698e+001
58398750 -1.234625e-001 -2.573466e+001 -4.403234e+001 1.539797e+002 -9.668600e+000 -5.321016e+001 -1.531704e-001 -2.516665e+001
58770937.5 -1.350030e-001 -2.585564e+001 -4.413860e+001 1.566737e+002 -9.558625e+000 -5.335801e+001 -1.565984e-001 -2.529358e+001
59143125 -1.472800e-001 -2.605576e+001 -4.509679e+001 1.497593e+002 -9.468738e+000 -5.333612e+001 -1.723964e-001 -2.555490e+001
59515312.5 -1.502291e-001 -2.616893e+001 -4.416608e+001 1.543827e+002 -9.365578e+000 -5.348263e+001 -1.648147e-001 -2.565111e+001
59887500 -1.569617e-001 -2.631813e+001 -4.324115e+001 1.479870e+002 -9.257402e+000 -5.344751e+001 -1.589507e-001 -2.576252e+001
60259687.5 -1.431961e-001 -2.650108e+001 -4.388248e+001 1.484970e+002 -9.161194e+000 -5.367342e+001 -1.790338e-001 -2.605422e+001
60631875 -1.596101e-001 -2.662945e+001 -4.386253e+001 1.513453e+002 -9.054276e+000 -5.366446e+001 -1.632613e-001 -2.621513e+001
61004062.5 -1.432986e-001 -2.681018e+001 -4.342582e+001 1.495958e+002 -8.984130e+000 -5.385174e+001 -1.779372e-001 -2.639149e+001
61376250 -1.460932e-001 -2.702559e+001 -4.402954e+001 1.476134e+002 -8.869947e+000 -5.381282e+001 -1.621171e-001 -2.642941e+001
61748437.5 -1.629937e-001 -2.724060e+001 -4.401683e+001 1.497478e+002 -8.800547e+000 -5.391869e+001 -1.908900e-001 -2.665835e+001
62120625 -1.561184e-001 -2.739264e+001 -4.332786e+001 1.453319e+002 -8.674129e+000 -5.410230e+001 -1.708034e-001 -2.686086e+001
62492812.5 -1.662896e-001 -2.757473e+001 -4.341224e+001 1.463184e+002 -8.578110e+000 -5.423831e+001 -1.771215e-001 -2.700927e+001
62865000 -1.608002e-001 -2.772569e+001 -4.292691e+001 1.525956e+002 -8.477837e+000 -5.420799e+001 -1.806104e-001 -2.708158e+001
63237187.5 -1.625230e-001 -2.788760e+001 -4.282565e+001 1.476206e+002 -8.406550e+000 -5.423615e+001 -1.922129e-001 -2.726224e+001
63609375 -1.676655e-001 -2.812405e+001 -4.221772e+001 1.491697e+002 -8.304147e+000 -5.449389e+001 -2.056600e-001 -2.750195e+001
63981562.5 -1.771642e-001 -2.818217e+001 -4.249026e+001 1.432365e+002 -8.195112e+000 -5.452697e+001 -1.774233e-001 -2.761361e+001
64353750 -1.640516e-001 -2.839725e+001 -4.290236e+001 1.468943e+002 -8.106174e+000 -5.461972e+001 -1.955049e-001 -2.791377e+001
64725937.5 -1.695520e-001 -2.854575e+001 -4.233233e+001 1.516816e+002 -8.026513e+000 -5.488402e+001 -2.020602e-001 -2.805190e+001
65098125 -1.759225e-001 -2.872819e+001 -4.231423e+001 1.494758e+002 -7.919603e+000 -5.476056e+001 -1.959176e-001 -2.813234e+001
65470312.5 -1.752576e-001 -2.885565e+001 -4.278385e+001 1.441854e+002 -7.816360e+000 -5.487943e+001 -2.068282e-001 -2.820612e+001
65842500 -1.753822e-001 -2.910016e+001 -4.248755e+001 1.462267e+002 -7.751242e+000 -5.508497e+001 -2.025404e-001 -2.852809e+001
66214687.5 -1.855277e-001 -2.932490e+001 -4.198486e+001 1.449469e+002 -7.621210e+000 -5.523811e+001 -2.123931e-001 -2.868837e+001
66586875 -1.899146e-001 -2.937353e+001 -4.221320e+001 1.499486e+002 -7.578290e+000 -5.520677e+001 -2.216810e-001 -2.875269e+001
66959062.5 -1.800266e-001 -2.961701e+001 -4.247040e+001 1.469338e+002 -7.466653e+000 -5.541467e+001 -2.120031e-001 -2.901699e+001
67331250 -1.918874e-001 -2.969866e+001 -4.183073e+001 1.490186e+002 -7.387750e+000 -5.557404e+001 -2.298961e-001 -2.913386e+001
67703437.5 -2.013807e-001 -2.994296e+001 -4.193858e+001 1.471893e+002 -7.293649e+000 -5.563068e+001 -2.296444e-001 -2.924268e+001
68075625 -1.984993e-001 -3.008585e+001 -4.156058e+001 1.445933e+002 -7.194540e+000 -5.560223e+001 -2.269546e-001 -2.945250e+001
68447812.5 -1.961085e-001 -3.025760e+001 -4.122829e+001 1.498742e+002 -7.119471e+000 -5.583004e+001 -2.250672e-001 -2.959672e+001
68820000 -2.045386e-001 -3.045392e+001 -4.084661e+001 1.478098e+002 -7.040929e+000 -5.597824e+001 -2.387685e-001 -2.976701e+001
69192187.5 -1.980514e-001 -3.057326e+001 -4.124273e+001 1.461136e+002 -6.945647e+000 -5.609284e+001 -2.342467e-001 -2.999763e+001
69564375 -2.031926e-001 -3.077650e+001 -4.108056e+001 1.459368e+002 -6.847051e+000 -5.621979e+001 -2.445343e-001 -3.012782e+001
69936562.5 -1.998978e-001 -3.092769e+001 -4.093017e+001 1.474910e+002 -6.786658e+000 -5.621396e+001 -2.533947e-001 -3.023437e+001
70308750 -2.163137e-001 -3.107915e+001 -4.041446e+001 1.458481e+002 -6.689044e+000 -5.651702e+001 -2.467258e-001 -3.048816e+001
70680937.5 -2.218364e-001 -3.123590e+001 -4.124698e+001 1.476294e+002 -6.611262e+000 -5.655088e+001 -2.534233e-001 -3.060533e+001
71053125 -2.260115e-001 -3.142753e+001 -4.095501e+001 1.497421e+002 -6.526210e+000 -5.653008e+001 -2.545702e-001 -3.073877e+001
71425312.5 -2.230624e-001 -3.153470e+001 -4.079990e+001 1.459217e+002 -6.429055e+000 -5.687301e+001 -2.589817e-001 -3.100760e+001
71797500 -2.179710e-001 -3.179389e+001 -4.114225e+001 1.430187e+002 -6.350290e+000 -5.696415e+001 -2.724172e-001 -3.115052e+001
72169687.5 -2.265528e-001 -3.193339e+001 -4.048713e+001 1.459855e+002 -6.257220e+000 -5.691394e+001 -2.727965e-001 -3.129510e+001
72541875 -2.420365e-001 -3.210725e+001 -4.101226e+001 1.465255e+002 -6.215130e+000 -5.712989e+001 -2.911440e-001 -3.132070e+001
72914062.5 -2.448666e-001 -3.217877e+001 -4.012245e+001 1.434442e+002 -6.120135e+000 -5.725364e+001 -2.759997e-001 -3.158166e+001
73286250 -2.503441e-001 -3.241494e+001 -4.022001e+001 1.427761e+002 -6.032264e+000 -5.727642e+001 -2.771501e-001 -3.169924e+001
73658437.5 -2.515848e-001 -3.245652e+001 -4.019341e+001 1.422544e+002 -5.949018e+000 -5.762355e+001 -2.857051e-001 -3.197244e+001
74030625 -2.411791e-001 -3.271141e+001 -4.025364e+001 1.441851e+002 -5.850997e+000 -5.750930e+001 -2.821488e-001 -3.195882e+001
74402812.5 -2.414584e-001 -3.303581e+001 -4.002901e+001 1.407208e+002 -5.764235e+000 -5.761978e+001 -2.925793e-001 -3.236055e+001
74775000 -2.533105e-001 -3.334772e+001 -3.991430e+001 1.440974e+002 -5.693809e+000 -5.799043e+001 -2.956431e-001 -3.253029e+001
75147187.5 -2.402446e-001 -3.332098e+001 -3.978775e+001 1.407098e+002 -5.612655e+000 -5.794638e+001 -2.939805e-001 -3.266352e+001
75519375 -2.602013e-001 -3.340450e+001 -4.000085e+001 1.437105e+002 -5.559404e+000 -5.811695e+001 -3.081707e-001 -3.285541e+001
75891562.5 -2.786646e-001 -3.371047e+001 -3.944253e+001 1.425672e+002 -5.448506e+000 -5.834007e+001 -2.829831e-001 -3.297673e+001
76263750 -2.446992e-001 -3.374474e+001 -3.995031e+001 1.434292e+002 -5.370131e+000 -5.829806e+001 -3.128559e-001 -3.293206e+001
76635937.5 -2.604806e-001 -3.407082e+001 -3.943223e+001 1.422098e+002 -5.288924e+000 -5.830186e+001 -2.986786e-001 -3.323057e+001
77008125 -2.491085e-001 -3.405487e+001 -3.974256e+001 1.420702e+002 -5.228481e+000 -5.843392e+001 -3.271591e-001 -3.324181e+001
77380312.5 -2.567020e-001 -3.425539e+001 -3.973295e+001 1.410589e+002 -5.152223e+000 -5.889062e+001 -3.310533e-001 -3.360793e+001
77752500 -2.546954e-001 -3.448492e+001 -3.920990e+001 1.386243e+002 -5.056348e+000 -5.886358e+001 -3.019837e-001 -3.368763e+001
78124687.5 -2.955854e-001 -3.465440e+001 -3.922820e+001 1.404691e+002 -4.972516e+000 -5.890415e+001 -3.189882e-001 -3.389637e+001
78496875 -2.880550e-001 -3.483670e+001 -3.888870e+001 1.416616e+002 -4.906335e+000 -5.912764e+001 -3.216820e-001 -3.417104e+001
78869062.5 -2.854331e-001 -3.493485e+001 -3.868788e+001 1.421263e+002 -4.836429e+000 -5.933079e+001 -3.337617e-001 -3.431099e+001
79241250 -2.802736e-001 -3.521366e+001 -3.881254e+001 1.425435e+002 -4.756146e+000 -5.942387e+001 -3.421136e-001 -3.451444e+001
79613437.5 -2.674761e-001 -3.525589e+001 -3.877236e+001 1.403229e+002 -4.693293e+000 -5.955224e+001 -3.558920e-001 -3.458724e+001
79985625 -2.933888e-001 -3.550418e+001 -3.869545e+001 1.400815e+002 -4.596143e+000 -5.963064e+001 -3.491454e-001 -3.474677e+001
80357812.5 -3.013541e-001 -3.584229e+001 -3.866849e+001 1.406656e+002 -4.520840e+000 -5.974996e+001 -3.420298e-001 -3.495337e+001
80730000 -2.966815e-001 -3.590634e+001 -3.860859e+001 1.402286e+002 -4.439414e+000 -5.990283e+001 -3.707492e-001 -3.519082e+001
81102187.5 -3.183083e-001 -3.596988e+001 -3.848337e+001 1.401440e+002 -4.373812e+000 -5.999717e+001 -3.758211e-001 -3.533191e+001
81474375 -2.973064e-001 -3.619986e+001 -3.870420e+001 1.391670e+002 -4.299405e+000 -6.008387e+001 -3.357432e-001 -3.545451e+001
81846562.5 -2.937015e-001 -3.622954e+001 -3.845040e+001 1.381499e+002 -4.207057e+000 -6.046674e+001 -3.757633e-001 -3.567990e+001
82218750 -3.423587e-001 -3.640989e+001 -3.886532e+001 1.408891e+002 -4.137738e+000 -6.044243e+001 -3.544709e-001 -3.576062e+001
82590937.5 -3.219557e-001 -3.645775e+001 -3.826017e+001 1.389568e+002 -4.071877e+000 -6.048438e+001 -3.762914e-001 -3.583158e+001
82963125 -3.285511e-001 -3.689264e+001 -3.830582e+001 1.381908e+002 -3.979492e+000 -6.069174e+001 -3.394384e-001 -3.592987e+001
83335312.5 -3.091623e-001 -3.704922e+001 -3.808317e+001 1.398046e+002 -3.905535e+000 -6.088271e+001 -3.666141e-001 -3.634557e+001
83707500 -3.355165e-001 -3.726274e+001 -3.778469e+001 1.375758e+002 -3.841462e+000 -6.101382e+001 -3.597032e-001 -3.646014e+001
84079687.5 -3.248308e-001 -3.728028e+001 -3.769865e+001 1.392872e+002 -3.769849e+000 -6.124804e+001 -3.773317e-001 -3.657302e+001
84451875 -3.409742e-001 -3.751183e+001 -3.808234e+001 1.382391e+002 -3.713385e+000 -6.121531e+001 -4.072604e-001 -3.653712e+001
84824062.5 -3.416983e-001 -3.764833e+001 -3.769314e+001 1.363338e+002 -3.639887e+000 -6.144201e+001 -3.984185e-001 -3.684763e+001
85196250 -3.461696e-001 -3.785146e+001 -3.763594e+001 1.367773e+002 -3.566087e+000 -6.159620e+001 -3.941448e-001 -3.704799e+001
85568437.5 -3.499545e-001 -3.795478e+001 -3.767853e+001 1.385243e+002 -3.493034e+000 -6.170689e+001 -3.863321e-001 -3.714891e+001
85940625 -3.396472e-001 -3.834554e+001 -3.743148e+001 1.356318e+002 -3.417870e+000 -6.190668e+001 -3.982723e-001 -3.740175e+001
86312812.5 -3.598672e-001 -3.846599e+001 -3.743801e+001 1.381049e+002 -3.353303e+000 -6.190115e+001 -4.100860e-001 -3.736573e+001
86685000 -3.340847e-001 -3.858574e+001 -3.724518e+001 1.375306e+002 -3.270386e+000 -6.214863e+001 -4.110868e-001 -3.767288e+001
87057187.5 -3.516904e-001 -3.878329e+001 -3.703921e+001 1.363386e+002 -3.239556e+000 -6.232441e+001 -4.151680e-001 -3.791367e+001
87429375 -3.143074e-001 -3.880939e+001 -3.708269e+001 1.364458e+002 -3.138447e+000 -6.231590e+001 -4.259074e-001 -3.807508e+001
87801562.5 -3.428671e-001 -3.913780e+001 -3.712478e+001 1.348156e+002 -3.078707e+000 -6.260281e+001 -4.256189e-001 -3.827217e+001
88173750 -3.551714e-001 -3.906101e+001 -3.697742e+001 1.367851e+002 -3.006973e+000 -6.261993e+001 -4.158341e-001 -3.849212e+001
88545937.5 -3.572499e-001 -3.937708e+001 -3.704744e+001 1.368734e+002 -2.927083e+000 -6.297346e+001 -4.197337e-001 -3.863938e+001
88918125 -3.808298e-001 -3.945855e+001 -3.690980e+001 1.332971e+002 -2.860459e+000 -6.299562e+001 -4.254186e-001 -3.863086e+001
89290312.5 -3.760210e-001 -3.972407e+001 -3.694052e+001 1.357642e+002 -2.796741e+000 -6.301009e+001 -4.487479e-001 -3.895263e+001
89662500 -3.859448e-001 -3.987934e+001 -3.712532e+001 1.356635e+002 -2.737843e+000 -6.338287e+001 -4.576454e-001 -3.903319e+001
90034687.5 -3.813118e-001 -4.002959e+001 -3.684072e+001 1.351587e+002 -2.650858e+000 -6.338030e+001 -4.279571e-001 -3.926040e+001
90406875 -3.743322e-001 -4.029028e+001 -3.676430e+001 1.341684e+002 -2.605665e+000 -6.344859e+001 -4.550913e-001 -3.942881e+001
90779062.5 -4.027983e-001 -4.036758e+001 -3.651947e+001 1.336126e+002 -2.537861e+000 -6.379770e+001 -4.627616e-001 -3.958289e+001
91151250 -3.942045e-001 -4.059209e+001 -3.672101e+001 1.334367e+002 -2.479751e+000 -6.376199e+001 -5.082123e-001 -3.959813e+001
91523437.5 -3.997164e-001 -4.067866e+001 -3.662212e+001 1.346034e+002 -2.404947e+000 -6.418038e+001 -4.999684e-001 -3.978010e+001
91895625 -3.993626e-001 -4.087282e+001 -3.643356e+001 1.351755e+002 -2.329360e+000 -6.411603e+001 -4.627451e-001 -3.998857e+001
92267812.5 -3.885756e-001 -4.095922e+001 -3.630924e+001 1.325909e+002 -2.246913e+000 -6.416154e+001 -4.664347e-001 -4.002259e+001
92640000 -4.063601e-001 -4.112674e+001 -3.641495e+001 1.340407e+002 -2.192869e+000 -6.434769e+001 -4.962189e-001 -4.019905e+001
93012187.5 -4.174583e-001 -4.133253e+001 -3.627853e+001 1.325057e+002 -2.096677e+000 -6.457544e+001 -4.858463e-001 -4.043134e+001
93384375 -4.000443e-001 -4.157737e+001 -3.616856e+001 1.319409e+002 -2.055690e+000 -6.489178e+001 -5.061822e-001 -4.075052e+001
93756562.5 -4.147983e-001 -4.150520e+001 -3.622411e+001 1.339766e+002 -1.991830e+000 -6.491163e+001 -5.111353e-001 -4.081921e+001
94128750 -4.188551e-001 -4.195064e+001 -3.608257e+001 1.320354e+002 -1.937742e+000 -6.516753e+001 -5.324257e-001 -4.122753e+001
94500937.5 -4.424331e-001 -4.205128e+001 -3.607433e+001 1.324241e+002 -1.873666e+000 -6.520473e+001 -5.032716e-001 -4.102507e+001
94873125 -4.300410e-001 -4.225784e+001 -3.588636e+001 1.320886e+002 -1.804925e+000 -6.534776e+001 -5.078574e-001 -4.133753e+001
95245312.5 -4.494566e-001 -4.248961e+001 -3.573770e+001 1.314322e+002 -1.724219e+000 -6.565181e+001 -5.144204e-001 -4.165356e+001
95617500 -4.419492e-001 -4.268783e+001 -3.586837e+001 1.325913e+002 -1.682147e+000 -6.586243e+001 -5.357445e-001 -4.178720e+001
95989687.5 -4.395454e-001 -4.268705e+001 -3.570663e+001 1.301343e+002 -1.636325e+000 -6.584769e+001 -5.460294e-001 -4.187871e+001
96361875 -4.364280e-001 -4.296318e+001 -3.555396e+001 1.315692e+002 -1.541017e+000 -6.603374e+001 -5.395033e-001 -4.200874e+001
96734062.5 -4.469199e-001 -4.304350e+001 -3.541180e+001 1.302597e+002 -1.484139e+000 -6.603696e+001 -5.597451e-001 -4.213915e+001
97106250 -4.837061e-001 -4.319568e+001 -3.564941e+001 1.303315e+002 -1.420300e+000 -6.649802e+001 -5.236982e-001 -4.254468e+001
97478437.5 -4.435109e-001 -4.334826e+001 -3.566743e+001 1.289569e+002 -1.345342e+000 -6.663380e+001 -5.606995e-001 -4.288543e+001
97850625 -4.447691e-001 -4.360687e+001 -3.538904e+001 1.309696e+002 -1.279396e+000 -6.674277e+001 -5.387620e-001 -4.273075e+001
98222812.5 -4.776950e-001 -4.375840e+001 -3.558479e+001 1.315565e+002 -1.254992e+000 -6.691459e+001 -5.774674e-001 -4.278710e+001
98595000 -4.608748e-001 -4.411001e+001 -3.543576e+001 1.305438e+002 -1.173558e+000 -6.708268e+001 -5.730019e-001 -4.306862e+001
98967187.5 -4.713094e-001 -4.420446e+001 -3.523162e+001 1.307809e+002 -1.112209e+000 -6.718349e+001 -5.968296e-001 -4.313801e+001
99339375 -4.695398e-001 -4.429879e+001 -3.516558e+001 1.292387e+002 -1.048666e+000 -6.733440e+001 -5.557203e-001 -4.318966e+001
99711562.5 -4.650559e-001 -4.436593e+001 -3.515207e+001 1.291600e+002 -9.612015e-001 -6.740341e+001 -5.987933e-001 -4.365301e+001
100083750 -4.832888e-001 -4.468895e+001 -3.493703e+001 1.298714e+002 -9.059048e-001 -6.777003e+001 -5.608398e-001 -4.373682e+001
100455937.5 -4.916049e-001 -4.500251e+001 -3.498045e+001 1.296539e+002 -8.436508e-001 -6.775336e+001 -5.730060e-001 -4.382799e+001
100828125 -4.626910e-001 -4.515184e+001 -3.489563e+001 1.297553e+002 -7.912114e-001 -6.797903e+001 -5.840791e-001 -4.409726e+001
