!Agilent Technologies,E8364A,US41440144,A.06.04.32
!Agilent E8364A: A.06.04.32
!Date: Thursday, November 08, 2018 15:39:47
!Correction: S11(Full 2 Port(1,2)) S21(Full 2 Port(1,2)) S12(Full 2 Port(1,2)) S22(Full 2 Port(1,2)) 
!S2P File: Measurements: S11, S21, S12, S22:
# Hz S  dB   R 50
45000000 -5.286112e+000 -8.023188e+001 -2.301422e+001 7.716027e+001 1.196772e+001 -1.340775e+002 -4.856155e+000 -6.792879e+001
45372187.5 -5.351871e+000 -8.065453e+001 -2.289722e+001 7.687620e+001 1.200748e+001 -1.343800e+002 -4.933636e+000 -6.814849e+001
45744375 -5.418531e+000 -8.114904e+001 -2.279885e+001 7.630903e+001 1.203682e+001 -1.349186e+002 -4.996737e+000 -6.844903e+001
46116562.5 -5.486054e+000 -8.138579e+001 -2.277454e+001 7.565461e+001 1.208426e+001 -1.354134e+002 -5.085561e+000 -6.875712e+001
46488750 -5.563818e+000 -8.204275e+001 -2.278451e+001 7.446591e+001 1.212547e+001 -1.357894e+002 -5.124460e+000 -6.906743e+001
46860937.5 -5.637760e+000 -8.235129e+001 -2.271735e+001 7.407387e+001 1.216360e+001 -1.361654e+002 -5.211311e+000 -6.937804e+001
47233125 -5.685652e+000 -8.261182e+001 -2.267829e+001 7.327842e+001 1.219119e+001 -1.365722e+002 -5.300723e+000 -6.966640e+001
47605312.5 -5.760143e+000 -8.297711e+001 -2.258602e+001 7.345186e+001 1.222616e+001 -1.369819e+002 -5.328756e+000 -7.004089e+001
47977500 -5.816222e+000 -8.339582e+001 -2.256349e+001 7.240374e+001 1.227320e+001 -1.374198e+002 -5.420038e+000 -7.010571e+001
48349687.5 -5.872983e+000 -8.382866e+001 -2.250039e+001 7.178003e+001 1.228555e+001 -1.378702e+002 -5.488328e+000 -7.039912e+001
48721875 -5.949902e+000 -8.419219e+001 -2.252694e+001 7.073505e+001 1.231936e+001 -1.381408e+002 -5.537429e+000 -7.049104e+001
49094062.5 -6.024129e+000 -8.452429e+001 -2.238053e+001 7.036236e+001 1.236278e+001 -1.385600e+002 -5.615407e+000 -7.074770e+001
49466250 -6.060429e+000 -8.498154e+001 -2.232385e+001 7.017593e+001 1.241460e+001 -1.388591e+002 -5.655475e+000 -7.112122e+001
49838437.5 -6.148325e+000 -8.535860e+001 -2.234235e+001 7.011899e+001 1.242990e+001 -1.392889e+002 -5.710192e+000 -7.138186e+001
50210625 -6.228072e+000 -8.560565e+001 -2.234415e+001 6.956698e+001 1.244247e+001 -1.397108e+002 -5.806843e+000 -7.148882e+001
50582812.5 -6.284501e+000 -8.599366e+001 -2.223785e+001 6.865835e+001 1.249000e+001 -1.401635e+002 -5.869366e+000 -7.174577e+001
50955000 -6.374662e+000 -8.633878e+001 -2.213858e+001 6.766690e+001 1.254146e+001 -1.405889e+002 -5.918812e+000 -7.208019e+001
51327187.5 -6.434994e+000 -8.673412e+001 -2.214097e+001 6.745892e+001 1.254060e+001 -1.409804e+002 -5.999632e+000 -7.240198e+001
51699375 -6.490305e+000 -8.691052e+001 -2.200995e+001 6.691125e+001 1.254598e+001 -1.411842e+002 -6.090604e+000 -7.242831e+001
52071562.5 -6.563436e+000 -8.737303e+001 -2.212364e+001 6.618858e+001 1.259236e+001 -1.416071e+002 -6.116861e+000 -7.260279e+001
52443750 -6.636133e+000 -8.773232e+001 -2.205469e+001 6.591096e+001 1.263128e+001 -1.419683e+002 -6.163012e+000 -7.291003e+001
52815937.5 -6.685532e+000 -8.809322e+001 -2.198660e+001 6.525511e+001 1.267144e+001 -1.422984e+002 -6.256575e+000 -7.308070e+001
53188125 -6.738490e+000 -8.826721e+001 -2.197036e+001 6.503940e+001 1.268523e+001 -1.426630e+002 -6.317764e+000 -7.316141e+001
53560312.5 -6.823050e+000 -8.879124e+001 -2.191523e+001 6.431943e+001 1.269482e+001 -1.430710e+002 -6.384721e+000 -7.345159e+001
53932500 -6.889490e+000 -8.886394e+001 -2.189845e+001 6.377683e+001 1.272399e+001 -1.433768e+002 -6.456091e+000 -7.360206e+001
54304687.5 -6.927856e+000 -8.924458e+001 -2.184661e+001 6.339383e+001 1.274461e+001 -1.437009e+002 -6.519941e+000 -7.373938e+001
54676875 -7.018551e+000 -8.952979e+001 -2.182342e+001 6.275184e+001 1.277501e+001 -1.441011e+002 -6.566098e+000 -7.403647e+001
55049062.5 -7.063586e+000 -8.989432e+001 -2.166903e+001 6.194443e+001 1.280289e+001 -1.444859e+002 -6.622177e+000 -7.418906e+001
55421250 -7.152023e+000 -9.004726e+001 -2.167788e+001 6.169459e+001 1.283274e+001 -1.447036e+002 -6.701563e+000 -7.424364e+001
55793437.5 -7.216509e+000 -9.048082e+001 -2.165577e+001 6.160930e+001 1.283904e+001 -1.451873e+002 -6.782653e+000 -7.464419e+001
56165625 -7.246244e+000 -9.087606e+001 -2.165041e+001 6.040955e+001 1.289594e+001 -1.454879e+002 -6.824406e+000 -7.472109e+001
56537812.5 -7.325236e+000 -9.116846e+001 -2.170044e+001 5.995434e+001 1.289369e+001 -1.457703e+002 -6.887069e+000 -7.487241e+001
56910000 -7.381558e+000 -9.130502e+001 -2.157547e+001 5.966713e+001 1.291207e+001 -1.461042e+002 -6.952419e+000 -7.492574e+001
57282187.5 -7.464616e+000 -9.164571e+001 -2.158290e+001 5.919825e+001 1.292695e+001 -1.464108e+002 -7.024259e+000 -7.517900e+001
57654375 -7.516610e+000 -9.194881e+001 -2.155470e+001 5.877485e+001 1.296865e+001 -1.467133e+002 -7.066259e+000 -7.535983e+001
58026562.5 -7.581782e+000 -9.233432e+001 -2.148071e+001 5.868660e+001 1.297447e+001 -1.471018e+002 -7.108221e+000 -7.560941e+001
58398750 -7.637412e+000 -9.247717e+001 -2.150443e+001 5.854544e+001 1.300917e+001 -1.472959e+002 -7.174549e+000 -7.562994e+001
58770937.5 -7.723603e+000 -9.271093e+001 -2.146483e+001 5.758012e+001 1.301096e+001 -1.477309e+002 -7.269198e+000 -7.577583e+001
59143125 -7.768522e+000 -9.311749e+001 -2.141837e+001 5.680399e+001 1.305724e+001 -1.480076e+002 -7.282527e+000 -7.599487e+001
59515312.5 -7.819404e+000 -9.337431e+001 -2.138065e+001 5.687671e+001 1.305122e+001 -1.483459e+002 -7.383976e+000 -7.608779e+001
59887500 -7.900167e+000 -9.360080e+001 -2.132394e+001 5.634637e+001 1.308705e+001 -1.485970e+002 -7.394731e+000 -7.621356e+001
60259687.5 -7.951661e+000 -9.388799e+001 -2.133816e+001 5.614967e+001 1.309416e+001 -1.488594e+002 -7.488520e+000 -7.632803e+001
60631875 -8.020900e+000 -9.404388e+001 -2.135040e+001 5.545409e+001 1.310564e+001 -1.492992e+002 -7.548498e+000 -7.658273e+001
61004062.5 -8.069738e+000 -9.420992e+001 -2.128948e+001 5.488741e+001 1.312072e+001 -1.495098e+002 -7.585652e+000 -7.664682e+001
61376250 -8.132217e+000 -9.463795e+001 -2.123836e+001 5.456941e+001 1.315749e+001 -1.498285e+002 -7.642420e+000 -7.675590e+001
61748437.5 -8.214407e+000 -9.495818e+001 -2.120955e+001 5.415663e+001 1.316047e+001 -1.501234e+002 -7.704996e+000 -7.706095e+001
62120625 -8.247954e+000 -9.515522e+001 -2.116458e+001 5.376988e+001 1.318298e+001 -1.505242e+002 -7.771585e+000 -7.707555e+001
62492812.5 -8.320157e+000 -9.531522e+001 -2.111642e+001 5.340328e+001 1.319499e+001 -1.507252e+002 -7.818708e+000 -7.725415e+001
62865000 -8.401830e+000 -9.565977e+001 -2.120500e+001 5.282349e+001 1.321202e+001 -1.509534e+002 -7.892556e+000 -7.722014e+001
63237187.5 -8.432286e+000 -9.593443e+001 -2.109896e+001 5.253086e+001 1.323069e+001 -1.512789e+002 -7.931850e+000 -7.734349e+001
63609375 -8.506543e+000 -9.606244e+001 -2.109340e+001 5.235881e+001 1.324420e+001 -1.516344e+002 -8.008368e+000 -7.753620e+001
63981562.5 -8.563426e+000 -9.632000e+001 -2.105855e+001 5.192091e+001 1.326117e+001 -1.519679e+002 -8.046911e+000 -7.772324e+001
64353750 -8.615080e+000 -9.658292e+001 -2.105845e+001 5.146411e+001 1.326360e+001 -1.522153e+002 -8.113797e+000 -7.782114e+001
64725937.5 -8.689641e+000 -9.677898e+001 -2.104055e+001 5.111378e+001 1.328102e+001 -1.524827e+002 -8.182853e+000 -7.769143e+001
65098125 -8.746682e+000 -9.704034e+001 -2.106460e+001 5.069376e+001 1.329764e+001 -1.527631e+002 -8.209836e+000 -7.789908e+001
65470312.5 -8.806044e+000 -9.720142e+001 -2.095341e+001 5.025975e+001 1.332385e+001 -1.531201e+002 -8.285192e+000 -7.807836e+001
65842500 -8.825779e+000 -9.755774e+001 -2.101335e+001 4.987302e+001 1.332195e+001 -1.532663e+002 -8.328797e+000 -7.807401e+001
66214687.5 -8.905422e+000 -9.776675e+001 -2.094463e+001 4.940367e+001 1.335555e+001 -1.536051e+002 -8.400175e+000 -7.840676e+001
66586875 -8.971820e+000 -9.793566e+001 -2.096556e+001 4.929502e+001 1.335953e+001 -1.538975e+002 -8.440907e+000 -7.830354e+001
66959062.5 -9.024548e+000 -9.810644e+001 -2.093444e+001 4.870778e+001 1.335308e+001 -1.541674e+002 -8.506451e+000 -7.856530e+001
67331250 -9.094645e+000 -9.826413e+001 -2.089554e+001 4.833958e+001 1.337703e+001 -1.544632e+002 -8.560368e+000 -7.851085e+001
67703437.5 -9.144104e+000 -9.864518e+001 -2.085592e+001 4.795589e+001 1.340333e+001 -1.546625e+002 -8.595780e+000 -7.863002e+001
68075625 -9.213273e+000 -9.889878e+001 -2.087499e+001 4.779693e+001 1.341068e+001 -1.548806e+002 -8.653236e+000 -7.865022e+001
68447812.5 -9.251832e+000 -9.897031e+001 -2.091346e+001 4.747865e+001 1.341205e+001 -1.551726e+002 -8.704730e+000 -7.875697e+001
68820000 -9.342546e+000 -9.926192e+001 -2.083770e+001 4.762044e+001 1.343145e+001 -1.555637e+002 -8.771440e+000 -7.889847e+001
69192187.5 -9.355781e+000 -9.949519e+001 -2.081260e+001 4.654009e+001 1.343870e+001 -1.557754e+002 -8.805884e+000 -7.891962e+001
69564375 -9.423284e+000 -9.963081e+001 -2.079907e+001 4.644150e+001 1.346077e+001 -1.560210e+002 -8.881321e+000 -7.916201e+001
69936562.5 -9.473855e+000 -9.983862e+001 -2.076412e+001 4.599841e+001 1.345680e+001 -1.561451e+002 -8.924623e+000 -7.918266e+001
70308750 -9.552997e+000 -1.001412e+002 -2.073713e+001 4.600663e+001 1.345908e+001 -1.565371e+002 -8.994237e+000 -7.917324e+001
70680937.5 -9.603098e+000 -1.002604e+002 -2.072312e+001 4.542363e+001 1.347590e+001 -1.567211e+002 -9.032833e+000 -7.906226e+001
71053125 -9.659515e+000 -1.004485e+002 -2.076515e+001 4.473594e+001 1.348564e+001 -1.569261e+002 -9.081599e+000 -7.922252e+001
71425312.5 -9.730996e+000 -1.006107e+002 -2.070210e+001 4.455089e+001 1.351643e+001 -1.572525e+002 -9.113744e+000 -7.940385e+001
71797500 -9.748073e+000 -1.008519e+002 -2.067149e+001 4.402642e+001 1.352479e+001 -1.575475e+002 -9.182489e+000 -7.949803e+001
72169687.5 -9.810269e+000 -1.010177e+002 -2.072572e+001 4.386225e+001 1.354133e+001 -1.575847e+002 -9.219828e+000 -7.964249e+001
72541875 -9.869138e+000 -1.013039e+002 -2.063600e+001 4.356600e+001 1.353102e+001 -1.580435e+002 -9.296852e+000 -7.951370e+001
72914062.5 -9.922345e+000 -1.013697e+002 -2.061092e+001 4.324902e+001 1.352595e+001 -1.581989e+002 -9.347614e+000 -7.971087e+001
73286250 -1.000334e+001 -1.016937e+002 -2.061737e+001 4.302033e+001 1.354830e+001 -1.584882e+002 -9.378663e+000 -7.989581e+001
73658437.5 -1.001762e+001 -1.017454e+002 -2.055905e+001 4.232117e+001 1.356105e+001 -1.587892e+002 -9.427089e+000 -7.985338e+001
74030625 -1.011846e+001 -1.020271e+002 -2.057256e+001 4.215257e+001 1.357966e+001 -1.590061e+002 -9.473083e+000 -7.996829e+001
74402812.5 -1.015163e+001 -1.021874e+002 -2.055116e+001 4.199643e+001 1.357481e+001 -1.589823e+002 -9.524779e+000 -7.993269e+001
74775000 -1.020659e+001 -1.023966e+002 -2.055841e+001 4.184429e+001 1.359037e+001 -1.594559e+002 -9.582402e+000 -7.996805e+001
75147187.5 -1.026065e+001 -1.025545e+002 -2.051784e+001 4.150261e+001 1.360304e+001 -1.596484e+002 -9.598629e+000 -8.010773e+001
75519375 -1.030529e+001 -1.028281e+002 -2.053043e+001 4.094246e+001 1.360194e+001 -1.598621e+002 -9.668169e+000 -8.016458e+001
75891562.5 -1.037775e+001 -1.029991e+002 -2.050208e+001 4.078485e+001 1.362150e+001 -1.602846e+002 -9.720442e+000 -8.015703e+001
76263750 -1.041400e+001 -1.030307e+002 -2.051253e+001 4.043776e+001 1.364468e+001 -1.603668e+002 -9.743068e+000 -8.006490e+001
76635937.5 -1.046579e+001 -1.033553e+002 -2.048350e+001 4.030227e+001 1.364191e+001 -1.604734e+002 -9.790872e+000 -8.021280e+001
77008125 -1.049565e+001 -1.035025e+002 -2.047715e+001 3.942867e+001 1.365226e+001 -1.606891e+002 -9.843334e+000 -8.022266e+001
77380312.5 -1.056285e+001 -1.036634e+002 -2.045126e+001 3.930950e+001 1.365739e+001 -1.610807e+002 -9.910517e+000 -8.040192e+001
77752500 -1.061974e+001 -1.037717e+002 -2.043998e+001 3.910545e+001 1.366435e+001 -1.613238e+002 -9.944186e+000 -8.036919e+001
78124687.5 -1.067905e+001 -1.039388e+002 -2.041258e+001 3.901880e+001 1.368387e+001 -1.613914e+002 -9.981345e+000 -8.059855e+001
78496875 -1.071780e+001 -1.043153e+002 -2.039916e+001 3.862731e+001 1.367554e+001 -1.616419e+002 -1.003353e+001 -8.051375e+001
78869062.5 -1.079818e+001 -1.042661e+002 -2.046510e+001 3.839975e+001 1.367101e+001 -1.619572e+002 -1.007694e+001 -8.067574e+001
79241250 -1.081668e+001 -1.043988e+002 -2.039025e+001 3.803078e+001 1.369565e+001 -1.620782e+002 -1.012712e+001 -8.066711e+001
79613437.5 -1.087691e+001 -1.046373e+002 -2.042052e+001 3.757060e+001 1.369629e+001 -1.623401e+002 -1.017576e+001 -8.070059e+001
79985625 -1.093394e+001 -1.047342e+002 -2.039199e+001 3.746608e+001 1.371768e+001 -1.625363e+002 -1.022395e+001 -8.072273e+001
80357812.5 -1.100307e+001 -1.049702e+002 -2.038063e+001 3.734564e+001 1.371794e+001 -1.627722e+002 -1.024668e+001 -8.065544e+001
80730000 -1.104101e+001 -1.050880e+002 -2.038041e+001 3.670196e+001 1.373462e+001 -1.629950e+002 -1.029538e+001 -8.070879e+001
81102187.5 -1.109221e+001 -1.051482e+002 -2.034212e+001 3.690786e+001 1.373344e+001 -1.630353e+002 -1.034658e+001 -8.083382e+001
81474375 -1.111447e+001 -1.053275e+002 -2.036268e+001 3.627372e+001 1.373106e+001 -1.633408e+002 -1.038420e+001 -8.088560e+001
81846562.5 -1.117326e+001 -1.055347e+002 -2.032210e+001 3.598756e+001 1.376415e+001 -1.636090e+002 -1.044669e+001 -8.080230e+001
82218750 -1.125107e+001 -1.057997e+002 -2.032343e+001 3.577806e+001 1.376494e+001 -1.639038e+002 -1.043493e+001 -8.078603e+001
82590937.5 -1.130362e+001 -1.057765e+002 -2.030865e+001 3.556385e+001 1.375929e+001 -1.640394e+002 -1.050671e+001 -8.109332e+001
82963125 -1.134848e+001 -1.061375e+002 -2.030330e+001 3.484406e+001 1.378006e+001 -1.643882e+002 -1.051637e+001 -8.104817e+001
83335312.5 -1.138693e+001 -1.061454e+002 -2.027700e+001 3.514715e+001 1.377320e+001 -1.644432e+002 -1.060104e+001 -8.092619e+001
83707500 -1.144921e+001 -1.063297e+002 -2.023785e+001 3.472844e+001 1.379016e+001 -1.647312e+002 -1.061454e+001 -8.104829e+001
84079687.5 -1.149536e+001 -1.064956e+002 -2.028726e+001 3.445059e+001 1.379077e+001 -1.649399e+002 -1.066148e+001 -8.098996e+001
84451875 -1.153336e+001 -1.066236e+002 -2.026403e+001 3.411244e+001 1.379447e+001 -1.650100e+002 -1.071056e+001 -8.095352e+001
84824062.5 -1.158262e+001 -1.067725e+002 -2.019866e+001 3.397609e+001 1.381421e+001 -1.653017e+002 -1.076068e+001 -8.102296e+001
85196250 -1.162021e+001 -1.067753e+002 -2.021474e+001 3.383857e+001 1.380969e+001 -1.655083e+002 -1.075966e+001 -8.110275e+001
85568437.5 -1.168877e+001 -1.071133e+002 -2.019137e+001 3.334544e+001 1.380026e+001 -1.656439e+002 -1.081557e+001 -8.099207e+001
85940625 -1.173430e+001 -1.072979e+002 -2.018365e+001 3.301793e+001 1.381637e+001 -1.658884e+002 -1.086351e+001 -8.119551e+001
86312812.5 -1.177205e+001 -1.073684e+002 -2.018460e+001 3.290823e+001 1.381819e+001 -1.660603e+002 -1.093604e+001 -8.117191e+001
86685000 -1.180734e+001 -1.074529e+002 -2.016146e+001 3.277264e+001 1.382672e+001 -1.662506e+002 -1.097169e+001 -8.117507e+001
87057187.5 -1.186207e+001 -1.075783e+002 -2.018965e+001 3.217095e+001 1.380453e+001 -1.665261e+002 -1.099521e+001 -8.109418e+001
87429375 -1.190842e+001 -1.076405e+002 -2.014495e+001 3.214598e+001 1.385207e+001 -1.665853e+002 -1.101510e+001 -8.116923e+001
87801562.5 -1.196033e+001 -1.078400e+002 -2.014782e+001 3.198767e+001 1.384867e+001 -1.667911e+002 -1.107735e+001 -8.107076e+001
88173750 -1.202616e+001 -1.080177e+002 -2.016983e+001 3.163503e+001 1.384666e+001 -1.670058e+002 -1.112144e+001 -8.128658e+001
88545937.5 -1.204638e+001 -1.081457e+002 -2.014795e+001 3.128777e+001 1.387548e+001 -1.673389e+002 -1.112594e+001 -8.138665e+001
88918125 -1.210410e+001 -1.083649e+002 -2.009340e+001 3.095429e+001 1.386653e+001 -1.674591e+002 -1.118608e+001 -8.129799e+001
89290312.5 -1.213229e+001 -1.084787e+002 -2.011294e+001 3.080820e+001 1.387896e+001 -1.674709e+002 -1.121490e+001 -8.132428e+001
89662500 -1.219657e+001 -1.084660e+002 -2.011836e+001 3.061456e+001 1.388112e+001 -1.678751e+002 -1.126313e+001 -8.136859e+001
90034687.5 -1.223861e+001 -1.086311e+002 -2.009506e+001 3.042182e+001 1.388240e+001 -1.678584e+002 -1.128093e+001 -8.144209e+001
90406875 -1.226355e+001 -1.087060e+002 -2.009089e+001 2.994443e+001 1.388360e+001 -1.681197e+002 -1.130647e+001 -8.130276e+001
90779062.5 -1.232837e+001 -1.088520e+002 -2.007356e+001 2.972078e+001 1.389370e+001 -1.683738e+002 -1.136853e+001 -8.147888e+001
91151250 -1.237482e+001 -1.090127e+002 -2.007660e+001 2.980303e+001 1.389243e+001 -1.684552e+002 -1.140021e+001 -8.139804e+001
91523437.5 -1.244262e+001 -1.091674e+002 -2.006035e+001 2.936504e+001 1.389174e+001 -1.688175e+002 -1.146219e+001 -8.133665e+001
91895625 -1.243989e+001 -1.093166e+002 -2.006031e+001 2.934181e+001 1.390067e+001 -1.689612e+002 -1.145565e+001 -8.157419e+001
92267812.5 -1.249178e+001 -1.093134e+002 -2.004792e+001 2.892695e+001 1.391889e+001 -1.689553e+002 -1.151023e+001 -8.131450e+001
92640000 -1.254205e+001 -1.094386e+002 -2.002626e+001 2.879235e+001 1.391713e+001 -1.691456e+002 -1.155221e+001 -8.138509e+001
93012187.5 -1.261633e+001 -1.093333e+002 -2.003483e+001 2.861659e+001 1.392301e+001 -1.694061e+002 -1.161103e+001 -8.152759e+001
93384375 -1.264818e+001 -1.097584e+002 -2.001781e+001 2.777465e+001 1.391416e+001 -1.696286e+002 -1.162099e+001 -8.148937e+001
93756562.5 -1.268335e+001 -1.097846e+002 -2.006011e+001 2.763043e+001 1.393617e+001 -1.697521e+002 -1.165077e+001 -8.152523e+001
94128750 -1.271824e+001 -1.100592e+002 -2.000777e+001 2.762857e+001 1.392200e+001 -1.699042e+002 -1.170383e+001 -8.152977e+001
94500937.5 -1.276919e+001 -1.098975e+002 -2.002693e+001 2.754423e+001 1.393376e+001 -1.702076e+002 -1.171379e+001 -8.134871e+001
94873125 -1.282348e+001 -1.103020e+002 -1.999889e+001 2.733063e+001 1.393604e+001 -1.702398e+002 -1.176198e+001 -8.142411e+001
95245312.5 -1.286463e+001 -1.104636e+002 -1.997944e+001 2.716021e+001 1.395005e+001 -1.706109e+002 -1.179634e+001 -8.146449e+001
95617500 -1.291139e+001 -1.105070e+002 -1.996897e+001 2.681497e+001 1.393859e+001 -1.706332e+002 -1.185597e+001 -8.155196e+001
95989687.5 -1.292932e+001 -1.105227e+002 -1.997065e+001 2.677742e+001 1.396245e+001 -1.708164e+002 -1.184254e+001 -8.149893e+001
96361875 -1.298289e+001 -1.105485e+002 -1.996758e+001 2.640520e+001 1.394755e+001 -1.709198e+002 -1.188787e+001 -8.138008e+001
96734062.5 -1.302536e+001 -1.108013e+002 -1.997396e+001 2.620485e+001 1.395881e+001 -1.710680e+002 -1.190856e+001 -8.145226e+001
97106250 -1.305493e+001 -1.109576e+002 -1.995919e+001 2.581839e+001 1.396116e+001 -1.713798e+002 -1.196354e+001 -8.161799e+001
97478437.5 -1.311536e+001 -1.109411e+002 -1.995960e+001 2.552347e+001 1.398843e+001 -1.714610e+002 -1.199329e+001 -8.155149e+001
97850625 -1.316837e+001 -1.109994e+002 -1.997183e+001 2.543357e+001 1.397676e+001 -1.717427e+002 -1.198572e+001 -8.147669e+001
98222812.5 -1.319757e+001 -1.112456e+002 -1.996549e+001 2.512986e+001 1.395997e+001 -1.718670e+002 -1.205075e+001 -8.155669e+001
98595000 -1.322979e+001 -1.114249e+002 -1.994580e+001 2.505925e+001 1.399529e+001 -1.720895e+002 -1.208619e+001 -8.148969e+001
98967187.5 -1.328886e+001 -1.115191e+002 -1.991762e+001 2.477718e+001 1.398751e+001 -1.722776e+002 -1.213058e+001 -8.142623e+001
99339375 -1.331966e+001 -1.115111e+002 -1.991616e+001 2.467047e+001 1.398593e+001 -1.724061e+002 -1.212915e+001 -8.138486e+001
99711562.5 -1.333493e+001 -1.116518e+002 -1.987253e+001 2.456942e+001 1.400038e+001 -1.725383e+002 -1.220274e+001 -8.157707e+001
100083750 -1.339653e+001 -1.117964e+002 -1.989076e+001 2.442770e+001 1.400849e+001 -1.727639e+002 -1.220483e+001 -8.150296e+001
100455937.5 -1.344106e+001 -1.119580e+002 -1.987812e+001 2.387815e+001 1.401178e+001 -1.727916e+002 -1.223584e+001 -8.149100e+001
100828125 -1.347911e+001 -1.119234e+002 -1.988861e+001 2.385325e+001 1.402596e+001 -1.729837e+002 -1.224554e+001 -8.149915e+001
101200312.5 -1.351504e+001 -1.121202e+002 -1.987961e+001 2.365847e+001 1.402878e+001 -1.733148e+002 -1.230326e+001 -8.159351e+001
