!Agilent Technologies,E8364A,US41440144,A.06.04.32
!Agilent E8364A: A.06.04.32
!Date: Thursday, November 08, 2018 14:19:44
!Correction: S11(Full 2 Port(1,2)) S21(Full 2 Port(1,2)) S12(Full 2 Port(1,2)) S22(Full 2 Port(1,2)) 
!S2P File: Measurements: S11, S21, S12, S22:
# Hz S  dB   R 50
45000000 -8.996860e-002 -1.964936e+001 -5.036302e+001 1.598729e+002 -1.385600e+001 -5.190516e+001 -9.481988e-002 -1.934843e+001
45372187.5 -8.698102e-002 -1.979361e+001 -4.722199e+001 1.522718e+002 -1.367348e+001 -5.200747e+001 -6.727558e-002 -1.959189e+001
45744375 -8.274759e-002 -2.001146e+001 -4.631191e+001 1.504470e+002 -1.362417e+001 -5.196466e+001 -7.338701e-002 -1.970980e+001
46116562.5 -7.844315e-002 -2.018311e+001 -4.797195e+001 1.542658e+002 -1.348890e+001 -5.193791e+001 -9.442112e-002 -1.991063e+001
46488750 -8.726174e-002 -2.037615e+001 -4.803879e+001 1.563226e+002 -1.333711e+001 -5.202410e+001 -6.791593e-002 -1.998698e+001
46860937.5 -9.484219e-002 -2.048711e+001 -4.788447e+001 1.583414e+002 -1.321382e+001 -5.206560e+001 -7.524806e-002 -2.007920e+001
47233125 -8.592401e-002 -2.067961e+001 -4.851321e+001 1.690231e+002 -1.311360e+001 -5.212195e+001 -8.573227e-002 -2.041970e+001
47605312.5 -9.710685e-002 -2.076323e+001 -4.798907e+001 1.596155e+002 -1.297116e+001 -5.192363e+001 -7.710126e-002 -2.056219e+001
47977500 -8.768354e-002 -2.097890e+001 -4.788260e+001 1.536738e+002 -1.285609e+001 -5.225107e+001 -9.804694e-002 -2.081271e+001
48349687.5 -1.060646e-001 -2.115379e+001 -4.747219e+001 1.560296e+002 -1.276709e+001 -5.239011e+001 -1.101150e-001 -2.083414e+001
48721875 -9.709988e-002 -2.131089e+001 -4.771966e+001 1.636806e+002 -1.265207e+001 -5.197778e+001 -8.495378e-002 -2.103008e+001
49094062.5 -9.651905e-002 -2.155210e+001 -4.761818e+001 1.562982e+002 -1.252540e+001 -5.216888e+001 -9.296760e-002 -2.113654e+001
49466250 -8.658143e-002 -2.170515e+001 -4.733787e+001 1.588977e+002 -1.239448e+001 -5.228968e+001 -8.711920e-002 -2.130426e+001
49838437.5 -9.145263e-002 -2.188320e+001 -4.658865e+001 1.529813e+002 -1.233337e+001 -5.243216e+001 -7.418041e-002 -2.143992e+001
50210625 -9.390191e-002 -2.200886e+001 -4.751370e+001 1.631685e+002 -1.215857e+001 -5.200284e+001 -9.491891e-002 -2.155965e+001
50582812.5 -1.122358e-001 -2.217190e+001 -4.674759e+001 1.584006e+002 -1.204959e+001 -5.219300e+001 -1.057648e-001 -2.168949e+001
50955000 -1.007724e-001 -2.232038e+001 -4.550386e+001 1.523647e+002 -1.194106e+001 -5.226488e+001 -1.111018e-001 -2.193705e+001
51327187.5 -9.831762e-002 -2.254896e+001 -4.689322e+001 1.522882e+002 -1.179874e+001 -5.244706e+001 -1.127616e-001 -2.217907e+001
51699375 -1.026051e-001 -2.266687e+001 -4.557164e+001 1.566393e+002 -1.171730e+001 -5.244773e+001 -1.231215e-001 -2.241460e+001
52071562.5 -8.928454e-002 -2.287036e+001 -4.603725e+001 1.633425e+002 -1.157022e+001 -5.244371e+001 -1.055306e-001 -2.250018e+001
52443750 -1.066019e-001 -2.304649e+001 -4.571268e+001 1.576440e+002 -1.150596e+001 -5.251470e+001 -1.010055e-001 -2.266256e+001
52815937.5 -1.045931e-001 -2.319750e+001 -4.537268e+001 1.601618e+002 -1.135429e+001 -5.248197e+001 -1.225116e-001 -2.280605e+001
53188125 -1.030602e-001 -2.340949e+001 -4.582929e+001 1.575654e+002 -1.123893e+001 -5.266043e+001 -1.045557e-001 -2.302170e+001
53560312.5 -1.090136e-001 -2.360779e+001 -4.550533e+001 1.544684e+002 -1.114825e+001 -5.270250e+001 -1.156034e-001 -2.324371e+001
53932500 -1.148125e-001 -2.368846e+001 -4.575524e+001 1.565687e+002 -1.105159e+001 -5.262951e+001 -1.227428e-001 -2.332383e+001
54304687.5 -1.064121e-001 -2.387092e+001 -4.590358e+001 1.529049e+002 -1.092996e+001 -5.286036e+001 -1.194177e-001 -2.345721e+001
54676875 -1.150873e-001 -2.405039e+001 -4.525424e+001 1.568313e+002 -1.082702e+001 -5.286088e+001 -1.191817e-001 -2.358716e+001
55049062.5 -1.118251e-001 -2.428900e+001 -4.590264e+001 1.519348e+002 -1.071163e+001 -5.279056e+001 -1.149585e-001 -2.378604e+001
55421250 -1.195862e-001 -2.438193e+001 -4.556833e+001 1.537500e+002 -1.059624e+001 -5.284282e+001 -1.222921e-001 -2.394195e+001
55793437.5 -1.185581e-001 -2.444747e+001 -4.452469e+001 1.480089e+002 -1.049525e+001 -5.306807e+001 -1.229706e-001 -2.414076e+001
56165625 -1.169765e-001 -2.478427e+001 -4.505722e+001 1.545507e+002 -1.039789e+001 -5.304722e+001 -1.315248e-001 -2.432605e+001
56537812.5 -1.236527e-001 -2.489587e+001 -4.528596e+001 1.592035e+002 -1.028442e+001 -5.316930e+001 -1.357671e-001 -2.452112e+001
56910000 -1.261261e-001 -2.506627e+001 -4.648640e+001 1.556251e+002 -1.021568e+001 -5.317050e+001 -1.359209e-001 -2.460223e+001
57282187.5 -1.256823e-001 -2.518099e+001 -4.500723e+001 1.528429e+002 -1.009365e+001 -5.328242e+001 -1.493607e-001 -2.487043e+001
57654375 -1.326518e-001 -2.540870e+001 -4.450499e+001 1.534172e+002 -9.999858e+000 -5.331274e+001 -1.398904e-001 -2.496655e+001
58026562.5 -1.303444e-001 -2.559418e+001 -4.395414e+001 1.502902e+002 -9.867028e+000 -5.336885e+001 -1.260365e-001 -2.515354e+001
58398750 -1.285636e-001 -2.575048e+001 -4.406446e+001 1.546234e+002 -9.770027e+000 -5.335552e+001 -1.357609e-001 -2.523722e+001
58770937.5 -1.375325e-001 -2.588665e+001 -4.418828e+001 1.486278e+002 -9.696885e+000 -5.378910e+001 -1.542297e-001 -2.552292e+001
59143125 -1.381277e-001 -2.607070e+001 -4.373862e+001 1.559146e+002 -9.590046e+000 -5.364862e+001 -1.432435e-001 -2.560839e+001
59515312.5 -1.397679e-001 -2.622672e+001 -4.392232e+001 1.558987e+002 -9.491668e+000 -5.375668e+001 -1.525462e-001 -2.567670e+001
59887500 -1.467370e-001 -2.640385e+001 -4.363549e+001 1.493970e+002 -9.381319e+000 -5.369938e+001 -1.434240e-001 -2.590232e+001
60259687.5 -1.431717e-001 -2.660758e+001 -4.351501e+001 1.543985e+002 -9.273883e+000 -5.385020e+001 -1.563342e-001 -2.614696e+001
60631875 -1.509829e-001 -2.676172e+001 -4.433728e+001 1.507589e+002 -9.161417e+000 -5.401868e+001 -1.470284e-001 -2.637184e+001
61004062.5 -1.400141e-001 -2.684680e+001 -4.395662e+001 1.521106e+002 -9.096231e+000 -5.400855e+001 -1.645596e-001 -2.647886e+001
61376250 -1.497059e-001 -2.712252e+001 -4.345609e+001 1.500205e+002 -8.999063e+000 -5.412190e+001 -1.475581e-001 -2.656680e+001
61748437.5 -1.627062e-001 -2.726925e+001 -4.409272e+001 1.489245e+002 -8.909089e+000 -5.425811e+001 -1.647496e-001 -2.677700e+001
62120625 -1.494367e-001 -2.742109e+001 -4.321030e+001 1.499672e+002 -8.803747e+000 -5.432386e+001 -1.556337e-001 -2.692559e+001
62492812.5 -1.627807e-001 -2.757454e+001 -4.299662e+001 1.490335e+002 -8.708793e+000 -5.445599e+001 -1.568966e-001 -2.710246e+001
62865000 -1.496232e-001 -2.774289e+001 -4.290056e+001 1.497726e+002 -8.595834e+000 -5.433488e+001 -1.699329e-001 -2.723390e+001
63237187.5 -1.605901e-001 -2.791674e+001 -4.310970e+001 1.456781e+002 -8.521633e+000 -5.456916e+001 -1.637299e-001 -2.737256e+001
63609375 -1.654562e-001 -2.810869e+001 -4.252210e+001 1.493064e+002 -8.428137e+000 -5.465615e+001 -1.850663e-001 -2.760784e+001
63981562.5 -1.665495e-001 -2.824023e+001 -4.237644e+001 1.445515e+002 -8.321557e+000 -5.469225e+001 -1.649460e-001 -2.767864e+001
64353750 -1.637788e-001 -2.836538e+001 -4.208088e+001 1.468875e+002 -8.253531e+000 -5.487019e+001 -1.869451e-001 -2.809038e+001
64725937.5 -1.663956e-001 -2.857361e+001 -4.263239e+001 1.494798e+002 -8.143113e+000 -5.493450e+001 -1.729329e-001 -2.816589e+001
65098125 -1.790569e-001 -2.873597e+001 -4.233411e+001 1.499274e+002 -8.046874e+000 -5.500002e+001 -1.692941e-001 -2.823819e+001
65470312.5 -1.748731e-001 -2.895939e+001 -4.207155e+001 1.451038e+002 -7.938024e+000 -5.506004e+001 -1.731473e-001 -2.831030e+001
65842500 -1.697188e-001 -2.911403e+001 -4.208960e+001 1.487085e+002 -7.855580e+000 -5.522926e+001 -1.722833e-001 -2.859585e+001
66214687.5 -1.810608e-001 -2.930285e+001 -4.210955e+001 1.465726e+002 -7.750913e+000 -5.539776e+001 -1.967658e-001 -2.878532e+001
66586875 -1.779549e-001 -2.942900e+001 -4.147951e+001 1.510717e+002 -7.695900e+000 -5.548352e+001 -1.971368e-001 -2.898070e+001
66959062.5 -1.801266e-001 -2.964789e+001 -4.216494e+001 1.464201e+002 -7.591257e+000 -5.555304e+001 -1.864966e-001 -2.913934e+001
67331250 -1.957510e-001 -2.980326e+001 -4.184257e+001 1.462715e+002 -7.503190e+000 -5.574511e+001 -1.976118e-001 -2.925679e+001
67703437.5 -1.987262e-001 -2.998206e+001 -4.175045e+001 1.503979e+002 -7.411672e+000 -5.584992e+001 -2.019343e-001 -2.943224e+001
68075625 -1.972283e-001 -3.013112e+001 -4.152718e+001 1.470628e+002 -7.334156e+000 -5.570820e+001 -2.091603e-001 -2.950273e+001
68447812.5 -1.959876e-001 -3.025679e+001 -4.127775e+001 1.498280e+002 -7.246439e+000 -5.597304e+001 -2.048075e-001 -2.971571e+001
68820000 -1.986903e-001 -3.045839e+001 -4.099197e+001 1.459147e+002 -7.155154e+000 -5.625472e+001 -2.142190e-001 -2.995426e+001
69192187.5 -1.981449e-001 -3.067184e+001 -4.091043e+001 1.485268e+002 -7.065759e+000 -5.625293e+001 -2.080828e-001 -3.016916e+001
69564375 -1.976353e-001 -3.076983e+001 -4.085306e+001 1.471950e+002 -6.964211e+000 -5.631981e+001 -2.151184e-001 -3.027152e+001
69936562.5 -1.987313e-001 -3.095873e+001 -4.039314e+001 1.470456e+002 -6.917534e+000 -5.632219e+001 -2.281714e-001 -3.038852e+001
70308750 -2.064360e-001 -3.111102e+001 -4.068635e+001 1.449506e+002 -6.810425e+000 -5.651650e+001 -2.132282e-001 -3.056660e+001
70680937.5 -2.131864e-001 -3.133763e+001 -4.099794e+001 1.468037e+002 -6.736268e+000 -5.665931e+001 -2.224337e-001 -3.067053e+001
71053125 -2.144386e-001 -3.148099e+001 -4.097242e+001 1.454993e+002 -6.646680e+000 -5.671920e+001 -2.242144e-001 -3.089872e+001
71425312.5 -2.135172e-001 -3.157689e+001 -4.074860e+001 1.462319e+002 -6.545249e+000 -5.693078e+001 -2.333671e-001 -3.108084e+001
71797500 -2.050668e-001 -3.185975e+001 -4.115232e+001 1.437677e+002 -6.486188e+000 -5.707112e+001 -2.491837e-001 -3.136459e+001
72169687.5 -2.122225e-001 -3.188094e+001 -4.044855e+001 1.451486e+002 -6.368965e+000 -5.689953e+001 -2.373430e-001 -3.140952e+001
72541875 -2.313328e-001 -3.206757e+001 -4.047755e+001 1.480248e+002 -6.326556e+000 -5.717461e+001 -2.509282e-001 -3.143256e+001
72914062.5 -2.287204e-001 -3.222760e+001 -4.039152e+001 1.454505e+002 -6.232070e+000 -5.717151e+001 -2.405896e-001 -3.170225e+001
73286250 -2.380381e-001 -3.252881e+001 -4.005285e+001 1.449779e+002 -6.149078e+000 -5.744249e+001 -2.535324e-001 -3.201020e+001
73658437.5 -2.345453e-001 -3.267251e+001 -4.041570e+001 1.424705e+002 -6.055520e+000 -5.769511e+001 -2.433694e-001 -3.213730e+001
74030625 -2.403526e-001 -3.281885e+001 -4.070560e+001 1.438642e+002 -5.970279e+000 -5.757266e+001 -2.513110e-001 -3.213160e+001
74402812.5 -2.286365e-001 -3.301314e+001 -3.962569e+001 1.406875e+002 -5.899834e+000 -5.762473e+001 -2.693647e-001 -3.251606e+001
74775000 -2.386955e-001 -3.329742e+001 -3.990036e+001 1.440593e+002 -5.815664e+000 -5.798829e+001 -2.686065e-001 -3.264813e+001
75147187.5 -2.260232e-001 -3.335266e+001 -3.976676e+001 1.429491e+002 -5.727794e+000 -5.806693e+001 -2.575582e-001 -3.284489e+001
75519375 -2.336036e-001 -3.340810e+001 -3.986528e+001 1.446104e+002 -5.669257e+000 -5.815279e+001 -2.742300e-001 -3.301495e+001
75891562.5 -2.738842e-001 -3.372572e+001 -3.933551e+001 1.437706e+002 -5.577568e+000 -5.824956e+001 -2.582472e-001 -3.296883e+001
76263750 -2.513889e-001 -3.387434e+001 -3.963390e+001 1.434895e+002 -5.497798e+000 -5.840384e+001 -2.796103e-001 -3.312038e+001
76635937.5 -2.725588e-001 -3.411270e+001 -3.942394e+001 1.419822e+002 -5.408511e+000 -5.829353e+001 -2.583469e-001 -3.332389e+001
77008125 -2.588778e-001 -3.413921e+001 -3.982085e+001 1.423504e+002 -5.344927e+000 -5.851200e+001 -2.823050e-001 -3.347927e+001
77380312.5 -2.523554e-001 -3.425838e+001 -3.963395e+001 1.430143e+002 -5.258832e+000 -5.884889e+001 -2.752619e-001 -3.361128e+001
77752500 -2.558867e-001 -3.451065e+001 -3.940513e+001 1.414459e+002 -5.167275e+000 -5.890700e+001 -2.651115e-001 -3.385004e+001
78124687.5 -2.828070e-001 -3.472095e+001 -3.913186e+001 1.415668e+002 -5.093706e+000 -5.894385e+001 -2.962695e-001 -3.409009e+001
78496875 -2.822676e-001 -3.497011e+001 -3.872307e+001 1.398973e+002 -5.027203e+000 -5.910658e+001 -2.841340e-001 -3.424270e+001
78869062.5 -2.642491e-001 -3.507037e+001 -3.877635e+001 1.441106e+002 -4.954531e+000 -5.940327e+001 -2.844657e-001 -3.464523e+001
79241250 -2.697817e-001 -3.523018e+001 -3.881607e+001 1.424270e+002 -4.861730e+000 -5.933152e+001 -2.920917e-001 -3.464753e+001
79613437.5 -2.403096e-001 -3.545242e+001 -3.867541e+001 1.405250e+002 -4.798625e+000 -5.949696e+001 -3.022273e-001 -3.473672e+001
79985625 -2.643230e-001 -3.547092e+001 -3.853560e+001 1.425837e+002 -4.728230e+000 -5.962534e+001 -3.041385e-001 -3.480311e+001
80357812.5 -2.894857e-001 -3.584153e+001 -3.880273e+001 1.404128e+002 -4.634697e+000 -5.971092e+001 -3.062478e-001 -3.505508e+001
80730000 -2.716938e-001 -3.586219e+001 -3.850698e+001 1.414716e+002 -4.553104e+000 -5.983028e+001 -3.055370e-001 -3.520991e+001
81102187.5 -3.037502e-001 -3.607172e+001 -3.853153e+001 1.386688e+002 -4.485264e+000 -5.999685e+001 -3.017831e-001 -3.548838e+001
81474375 -2.777434e-001 -3.622260e+001 -3.847878e+001 1.415276e+002 -4.410884e+000 -6.014427e+001 -2.978806e-001 -3.562274e+001
81846562.5 -2.884387e-001 -3.631328e+001 -3.821238e+001 1.392899e+002 -4.332001e+000 -6.034913e+001 -3.363475e-001 -3.568737e+001
82218750 -2.861461e-001 -3.658340e+001 -3.838858e+001 1.402519e+002 -4.244562e+000 -6.037821e+001 -2.894837e-001 -3.579002e+001
82590937.5 -3.188304e-001 -3.670559e+001 -3.790849e+001 1.406765e+002 -4.194051e+000 -6.049513e+001 -3.206001e-001 -3.602410e+001
82963125 -3.165866e-001 -3.690651e+001 -3.820908e+001 1.386647e+002 -4.096166e+000 -6.070631e+001 -3.176078e-001 -3.633744e+001
83335312.5 -2.852313e-001 -3.711918e+001 -3.784570e+001 1.392510e+002 -4.032534e+000 -6.088084e+001 -3.242555e-001 -3.641544e+001
83707500 -3.220941e-001 -3.729273e+001 -3.797277e+001 1.385144e+002 -3.941831e+000 -6.095424e+001 -3.145792e-001 -3.671274e+001
84079687.5 -3.130304e-001 -3.735380e+001 -3.778445e+001 1.397406e+002 -3.886201e+000 -6.121138e+001 -3.426426e-001 -3.687399e+001
84451875 -3.331714e-001 -3.757797e+001 -3.807666e+001 1.388737e+002 -3.826571e+000 -6.109101e+001 -3.380100e-001 -3.687114e+001
84824062.5 -3.554758e-001 -3.777311e+001 -3.781230e+001 1.377200e+002 -3.730664e+000 -6.135767e+001 -3.357881e-001 -3.708050e+001
85196250 -3.332470e-001 -3.796872e+001 -3.773011e+001 1.360714e+002 -3.693274e+000 -6.158221e+001 -3.654718e-001 -3.737264e+001
85568437.5 -3.369833e-001 -3.792923e+001 -3.761439e+001 1.390344e+002 -3.618934e+000 -6.163020e+001 -3.466177e-001 -3.739602e+001
85940625 -3.217063e-001 -3.829588e+001 -3.742140e+001 1.377360e+002 -3.537372e+000 -6.172858e+001 -3.494555e-001 -3.744068e+001
86312812.5 -3.380510e-001 -3.865413e+001 -3.740073e+001 1.380920e+002 -3.466988e+000 -6.200209e+001 -3.638447e-001 -3.787391e+001
86685000 -3.226390e-001 -3.863044e+001 -3.737884e+001 1.377337e+002 -3.392738e+000 -6.206028e+001 -3.665642e-001 -3.793176e+001
87057187.5 -3.548412e-001 -3.887430e+001 -3.718822e+001 1.355526e+002 -3.355186e+000 -6.224930e+001 -3.700501e-001 -3.804609e+001
87429375 -3.358229e-001 -3.880797e+001 -3.690904e+001 1.375113e+002 -3.257446e+000 -6.222946e+001 -3.789202e-001 -3.831037e+001
87801562.5 -3.462495e-001 -3.923494e+001 -3.716507e+001 1.358659e+002 -3.194594e+000 -6.257298e+001 -3.910140e-001 -3.845565e+001
88173750 -3.428081e-001 -3.928010e+001 -3.700309e+001 1.378947e+002 -3.136877e+000 -6.263416e+001 -3.975246e-001 -3.869143e+001
88545937.5 -3.477946e-001 -3.958187e+001 -3.681812e+001 1.370100e+002 -3.034343e+000 -6.281493e+001 -3.895296e-001 -3.870333e+001
88918125 -3.720677e-001 -3.956714e+001 -3.701807e+001 1.360299e+002 -2.992149e+000 -6.291178e+001 -3.865862e-001 -3.876862e+001
89290312.5 -3.557069e-001 -3.986585e+001 -3.685638e+001 1.336702e+002 -2.920071e+000 -6.293750e+001 -3.835551e-001 -3.911314e+001
89662500 -3.608406e-001 -4.005319e+001 -3.689718e+001 1.356887e+002 -2.860994e+000 -6.321192e+001 -4.138376e-001 -3.912794e+001
90034687.5 -3.601013e-001 -4.010630e+001 -3.638436e+001 1.365295e+002 -2.774455e+000 -6.320749e+001 -3.818144e-001 -3.942305e+001
90406875 -3.523340e-001 -4.033619e+001 -3.663214e+001 1.350609e+002 -2.722573e+000 -6.329822e+001 -4.017966e-001 -3.934332e+001
90779062.5 -3.945169e-001 -4.058303e+001 -3.652368e+001 1.341607e+002 -2.655530e+000 -6.370461e+001 -4.243132e-001 -3.983295e+001
91151250 -3.854082e-001 -4.055446e+001 -3.645916e+001 1.346577e+002 -2.585927e+000 -6.360836e+001 -4.450981e-001 -3.978390e+001
91523437.5 -3.772778e-001 -4.081084e+001 -3.641809e+001 1.336074e+002 -2.518225e+000 -6.401337e+001 -4.369422e-001 -3.997149e+001
91895625 -4.005320e-001 -4.122176e+001 -3.612621e+001 1.343235e+002 -2.448984e+000 -6.405998e+001 -4.242807e-001 -4.023639e+001
92267812.5 -3.686939e-001 -4.105477e+001 -3.612857e+001 1.322650e+002 -2.357089e+000 -6.407439e+001 -4.032233e-001 -4.028272e+001
92640000 -3.823527e-001 -4.129897e+001 -3.625357e+001 1.331448e+002 -2.307234e+000 -6.426643e+001 -4.465192e-001 -4.052998e+001
93012187.5 -3.910746e-001 -4.142796e+001 -3.612177e+001 1.328484e+002 -2.225958e+000 -6.446403e+001 -4.257161e-001 -4.087782e+001
93384375 -3.809870e-001 -4.175626e+001 -3.614227e+001 1.326491e+002 -2.168390e+000 -6.477423e+001 -4.307639e-001 -4.109563e+001
93756562.5 -3.970537e-001 -4.178577e+001 -3.601045e+001 1.345292e+002 -2.100941e+000 -6.478970e+001 -4.322980e-001 -4.115165e+001
94128750 -4.053324e-001 -4.210141e+001 -3.596253e+001 1.328046e+002 -2.056914e+000 -6.500370e+001 -4.460318e-001 -4.132023e+001
94500937.5 -4.239686e-001 -4.211074e+001 -3.590089e+001 1.330742e+002 -2.010475e+000 -6.510502e+001 -4.720931e-001 -4.142799e+001
94873125 -3.983779e-001 -4.249330e+001 -3.586520e+001 1.326023e+002 -1.901130e+000 -6.521084e+001 -4.565069e-001 -4.171226e+001
95245312.5 -4.252847e-001 -4.260774e+001 -3.566773e+001 1.324030e+002 -1.829177e+000 -6.549997e+001 -4.682717e-001 -4.183782e+001
95617500 -4.173277e-001 -4.286330e+001 -3.572376e+001 1.325096e+002 -1.812585e+000 -6.555437e+001 -4.930212e-001 -4.191442e+001
95989687.5 -4.188507e-001 -4.297591e+001 -3.533321e+001 1.316471e+002 -1.711551e+000 -6.569687e+001 -4.825216e-001 -4.218061e+001
96361875 -4.268541e-001 -4.315618e+001 -3.539633e+001 1.318599e+002 -1.647607e+000 -6.580536e+001 -4.927832e-001 -4.238109e+001
96734062.5 -4.260854e-001 -4.328539e+001 -3.545997e+001 1.315291e+002 -1.609766e+000 -6.586837e+001 -4.537580e-001 -4.253313e+001
97106250 -4.399874e-001 -4.336804e+001 -3.544484e+001 1.301503e+002 -1.530446e+000 -6.615482e+001 -5.009608e-001 -4.277653e+001
97478437.5 -4.348346e-001 -4.353958e+001 -3.547125e+001 1.300602e+002 -1.454304e+000 -6.646067e+001 -4.866810e-001 -4.311422e+001
97850625 -4.299541e-001 -4.378621e+001 -3.525733e+001 1.307398e+002 -1.403185e+000 -6.654440e+001 -4.720703e-001 -4.295330e+001
98222812.5 -4.639491e-001 -4.399937e+001 -3.544290e+001 1.317883e+002 -1.360079e+000 -6.665014e+001 -4.927991e-001 -4.312321e+001
98595000 -4.646384e-001 -4.419402e+001 -3.534208e+001 1.311381e+002 -1.247092e+000 -6.680772e+001 -4.812821e-001 -4.327454e+001
98967187.5 -4.709496e-001 -4.435450e+001 -3.507968e+001 1.300322e+002 -1.235901e+000 -6.707837e+001 -5.227523e-001 -4.340226e+001
99339375 -4.651731e-001 -4.464097e+001 -3.504917e+001 1.295450e+002 -1.161447e+000 -6.714571e+001 -4.840655e-001 -4.370758e+001
99711562.5 -4.630003e-001 -4.459390e+001 -3.497796e+001 1.290580e+002 -1.095272e+000 -6.712193e+001 -5.206039e-001 -4.380264e+001
100083750 -4.768313e-001 -4.505079e+001 -3.478858e+001 1.290645e+002 -1.039454e+000 -6.757939e+001 -5.153369e-001 -4.385973e+001
100455937.5 -4.680968e-001 -4.488681e+001 -3.487651e+001 1.306618e+002 -9.677358e-001 -6.754816e+001 -5.314645e-001 -4.413698e+001
100828125 -4.699801e-001 -4.535059e+001 -3.484272e+001 1.303105e+002 -9.055312e-001 -6.767831e+001 -5.335937e-001 -4.437410e+001
